# HZ S RI R 50
1000000 0.9713555006828014 -0.23589865931681617
1122500 0.9639420477119738 -0.2644182851374381
1245000 0.9557094009652168 -0.29277082959950995
1367500 0.9464926400979109 -0.3211310448324498
1490000 0.9362626612133979 -0.34941209899472003
1612500 0.9250856358062408 -0.3774716001426149
1735000 0.9132616737560757 -0.4052037819221991
1857500 0.9005762306523255 -0.43305593292245725
1980000 0.8865557544386603 -0.4604562780058392
2102500 0.871976589751183 -0.4879422903549373
2225000 0.8557974620021808 -0.5152143733621293
2347500 0.8382080698424419 -0.5415268001830899
2470000 0.8219450516226753 -0.5674228571747875
2592500 0.8032404542494711 -0.5939918447331555
2715000 0.783220274168558 -0.6197687177016376
2837500 0.7624463952636381 -0.6449340904641734
2960000 0.7406091779598771 -0.6700933514333312
3082500 0.7173909172984816 -0.694611356121367
3205000 0.6933713942843815 -0.7182856100168087
3327500 0.6683915408216956 -0.7417984610964948
3450000 0.641783865897734 -0.764680772671327
3572500 0.614141966860476 -0.7865166492600861
3695000 0.5855670833390755 -0.8077249968045173
3817500 0.5551159942313273 -0.8282058785506795
3940000 0.5234580222012284 -0.8458719377030675
4062500 0.49467702806400504 -0.8651161473870206
4185000 0.46238740079980556 -0.8837978961922044
4307500 0.428107462180632 -0.9013114335496433
4430000 0.3932073041296687 -0.91705705587431
4552500 0.35699578667698884 -0.9315701804709942
4675000 0.31948915302117004 -0.9448518345950546
4797500 0.28122000134681 -0.956664202044238
4920000 0.24212682576700187 -0.9672194345915317
5042500 0.2018535646912441 -0.976255468492451
5165000 0.161047360385007 -0.9834704157412664
5287500 0.11936717912912852 -0.9890397091948109
5410000 0.0766606809916975 -0.9930992241883679
5532500 0.033346702317114556 -0.9951293610492553
5655000 -0.010523229278246908 -0.9951539023134953
5777500 -0.055178228324881236 -0.9932993978602442
5900000 -0.10004670829768984 -0.9890800606688293
6022500 -0.14407782483532347 -0.9833561457842299
6145000 -0.18883255969920995 -0.976155819807979
6267500 -0.2340761128046827 -0.9661078078148587
6390000 -0.2793890164315504 -0.953759411310447
6512500 -0.3243102835676593 -0.9391614164178478
6635000 -0.3693212423947248 -0.9220538636471778
6757500 -0.41438937681303323 -0.9023280276765253
6880000 -0.4576572916153487 -0.8809459150824254
7002500 -0.5002618075006797 -0.8571813862824061
7125000 -0.5430737389966617 -0.8303105632456665
7247500 -0.5846074795132106 -0.8013349409725694
7370000 -0.6231013165785902 -0.7714984045970388
7492500 -0.6623440275270412 -0.7375586371824326
7615000 -0.700128583709625 -0.7012758452124666
7737500 -0.7343786672548219 -0.664992789865443
7860000 -0.7683552602016073 -0.6253657127247494
7982500 -0.8005977199962209 -0.583130101967768
8105000 -0.8299822347317568 -0.5401803285401154
8227500 -0.8570279058639636 -0.4957795419382258
8350000 -0.8824989315428367 -0.4483190049223951
8472500 -0.9049967747790316 -0.40048056005212823
8595000 -0.9248954824711515 -0.3518793161126727
8717500 -0.9425928633425819 -0.30079554543133147
8840000 -0.957323137328193 -0.24924997499681617
8962500 -0.9693364833961843 -0.19669117857217217
9085000 -0.9785327035124114 -0.14340058907660858
9207500 -0.9846846702278209 -0.08917456451396749
9330000 -0.9879504688522691 -0.03427720104582906
9452500 -0.9880789652935278 0.020709479340346944
9575000 -0.9850833147194425 0.07604957963069098
9697500 -0.9787818377457536 0.1318996666697942
9820000 -0.9689143912733498 0.18831457427475753
9942500 -0.9555712513685181 0.2442121126336505
10065000 -0.9386417284026778 0.3006553668598815
10187500 -0.9175440825745003 0.35722876714488705
10310000 -0.89212076257101 0.41353869308081487
10432500 -0.8613793482529997 0.4708040002594867
10555000 -0.8249819550101989 0.527876005961581
10677500 -0.7817442842320583 0.5850221263884146
10800000 -0.72957492783002 0.642959312786725
10922500 -0.666631466228717 0.7004696809188393
11045000 -0.5891912636620984 0.7563608201738741
11167500 -0.49157740898654156 0.8094197159241637
11290000 -0.36655051258032373 0.8544727368014607
11412500 -0.20375107695113284 0.8784585183812623
11535000 0.008377430970905264 0.8572293412535278
11657500 0.26915944323515384 0.7375763723909072
11780000 0.5135021265072501 0.43476216288668773
11902500 0.5381339337605472 -0.06722035352588057
12025000 0.18340229251588464 -0.4910494803832582
12147500 -0.295514986606445 -0.5637879285145764
12270000 -0.6250594673196433 -0.4085647372475015
12392500 -0.7942462524499017 -0.2059145916306617
12515000 -0.8665989528323238 -0.02612320403418082
12637500 -0.8887477915992557 0.12000371663139962
12760000 -0.885182380414915 0.23787715454378672
12882500 -0.8684679036808994 0.33357233914653633
13005000 -0.8451403428162566 0.4118076988624162
13127500 -0.818003997736114 0.47761209213766254
13250000 -0.7890331631765767 0.5336419622295847
13372500 -0.7597093078242274 0.581470220588216
13495000 -0.7298023914319974 0.6230760918457133
13617500 -0.700100949776265 0.6597399789662206
13740000 -0.6710951849150166 0.6923838358013266
13862500 -0.6414885401797003 0.7216767490489324
13985000 -0.6132521966115816 0.7456649659211515
14107500 -0.5857391421659565 0.7684402753069846
14230000 -0.5582858761007102 0.7890148959153682
14352500 -0.5313378391681653 0.8076372454859893
14475000 -0.5055460711246015 0.8242396835626994
14597500 -0.47988965549376406 0.8391958063238321
14720000 -0.4550202407130356 0.8527721607112518
14842500 -0.43108595118329984 0.8647011715020199
14965000 -0.4076559459304327 0.8757603738332331
15087500 -0.384946976815681 0.8860778042858115
15210000 -0.36294389090804563 0.8953443110560626
15332500 -0.34161191635876714 0.9039716972714863
15455000 -0.3207989375670388 0.9121468101744571
15577500 -0.30015664631948374 0.9191599589089448
15700000 -0.28060892086404854 0.9264307529245851
15822500 -0.2615561001181608 0.9336565787203687
15945000 -0.2421340179509657 0.9401726837844491
16067500 -0.22318400136319635 0.9464995675189037
16190000 -0.20445282052023375 0.9529643946994083
16312500 -0.1850395012433585 0.9585245243195728
16435000 -0.1657687339141692 0.9635702856164179
16557500 -0.14702859512074157 0.9677068533854459
16680000 -0.1276668425047692 0.9717755166258284
16802500 -0.10886932466048556 0.9746838826254446
16925000 -0.09036980351657735 0.9772455087016931
17047500 -0.07216478481165536 0.9795118238931145
17170000 -0.05410871788188867 0.9811358300424293
17292500 -0.036734798514787156 0.9821668155512093
17415000 -0.01960140686612487 0.9828994849625124
17537500 -0.0025985140856709136 0.9834928398071883
17660000 0.013714454554939732 0.9833168431071005
17782500 0.029452718681855623 0.9831853742342496
17905000 0.04517495356988337 0.9829606341224639
18027500 0.060549646947085076 0.9819654705859471
18150000 0.0750473164190042 0.9810083992980796
18272500 0.08971173615020295 0.980303942423489
18395000 0.1041691324394094 0.9788868986318757
18517500 0.11807081813087492 0.9774847586069305
18640000 0.1312581877416833 0.975942086966352
18762500 0.14496556126496637 0.9743648717751465
18885000 0.158111492598014 0.9722713899317206
19007500 0.1705866047158477 0.9700289070304383
19130000 0.18333009564666056 0.9676609899686391
19252500 0.19575759061783427 0.9648482375106479
19375000 0.2072912331286578 0.9624115452715113
19497500 0.21934926559969822 0.9600462908730995
19620000 0.23099367597236134 0.9575871884759009
19742500 0.24216327626283235 0.9544797246800334
19865000 0.25316503144976177 0.9518176775841889
19987500 0.26390047035600883 0.9484670281918851
20110000 0.2748211798337719 0.9458590805755422
20232500 0.2850464489059113 0.9431499520250113
20355000 0.2955620915421635 0.9400238172457138
20477500 0.3053194606359625 0.936716823563244
20600000 0.3148649148867229 0.9339235457628616
20722500 0.32477527674713413 0.9309884069926884
20845000 0.33406116806112424 0.9273477161018657
20967500 0.3431911967371738 0.9241992239388167
21090000 0.35274760811721145 0.9210961648777536
21212500 0.36202338896170827 0.917175529174092
21335000 0.37061028166883203 0.9136112005121451
21457500 0.3792156119363204 0.9105131503168615
21580000 0.3882908613532382 0.9065097495350343
21702500 0.3966541457798695 0.9028725365900645
21825000 0.40470428450166007 0.899628141617607
21947500 0.41327623907761984 0.8960276256895119
22070000 0.42119062465813006 0.8922784444186622
22192500 0.4288845757881186 0.8888311093989717
22315000 0.4369875940330026 0.8853863924337398
22437500 0.44481454299801504 0.8814002646448982
22560000 0.4519595394789759 0.8778065730462561
22682500 0.45938018655068347 0.8748450414611049
22805000 0.4669303724789135 0.8715718791072677
22927500 0.47391322625746873 0.8684647065551898
23050000 0.48175048315250946 0.8672399497844708
23172500 0.48998802901529237 0.8619877441897206
23295000 0.4958884724907381 0.8546923482450484
23417500 0.5018972087426646 0.8505007837656992
23540000 0.5083050688987071 0.8469757550465444
23662500 0.5148161333468216 0.8429628129058765
23785000 0.5205665140149847 0.8393269876770262
23907500 0.5265125265158248 0.8359352040939804
24030000 0.5331142552502004 0.8320510906222169
24152500 0.5389057824978267 0.8283137393282318
24275000 0.5443800524720093 0.8249303208124374
24397500 0.5506102300035077 0.8211614156883624
24520000 0.5562439112889878 0.816711242283667
24642500 0.5613598854203268 0.8131985903218695
24765000 0.5671110744179775 0.8097120176652886
24887500 0.5726310089337617 0.8057025219400729
25010000 0.5772215589053699 0.801996436925241
25132500 0.5825144352485296 0.7987861175063502
25255000 0.5880297694784196 0.7950604975011119
25377500 0.5925883377934883 0.7910359672886228
25500000 0.5974648311291518 0.7878399385004979
25622500 0.6025563114144579 0.7845303787828104
25745000 0.6073825729936027 0.780516952388104
25867500 0.6117550781439034 0.7771214719380334
25990000 0.6165348650550895 0.7737649563545725
26112500 0.6213013847820142 0.7696658894586649
26235000 0.6255369192620018 0.7661639821835466
26357500 0.6298990214418447 0.7629961286817578
26480000 0.6347309406967101 0.7592609388679485
26602500 0.6387430207322256 0.7557724516633518
26725000 0.6432348316130967 0.7526677983427832
26847500 0.6478017042773644 0.7488091847994118
26970000 0.6516138420424449 0.7455710553410012
27092500 0.6556668748290106 0.7423956913120754
27215000 0.6603879766701439 0.7385601000704255
27337500 0.6641312532328381 0.7346847885032175
27460000 0.6677710273648774 0.7315357280530611
27582500 0.6720611474206487 0.7281028916459816
27705000 0.6760334288959453 0.7242061181584813
27827500 0.6793485041459659 0.7208877556844976
27950000 0.6833909128319363 0.7177434854499888
28072500 0.6872384077008254 0.7140945399380423
28195000 0.6905458957682272 0.7104933211706941
28317500 0.6939991917883063 0.7074631793549259
28440000 0.6979267995134826 0.7040305549354244
28562500 0.7011700890184285 0.700223494925496
28685000 0.7043142404113737 0.697239539477191
28807500 0.7079258126721214 0.6942112615317292
28930000 0.711364879460885 0.6904845109620997
29052500 0.7142671184906558 0.6871998704493603
29175000 0.7174576547624116 0.6844233568914098
29297500 0.720967442125724 0.6810172574273641
29420000 0.7236656908441284 0.6777451712996524
29542500 0.7265285224554998 0.675034293585465
29665000 0.7301299010385178 0.6717244205047876
29787500 0.7330622548018226 0.6682187897966035
29910000 0.7356651590081169 0.6651848564282156
30032500 0.7390211937265361 0.6620760429603729
30155000 0.7419889485145501 0.658726194633988
30277500 0.7442841815669411 0.6556413604296134
30400000 0.7472866155565119 0.6529505721546776
30522500 0.7503820556088485 0.6496272398566716
30645000 0.7526222141199839 0.6463577903666577
30767500 0.7552923042226679 0.6435901499466102
30890000 0.7583294855846922 0.6405868388444118
31012500 0.7608307573204109 0.6370904472961042
31135000 0.7632006948827987 0.6343114076218165
31257500 0.7660596681420068 0.6317368726444691
31380000 0.768767858281679 0.6283633447212283
31502500 0.7710413011972866 0.6254580576431209
31625000 0.7736400593494617 0.6228111147486874
31747500 0.7763519733879412 0.6195639812521896
31870000 0.7787029423078096 0.6163446514447061
31992500 0.7807275636935347 0.6137237332427975
32115000 0.7834466440318126 0.6105976914665224
32237500 0.7856411670123326 0.607394042066726
32360000 0.7876378822439016 0.604626685956887
32482500 0.7902755762837661 0.6019312012223983
32605000 0.7925336777641712 0.598722044172705
32727500 0.794376901761895 0.5957847001144648
32850000 0.796750015371455 0.5933467359340439
32972500 0.7991422064477925 0.5903677889233788
33095000 0.8009801471128406 0.5872932644032068
33217500 0.803014002269918 0.5846991882800764
33340000 0.8054205883083433 0.5820067614838874
33462500 0.8074044712330493 0.5790231572734782
33585000 0.8091322692206451 0.576449438968665
33707500 0.8113003724698419 0.574165516808893
33830000 0.8134986076855717 0.5713838444896965
33952500 0.8152291968026631 0.5688989594852903
34075000 0.817129477719694 0.5664800370315297
34197500 0.8193042358969989 0.5634979863415928
34320000 0.820970108352965 0.5604146491019071
34442500 0.8224922450513766 0.5581529800360556
34565000 0.8246302064595938 0.5557822141346954
34687500 0.8266131392586386 0.5532682965593783
34810000 0.8282837880866417 0.5506230465722917
34932500 0.830367618129867 0.5480164632982993
35055000 0.832427513107576 0.5450586045300443
35177500 0.8337270793089852 0.5420758263776088
35300000 0.8354629552341842 0.5397613696517174
35422500 0.8375312191646445 0.5370762153009334
35545000 0.8389418145593613 0.5341150869097817
35667500 0.8405072931669102 0.5318100881284742
35790000 0.8422909003641231 0.5293475141111557
35912500 0.8440270789915114 0.526475380777116
36035000 0.8454229160659809 0.523896111906894
36157500 0.847088498140404 0.5217238115855368
36280000 0.8489092961987483 0.5189532929943157
36402500 0.8502492410679816 0.5162630217474349
36525000 0.8517501467151806 0.5142142355205145
36647500 0.8535029510244375 0.5115947436269205
36770000 0.8549315862026469 0.5089679396337877
36892500 0.8561741756239285 0.5066498228964263
37015000 0.8579103906688308 0.5043309204953991
37137500 0.8594864757929024 0.5017954204103052
37260000 0.860512332601864 0.499524434102793
37382500 0.8621175106590372 0.4973224013061154
37505000 0.8636432335701824 0.4948692334891872
37627500 0.8648691759230518 0.4924320404540994
37750000 0.8662439100180871 0.4901891317323417
37872500 0.8677264620167242 0.48797922204611305
37995000 0.8690528006296998 0.485208630101253
38117500 0.8703597122496787 0.48301656940731397
38240000 0.8718338196225468 0.4810152550182876
38362500 0.8735293204504152 0.47856181433757217
38485000 0.8744566224946111 0.4758854963255976
38607500 0.875693556622024 0.4737197089672116
38730000 0.8770918248938765 0.47127818504361496
38852500 0.8782352316566435 0.4687106870278634
38975000 0.8794428446119344 0.4668517658969152
39097500 0.880793598959258 0.46442223223025236
39220000 0.882006833633146 0.46191087973417483
39342500 0.8829308940769338 0.459934227612189
39465000 0.8843582572281236 0.4576933667434607
39587500 0.8856647234885958 0.4552140884857029
39710000 0.8866031274888619 0.452914753008212
39832500 0.887746754921703 0.4507031110890742
39955000 0.8891135031905785 0.44851530725992056
40077500 0.8900023524167735 0.4461005945352844
40200000 0.8910564760587947 0.4441837132776342
40322500 0.8922760562362094 0.4420966260136637
40445000 0.8933060423086331 0.439816024642714
40567500 0.8943034264516793 0.43772810081951996
40690000 0.8955147844269323 0.43572205175026446
40812500 0.8964468740804921 0.43333866295456563
40935000 0.8973228552117753 0.4311491973581251
41057500 0.8983245446024076 0.4294663995895735
41180000 0.8993638929886614 0.42729894134044283
41302500 0.9001737548488096 0.42531761241376353
41425000 0.9011117379166016 0.42350553948478725
41547500 0.9022690621763498 0.42143953819473096
41670000 0.9033482238465642 0.41931367684590903
41792500 0.9041292379537427 0.417297427094425
41915000 0.9053642254427551 0.41530962202153565
42037500 0.9065313256125549 0.4130121702315489
42160000 0.907267717384061 0.41086860289569455
42282500 0.9083424042642755 0.40882025416107537
42405000 0.9092860175706498 0.40676965486893635
42527500 0.9102090552392733 0.40455686763865895
42650000 0.9110151859013589 0.4026041917487518
42772500 0.9120355883344331 0.4005529948873893
42895000 0.912883758241399 0.3984080180114123
43017500 0.9135901456117951 0.39650451648111246
43140000 0.9146045928244616 0.3945645355297531
43262500 0.9155184564326778 0.3923895102861736
43385000 0.9162115884638762 0.390447910688996
43507500 0.9171274421697074 0.38862357562615796
43630000 0.918160958606046 0.3865333075048712
43752500 0.9189304601099691 0.3846144219218799
43875000 0.9196303609437121 0.3827271754916273
43997500 0.9206360097471922 0.380835024684223
44120000 0.921539778119947 0.37871631243269854
44242500 0.9222025016393488 0.3768266502079663
44365000 0.9233182144055023 0.3750221000191279
44487500 0.9239423981065236 0.3726778448378721
44610000 0.9245904147883262 0.37116377562078073
44732500 0.9256937276418669 0.3690655574750329
44855000 0.9265286103392001 0.3668935412355987
44977500 0.9268548945754341 0.36518510412597976
45100000 0.9279976672223922 0.3633681716619712
45222500 0.9288118879685422 0.36133010530756965
45345000 0.9291612563174648 0.35931563885939793
45467500 0.929949982303629 0.3577221910459001
45590000 0.9309882122705604 0.3557869913779143
45712500 0.9314009413113687 0.35347097168093716
45835000 0.9319448023632098 0.3520317986699064
45957500 0.9328206317799727 0.35023277777912476
46080000 0.9336002374091354 0.34799080327858267
46202500 0.9340200522071986 0.3462573071531288
46325000 0.9348952146728323 0.34479334991267685
46447500 0.9357855761592541 0.3426617414192865
46570000 0.9361040651306719 0.340723175315598
46692500 0.9367943383501169 0.3392114099799706
46815000 0.9377818329588763 0.33733639018046657
46937500 0.9382419300335576 0.3353189876226611
47060000 0.9386522579766325 0.33381588727013783
47182500 0.939582901444344 0.3319815182527194
47305000 0.9402607164653899 0.32999001681445617
47427500 0.9405521957301923 0.328297079649062
47550000 0.9414790832224106 0.32669103899271956
47672500 0.94232743926738 0.3246126005321534
47795000 0.9425119740315665 0.3226219410215801
47917500 0.9432456753935115 0.32118206766864144
48040000 0.9442176737640264 0.3193910228776784
48162500 0.9445321811591615 0.3172624418595735
48285000 0.944913466056748 0.31575108484131725
48407500 0.9457203660916381 0.31424199523551527
48530000 0.9461969700698842 0.31212217913833723
48652500 0.9466637460536017 0.31074573281315016
48775000 0.9473879635859374 0.30939825517899006
48897500 0.9483537306029586 0.3073057244996347
49020000 0.9487057206839604 0.3055731761618779
49142500 0.9492735955500762 0.30404801679130455
49265000 0.9502425456684679 0.30208306929324485
49387500 0.9506778891427475 0.3002027507498734
49510000 0.9510545568559607 0.29861397453835764
49632500 0.9519217863181122 0.2968496057424152
49755000 0.9524174925761266 0.29491896673864215
49877500 0.9526537419728612 0.2931938154855501
50000000 0.9535026180346942 0.2917519741373679
