# HZ S RI R 50
1000000 0.9710994379742228 -0.2357187717805997
1122500 0.9637617812265374 -0.26422978867332847
1245000 0.9555627185656563 -0.2926260369158304
1367500 0.946358704820176 -0.3209126740910643
1490000 0.9361814570671037 -0.3490579977997147
1612500 0.9251898816147088 -0.37709927151954886
1735000 0.913406915200672 -0.4048319037483348
1857500 0.9005632850055436 -0.4325502147419946
1980000 0.8868682845755375 -0.459824397350878
2102500 0.8721151773409205 -0.4870356636843909
2225000 0.8563847685696184 -0.513987975682164
2347500 0.839913640776415 -0.5404051421326327
2470000 0.8224399721916292 -0.5667433891145333
2592500 0.8036822626612832 -0.5927601015201013
2715000 0.7841527291789562 -0.6183236603687687
2837500 0.7635148979321087 -0.6433932142766657
2960000 0.7420158233595913 -0.6680497433405197
3082500 0.7192868317297896 -0.6922596230499042
3205000 0.6955154542727311 -0.7158653984523444
3327500 0.671105842150921 -0.7391959419729061
3450000 0.6451242993289045 -0.7616630183953645
3572500 0.6182599256423492 -0.7834452568682797
3695000 0.5905074727731936 -0.8045428674978549
3817500 0.5614295507328573 -0.8249388052553297
3940000 0.5314371812261938 -0.8444127639138326
4062500 0.5006435854162864 -0.8628146231607996
4185000 0.4683434148343188 -0.8804811898048955
4307500 0.43511582587615444 -0.897428554828147
4430000 0.4012531380655397 -0.9128774546553784
4552500 0.36640534979926453 -0.9274860386881135
4675000 0.33011758704586325 -0.9406765361286863
4797500 0.2932538219238873 -0.9525245960224885
4920000 0.25566493026183335 -0.9633397904332227
5042500 0.21688121835951416 -0.9725046525063503
5165000 0.1774993891323679 -0.9801527080133924
5287500 0.13755215351805958 -0.986263502184755
5410000 0.0967103432548723 -0.9910873410663329
5532500 0.05531732730074072 -0.9939429942016199
5655000 0.013536917311845661 -0.9949875271316785
5777500 -0.02876164605409791 -0.9944665742397716
5900000 -0.07162869710504942 -0.992157179192999
6022500 -0.11438898823378833 -0.9877064779420921
6145000 -0.15754489379682324 -0.9816743460115431
6267500 -0.200737242262007 -0.9734770652205669
6390000 -0.2437987468493034 -0.9631905924294594
6512500 -0.28668543731224166 -0.951123254399324
6635000 -0.32936133903564535 -0.9369581227555326
6757500 -0.3717216109347714 -0.9205522828713121
6880000 -0.41339414306041194 -0.9022139360611003
7002500 -0.4543749961133403 -0.88200605500312
7125000 -0.49479417372294904 -0.8596980745772752
7247500 -0.5340862349387465 -0.8354940876632041
7370000 -0.572421166460386 -0.8094785709648901
7492500 -0.6097409988372801 -0.7813598880503976
7615000 -0.6456074384490987 -0.7516323851203649
7737500 -0.680139872811734 -0.7201188682235357
7860000 -0.7135151744269267 -0.6871663822671763
7982500 -0.7449537605713484 -0.65250755638088
8105000 -0.774768773159409 -0.6164239270433627
8227500 -0.802936741570082 -0.5790968220834949
8350000 -0.8291834708424952 -0.5404535436042253
8472500 -0.8535214137277226 -0.5008796497988541
8595000 -0.8760536391502389 -0.46029379326928044
8717500 -0.8965081310558728 -0.41891631686842035
8840000 -0.9147224487280212 -0.37689443140759743
8962500 -0.9311624523789241 -0.33416204220052326
9085000 -0.9455361539008695 -0.2910734556375301
9207500 -0.9576673475179422 -0.24779353174019186
9330000 -0.967903634434244 -0.20432016393286045
9452500 -0.9761622388698558 -0.1608786513043094
9575000 -0.9821774340782977 -0.1174063228539803
9697500 -0.9864634898607044 -0.07423393529666199
9820000 -0.9887154781762173 -0.031222613677368526
9942500 -0.988940086208469 0.011258473205761843
10065000 -0.9878256177894502 0.05302510867774345
10187500 -0.98480591160057 0.0941710876740621
10310000 -0.9801215157860765 0.13468535064527662
10432500 -0.9738533591949988 0.17456943530952715
10555000 -0.9659602235347013 0.21358239181264618
10677500 -0.9569347487390623 0.25145606241009727
10800000 -0.946480867156806 0.288651729072661
10922500 -0.9346686526145261 0.32481478643452516
11045000 -0.9217385580523697 0.35964451743347586
11167500 -0.9077522750638441 0.39366074479796964
11290000 -0.8927615380792865 0.42657878105575026
11412500 -0.8768568174529526 0.4584032243663122
11535000 -0.8601870693673853 0.48904333243254866
11657500 -0.8426029518893344 0.5186935871854859
11780000 -0.8245183991280246 0.5466404726332594
11902500 -0.8057679370450537 0.5741404708967177
12025000 -0.7862851158702434 0.6004307149398641
12147500 -0.7664532538798995 0.6253055383107621
12270000 -0.746402163426936 0.649131183118549
12392500 -0.7257638492532814 0.6721737033600755
12515000 -0.70469593341027 0.6937177877225966
12637500 -0.683635571374966 0.7145127284479731
12760000 -0.6623862722259662 0.734288343456454
12882500 -0.6407662344030286 0.7528447507813291
13005000 -0.6192337427424427 0.7705353382578322
13127500 -0.5976794477488647 0.787600123948919
13250000 -0.5756795143053914 0.803272219849784
13372500 -0.5539935918522304 0.8183062750441394
13495000 -0.5324540577980952 0.8325999919807531
13617500 -0.510634487584124 0.8459970516577846
13740000 -0.48914397758407585 0.8590146176291591
13862500 -0.4673057326702463 0.8716240436121933
13985000 -0.4459953309911247 0.8808225144741139
14107500 -0.4251204152538421 0.8907662417893218
14230000 -0.4042788768022712 0.900288874371296
14352500 -0.3835123637490077 0.9094537509506967
14475000 -0.36292744683886546 0.9177115029625533
14597500 -0.3425695407979765 0.9250294731781995
14720000 -0.32255291187403573 0.9323872147094082
14842500 -0.3026265701812676 0.938847605931413
14965000 -0.2827728507406968 0.9445587914179014
15087500 -0.2635599996186389 0.9502042457001593
15210000 -0.2444144120552839 0.9552969833250297
15332500 -0.22526352202992558 0.9597992364398972
15455000 -0.2069511357035173 0.9641350811311671
15577500 -0.18859083239912083 0.9678335426260597
15700000 -0.17026552872470171 0.9712075537550311
15822500 -0.15249981114464503 0.974022089904388
15945000 -0.1350186727204923 0.9765371954933405
16067500 -0.11751493086291487 0.978922267688967
16190000 -0.10051899412194072 0.9808095488420184
16312500 -0.08387821653651008 0.9821486725287603
16435000 -0.06716792749289503 0.9837767250865374
16557500 -0.05084079393427582 0.9842831596118089
16680000 -0.03501066734368557 0.9847942998801003
16802500 -0.019471391269331645 0.9854053076489924
16925000 -0.00379295095585836 0.9856652793137928
17047500 0.01129222244737537 0.9852043574800804
17170000 0.02604639096472005 0.9852281407833374
17292500 0.04100456262569085 0.9849069767467469
17415000 0.05550471107674922 0.9839252776336828
17537500 0.06955141640247967 0.9833095698724492
17660000 0.08363795387235837 0.9822545036534378
17782500 0.09730608908016329 0.9804731396163816
17905000 0.11052807268370833 0.9789783511881827
18027500 0.12363179265578397 0.9775214208611374
18150000 0.13670556905293327 0.9757800844306462
18272500 0.14944963211125623 0.9739629317883337
18395000 0.16182843536373134 0.972216363266419
18517500 0.17437419866815848 0.9704433799131771
18640000 0.18619822003001724 0.9678699285160302
18762500 0.1979037349221671 0.9656306629979247
18885000 0.20970057032166142 0.9634942758721924
19007500 0.22141461991767192 0.9609444917878842
19130000 0.2322476290211747 0.9577674989120856
19252500 0.2433379412807846 0.9550668226872596
19375000 0.25420756855045307 0.9523706754571993
19497500 0.265015616339068 0.9490847639185507
19620000 0.2751776018266785 0.9464430878813415
19742500 0.2856080570255754 0.9436156064686354
19865000 0.29589277425579763 0.9401501882281541
19987500 0.305727086805504 0.936033798977496
20110000 0.3150964873993509 0.9341323135489206
20232500 0.3250314943213905 0.9308550347987811
20355000 0.334199079770743 0.9275229861437702
20477500 0.34335699448296253 0.924485469831628
20600000 0.35260317881065395 0.9212835853327975
20722500 0.36157285506232195 0.9177754213769034
20845000 0.37002710864979343 0.9143705981281245
20967500 0.37890404117242443 0.9109833096324128
21090000 0.38748061616627744 0.9073930657330169
21212500 0.3954058384383619 0.9035924278958734
21335000 0.4036506588357168 0.9003549823322603
21457500 0.4118534474055341 0.8969224522044142
21580000 0.41963772847638414 0.8927567077069609
21702500 0.4273748171270405 0.8894162310471735
21825000 0.43501673086279646 0.8861161721978219
21947500 0.4425854430643315 0.8822071578907683
22070000 0.4496847869863078 0.8789270690368727
22192500 0.45702585517343375 0.8755529029346927
22315000 0.4643575570743134 0.8718018799774094
22437500 0.4711099195607981 0.8681033704592037
22560000 0.4779161005198233 0.8649449957480448
22682500 0.485025902655597 0.8616359649024905
22805000 0.49164790189555313 0.8582243750176118
22927500 0.4980147378516742 0.8556015413020027
23050000 0.5056762625329255 0.8543520229682912
23172500 0.5131842244213731 0.8488222496748816
23295000 0.5183737966636264 0.8418565572552718
23417500 0.5242782896931841 0.8378400183705667
23540000 0.5303066930192557 0.8338031954787473
23662500 0.5359304670750898 0.8298919971314879
23785000 0.5415118900027679 0.8266186216596793
23907500 0.5476261465785643 0.8232170361440702
24030000 0.5532409784803458 0.8189269302928793
24152500 0.5585407583045003 0.8156013052279879
24275000 0.5640816632326782 0.812346335343762
24397500 0.569728181922112 0.8083153650063284
24520000 0.5748938349480613 0.8042471115121255
24642500 0.5800055862748658 0.8008175717928083
24765000 0.5855808807351569 0.7968879988256609
24887500 0.5904202885193609 0.7928713752560576
25010000 0.5949870636319076 0.7894365223623964
25132500 0.6004247786231586 0.7860015281988032
25255000 0.6053816696503445 0.7820441163286047
25377500 0.609533803536396 0.7784647466776132
25500000 0.6146560511917414 0.7753404822222792
25622500 0.6194435425425595 0.7714389399564093
25745000 0.623655457521809 0.7675956578071566
25867500 0.6281588299431202 0.7644813340324542
25990000 0.6328905716738453 0.7608857345661354
26112500 0.6370389047740936 0.7568168753986793
26235000 0.641140737096502 0.7537917691952064
26357500 0.6456418915859609 0.7505918162032159
26480000 0.6499488359712766 0.746503031345482
26602500 0.6538237707369324 0.7433212777744597
26725000 0.6580173928616573 0.7402168410790276
26847500 0.6624041396434247 0.7362723278473133
26970000 0.6659475519616066 0.7328499484940838
27092500 0.6696061501389925 0.729850087850399
27215000 0.6739982004618846 0.7261851146334981
27337500 0.6775729829180563 0.7223493604965864
27460000 0.6809738916176026 0.7192398023141613
27582500 0.685012654295605 0.715943531894453
27705000 0.6887858364938023 0.7120948036240364
27827500 0.6918126065421126 0.7087671700588315
27950000 0.695631938873833 0.7058433293026051
28072500 0.6992853653755802 0.7023309960811739
28195000 0.7024609763154867 0.6987222812297427
28317500 0.7057686069101661 0.6957750815564032
28440000 0.7094386574726373 0.6925102736053793
28562500 0.7125201011940345 0.6888028518774922
28685000 0.7155008662768939 0.6859158810185254
28807500 0.7189464925408815 0.6829527850004169
28930000 0.7222199348185151 0.6790780033434839
29052500 0.7249737516616039 0.6759111874173557
29175000 0.7280097926525961 0.6733044370593884
29297500 0.7313952673636219 0.6697615847251677
29420000 0.7339752625193887 0.6664229595495395
29542500 0.7369286017154107 0.6638612328332121
29665000 0.7402545657517764 0.6604517050468017
29787500 0.7430624488889037 0.6570099252316453
29910000 0.7454633967335532 0.6540515671545343
30032500 0.7488051028560034 0.6509431496181092
30155000 0.7517028949023172 0.6475417869443553
30277500 0.7538489767360689 0.6445232817285282
30400000 0.756913614969589 0.6417020834888513
30522500 0.7598189201774688 0.6383847101385112
30645000 0.7620162683616022 0.6350666589799226
30767500 0.7646715650617406 0.6323268788932417
30890000 0.7676201012230535 0.6292796533235328
31012500 0.7698895822737147 0.6258902519508288
31135000 0.7722689357600832 0.6233526145439627
31257500 0.7749809068207125 0.6205822761447986
31380000 0.7775020306097563 0.6170744146149199
31502500 0.7795667972065158 0.6143321537142605
31625000 0.7821483695754323 0.6118169840061795
31747500 0.7847583920864261 0.6084748404364916
31870000 0.7869099031119735 0.6053118327332364
31992500 0.7888848103604171 0.6027216905125751
32115000 0.7915274712903746 0.5996224002849184
32237500 0.7935275507217916 0.5965525698758015
32360000 0.795502236622922 0.5939584626549118
32482500 0.7981602470620922 0.5911864684984652
32605000 0.8002549620087976 0.5879173438873273
32727500 0.8019630158558785 0.5851976828843777
32850000 0.8043297021310091 0.582769857895828
32972500 0.8066800494641424 0.5796298330699533
33095000 0.8083761071333114 0.5766523583592786
33217500 0.8103284170505918 0.5742040618069352
33340000 0.812793758409992 0.571344622682152
33462500 0.8145558521578847 0.5683958803969613
33585000 0.8162614567882597 0.5659028410487202
33707500 0.8183420464260386 0.5634529469439217
33830000 0.8203609718101385 0.5605277647656672
33952500 0.8220350373242861 0.5581253621566133
34075000 0.8239551375076393 0.556028796048015
34197500 0.8261514193810987 0.5530445232501958
34320000 0.8277464489414361 0.5499467403056212
34442500 0.829192979734389 0.5477821348136475
34565000 0.831287479435096 0.545324241247478
34687500 0.8331858369524483 0.5426726038313912
34810000 0.8347769917421534 0.540155998018308
34932500 0.8369551600022016 0.537506932252378
35055000 0.8388042417130249 0.5344636129494512
35177500 0.8400479127177777 0.5315940739030423
35300000 0.8418925103564888 0.5292240648603656
35422500 0.8439123860468982 0.5264599657750009
35545000 0.845083692301311 0.5235600430567697
35667500 0.8466819735190527 0.5213232888723297
35790000 0.8484507552718491 0.5187634472389883
35912500 0.8499775558483762 0.5158981117679009
36035000 0.8513885332609789 0.513431084225551
36157500 0.8530114985235313 0.5111675965813711
36280000 0.8546876268289901 0.508281304425298
36402500 0.8560094386578491 0.5056306499658966
36525000 0.8574543100024931 0.5036179055570559
36647500 0.8592043807549918 0.5009258696756257
36770000 0.8603848298531489 0.4982389793295381
36892500 0.8616730347047027 0.4961329891199487
37015000 0.86328594906068 0.49371104734074317
37137500 0.8647579256139114 0.4912028126979193
37260000 0.865740926664756 0.48890669602501996
37382500 0.8673997356967148 0.4866091869015206
37505000 0.8687893343615791 0.4841198074656399
37627500 0.8697580838066543 0.48167454103225454
37750000 0.8712458059301205 0.4796137094116648
37872500 0.8728493213566987 0.4772787515893575
37995000 0.8740650265379292 0.4745843232812659
38117500 0.8753785443422939 0.4725050884258904
38240000 0.8769245389630502 0.470324618294969
38362500 0.8786048100380422 0.46810312917669283
38485000 0.8795476181683229 0.4651866794149396
38607500 0.8807690565544529 0.4630848760694799
38730000 0.8821370749062948 0.4603825186908107
38852500 0.8831147733600708 0.4579245709781186
38975000 0.8843347374637837 0.45607569494242933
39097500 0.8857287535436286 0.453546317706843
39220000 0.8867921052820645 0.4509614880819301
39342500 0.8877045311326145 0.44906966483229643
39465000 0.8890927350367188 0.44672641054547685
39587500 0.8902572401857586 0.44417437372013496
39710000 0.891187800311537 0.44192050965690355
39832500 0.8922678760150835 0.43980556078656224
39955000 0.893619674784803 0.43759806833003145
40077500 0.8943864174873715 0.43526216986556515
40200000 0.8954321473298875 0.43319304893264277
40322500 0.896674020195574 0.4309126066363464
40445000 0.8975606266906411 0.4284371593585369
40567500 0.8985030771566276 0.4264586494352262
40690000 0.8997238411738153 0.4244281698873985
40812500 0.9005318847339289 0.4218836956259407
40935000 0.901365173260734 0.41970155112283714
41057500 0.9024354672866837 0.41793446987936456
41180000 0.9034038661417595 0.41552405040144175
41302500 0.9040897492579143 0.41345373339579433
41425000 0.9048556628351149 0.4116841583304444
41547500 0.9059755735576094 0.40933665594071733
41670000 0.9069211644843242 0.4072100902768276
41792500 0.9076516418527508 0.405153147988474
41915000 0.9086713259989889 0.40308143943258334
42037500 0.9095502441795522 0.40079585931119577
42160000 0.9101540690556238 0.39875908951409234
42282500 0.9112323760316283 0.3967976964662494
42405000 0.9121157856115564 0.39479100264554934
42527500 0.9127952093866634 0.3926237828419442
42650000 0.9136120423886678 0.39075757117867904
42772500 0.9146537269461964 0.3888189280838998
42895000 0.9154220646307906 0.38658527120517255
43017500 0.9161223040729565 0.3848845806916005
43140000 0.9172955320104275 0.3828541791888883
43262500 0.9180963123982807 0.38062449056654474
43385000 0.9188916853383523 0.3786433628753126
43507500 0.9197579713062604 0.37676481907392645
43630000 0.9206903451202574 0.3745205419919683
43752500 0.9214716563277415 0.3725124735379897
43875000 0.9220972540595131 0.37059131340070717
43997500 0.9229084043549616 0.36862941166419094
44120000 0.9237515910798992 0.3665304632947854
44242500 0.9244167798028143 0.3646669853503626
44365000 0.9252515514492042 0.36280494888871745
44487500 0.9260727603911016 0.3607496436871028
44610000 0.9268221472133902 0.3587924884495599
44732500 0.9275209227196246 0.35682087075208774
44855000 0.9284478750506427 0.3549766578067846
44977500 0.9291971811701095 0.3528131583358199
45100000 0.9299145170440978 0.35071326970332173
45222500 0.9306516628351286 0.34885982258148207
45345000 0.9313277917670325 0.34671254547433433
45467500 0.9319283232207419 0.34465070991373975
45590000 0.9325775662819987 0.3428411785236309
45712500 0.9331974946986372 0.3406109879600096
45835000 0.9337469930612655 0.3387237968449709
45957500 0.9341544448332483 0.3368560215997692
46080000 0.9350147638389736 0.3349893892504259
46202500 0.9354959993273452 0.33294386340310034
46325000 0.9360059842049396 0.33112883884049815
46447500 0.936760702548665 0.32942271653502003
46570000 0.9374318263364813 0.3274731166814773
46692500 0.9379008300582914 0.3255728538596234
46815000 0.9385715480513684 0.3240031137475499
46937500 0.9392423779760255 0.32211050306241595
47060000 0.9398308719095894 0.32018444895267706
47182500 0.940505191743652 0.3183881259311452
47305000 0.9412184373290164 0.3165108186390536
47427500 0.9418608103984862 0.314644432108982
47550000 0.9424785018687865 0.31266790660409854
47672500 0.9431439489853092 0.3107833650433551
47795000 0.9438356451367583 0.30884532148284344
47917500 0.9444093618478144 0.30704478508797306
48040000 0.9453223191516842 0.30518026685594773
48162500 0.9456647463639717 0.30277136594775694
48285000 0.9460967789544832 0.30110211913534174
48407500 0.9468608237010432 0.29946943067540277
48530000 0.9474363345900811 0.2971140702322488
48652500 0.9478626926587477 0.29539061836315045
48775000 0.9485506256392937 0.29377625132414165
48897500 0.9494387142188495 0.29141206338977604
49020000 0.9498998419728351 0.28928935363540687
49142500 0.9503153264973064 0.2873099072839456
49265000 0.951172183694798 0.2850617477943132
49387500 0.9515400764734799 0.28275475182237
49510000 0.9518098917134016 0.28068500968554705
49632500 0.9524862759686546 0.27863685855828163
49755000 0.9528886345109991 0.276292129664421
49877500 0.9531220489237988 0.27405710794988136
50000000 0.953661302469614 0.2721696566389604
