# HZ S RI R 50
1000000 0.971178634039794 -0.235846260793179
1122500 0.9640119440067123 -0.264684095708193
1245000 0.9555766815378574 -0.292636197573879
1367500 0.9463737981673886 -0.3211807316115742
1490000 0.9360919573419771 -0.34927234628720966
1612500 0.9251475873618693 -0.37716948732871197
1735000 0.9133953224832122 -0.40508185787655077
1857500 0.9003403666198841 -0.43282523346387386
1980000 0.8866125524051811 -0.46001127948013526
2102500 0.8720680798918669 -0.4872789771368718
2225000 0.8561928326635435 -0.5145458050639602
2347500 0.8395510676279703 -0.540753882529997
2470000 0.822112486679349 -0.5671331722378301
2592500 0.8034091720713498 -0.5933739838603542
2715000 0.7836090984920424 -0.6189747319659505
2837500 0.7630045181227746 -0.6438509857614614
2960000 0.7414993411986893 -0.6688433558392863
3082500 0.7185313998269467 -0.6930412709982373
3205000 0.6947381371194702 -0.7165520875924645
3327500 0.6702123746312709 -0.7400699272609044
3450000 0.6440368570413406 -0.76264285388736
3572500 0.6168868486787076 -0.7843533981551575
3695000 0.5891326015805023 -0.8054171974967536
3817500 0.5600312904085202 -0.8260871206363259
3940000 0.5295234963119476 -0.8457402701675671
4062500 0.4985250987304061 -0.8639778597787972
4185000 0.4658012986353293 -0.8816171718878733
4307500 0.43272733990910334 -0.8988377489899688
4430000 0.39844776667053383 -0.9140640571911415
4552500 0.36339742809893777 -0.928525459458462
4675000 0.3267721432349131 -0.9419234983846484
4797500 0.2893564337421047 -0.9538585125593351
4920000 0.2515840110478985 -0.9643509504734024
5042500 0.21250302990743591 -0.9737282701752934
5165000 0.1726414680289124 -0.981203459712286
5287500 0.13240326300847727 -0.9868635343404548
5410000 0.09125249507865309 -0.9915511948710217
5532500 0.04920858613985381 -0.9944791760198534
5655000 0.007144096497336796 -0.9949107384319299
5777500 -0.03554466892222476 -0.994268793860529
5900000 -0.07888793224790082 -0.9917829271291312
6022500 -0.12225567449490687 -0.9868511275569279
6145000 -0.1657224216786947 -0.9805384955791803
6267500 -0.20930686022458433 -0.971966554013663
6390000 -0.2530129292479554 -0.9610727630077677
6512500 -0.2960922607993626 -0.94809801035173
6635000 -0.33895997914044196 -0.933586087116473
6757500 -0.38200181999721733 -0.9165473975691684
6880000 -0.42389376589575084 -0.8972558627269429
7002500 -0.46490434254197766 -0.8765010983432374
7125000 -0.5058040394941873 -0.8536197691004526
7247500 -0.5454026521650571 -0.8283403602952011
7370000 -0.5835551873221151 -0.8013213687520505
7492500 -0.6210810759116964 -0.7727009941659382
7615000 -0.6572534276267513 -0.741804491406163
7737500 -0.6915468551190974 -0.7090627623018966
7860000 -0.7245343756363976 -0.6755035858173715
7982500 -0.7561031321461547 -0.6399414182398825
8105000 -0.7855988897200634 -0.6025404659730051
8227500 -0.8131232770439537 -0.5643462614704896
8350000 -0.8392288356093731 -0.5250019192585392
8472500 -0.863289228792015 -0.4843292663063489
8595000 -0.8849770547583979 -0.4429345232968208
8717500 -0.9051384964689035 -0.4008120941354546
8840000 -0.9230180145164321 -0.35758453815267616
8962500 -0.9384107780890842 -0.313800955884244
9085000 -0.9518554914981435 -0.2701728537643058
9207500 -0.9635309221503371 -0.22602098859402991
9330000 -0.9727042880004585 -0.18158015561152596
9452500 -0.9797177777011603 -0.1376126591486264
9575000 -0.9851151370506698 -0.09370518490319019
9697500 -0.9883688370256146 -0.049704808958292136
9820000 -0.9892275737815028 -0.006295917178107727
9942500 -0.988797939217776 0.036342828198577995
10065000 -0.9865005915953727 0.07882049259896627
10187500 -0.9820659719200424 0.12042049226718998
10310000 -0.9763442805935109 0.16090261741246883
10432500 -0.9690850153883687 0.20112456193727443
10555000 -0.9598547687971688 0.24063390712421043
10677500 -0.9495902591643729 0.27814546143230207
10800000 -0.9381743841494159 0.3153622444901182
10922500 -0.925198421530643 0.351639441118026
11045000 -0.9110751545907447 0.38615390509898456
11167500 -0.8960656934466844 0.4198438758760824
11290000 -0.8801265866319214 0.4526145617231392
11412500 -0.8629321479131336 0.48423930033382045
11535000 -0.8452787113813818 0.5142891341700391
11657500 -0.8269598000729358 0.5437224328627447
11780000 -0.8076674347536111 0.5713986802738027
11902500 -0.7880191426341902 0.5982043495072934
12025000 -0.7679428297714211 0.6241092520507218
12147500 -0.7470817958978174 0.6485834920088143
12270000 -0.7260893553213533 0.6717542966372844
12392500 -0.7049508792818209 0.69413705823628
12515000 -0.6831379293359388 0.7153957698305251
12637500 -0.6611534290875528 0.735366068419146
12760000 -0.6394195600363267 0.7543185291310525
12882500 -0.6172720855249918 0.7726382734305912
13005000 -0.594921708369546 0.7897506239319863
13127500 -0.5728437120511415 0.8057540243539814
13250000 -0.5504880621524351 0.8213055259218338
13372500 -0.5280174027766782 0.8358545233705476
13495000 -0.5059449455834694 0.8492100175764912
13617500 -0.48388179975352413 0.86197722587225
13740000 -0.46191244104935136 0.8744209666379948
13862500 -0.4397684826562619 0.8855978726724476
13985000 -0.41797276266857075 0.8959294347994844
14107500 -0.39639996970686764 0.9062078291264413
14230000 -0.3745558781949413 0.9151131699088557
14352500 -0.35374304724297795 0.922822144039204
14475000 -0.33353196581527944 0.9295547393889784
14597500 -0.3130051949846523 0.9359232083513797
14720000 -0.29270393613000567 0.9425551882240578
14842500 -0.2729197243803725 0.9476346766224192
14965000 -0.2529010769660852 0.9528093404602803
15087500 -0.23329099813279944 0.9575579461829389
15210000 -0.21437929738724873 0.9618854642662954
15332500 -0.1952532563168144 0.9660346884165802
15455000 -0.1763613014080999 0.9696989681565382
15577500 -0.15800742609717947 0.9726949707393593
15700000 -0.1398742762577271 0.9758987108324978
15822500 -0.12180260439531342 0.978402201264802
15945000 -0.1040022651625272 0.9797418000284596
16067500 -0.08679916663714715 0.9814747836718144
16190000 -0.06970166854470007 0.9831809616578673
16312500 -0.05271247763854507 0.9838588001488433
16435000 -0.03628381229353436 0.9844629391672999
16557500 -0.02027657135011117 0.984970722809541
16680000 -0.003925032121812854 0.9850201634601979
16802500 0.011508261680522772 0.9847061021151055
16925000 0.026748536696263734 0.9847082832214812
17047500 0.042086872952657804 0.9841662198324037
17170000 0.057071762096835135 0.9834888053175589
17292500 0.07140251388614617 0.9821598239801473
17415000 0.08595270667871012 0.98118217517483
17537500 0.10015912615242774 0.9798423647048955
17660000 0.11393557227653107 0.9781454423193346
17782500 0.127344696384596 0.9766728138605278
17905000 0.14109927071273717 0.9750298279006588
18027500 0.15410530292763158 0.9727012203887235
18150000 0.16660416953744356 0.9707911564262822
18272500 0.1796930395962926 0.9690656821650707
18395000 0.1919878631575846 0.9664455362699904
18517500 0.20437908979250186 0.9644525612684287
18640000 0.21608171159835177 0.9618208799268554
18762500 0.22816413681045544 0.9587790056128259
18885000 0.23934397920559233 0.9560406973680633
19007500 0.25098821679983996 0.9533025067050749
19130000 0.26204062618264756 0.9500934749471686
19252500 0.2727828723780423 0.9469637534288421
19375000 0.28359041070680835 0.9440916845254993
19497500 0.2946133634179797 0.9403406805480071
19620000 0.30465033608567205 0.937094891433672
19742500 0.3146731494580978 0.9339947945541485
19865000 0.32521668403837284 0.930550698081016
19987500 0.3348708916000654 0.9258960719816587
20110000 0.3440642676914106 0.9235690950767093
20232500 0.35388184084604085 0.9202435300357467
20355000 0.36328190025031176 0.9164383078461641
20477500 0.3721784402180998 0.9128980228486463
20600000 0.3811622063379475 0.9097781546476956
20722500 0.3903002935306511 0.9060987718313983
20845000 0.3987137695368372 0.9021762427502203
20967500 0.40713426786367857 0.8987019916867017
21090000 0.41591360728153026 0.8952326495019326
21212500 0.4240625507595175 0.8907935892848815
21335000 0.43204403840692573 0.8873275030435673
21457500 0.44012567982536904 0.8839437639945184
21580000 0.4483287136863024 0.8793806629365145
21702500 0.45581935484741676 0.8755874043475095
21825000 0.4634521063678318 0.8716387991248374
21947500 0.47077735503280577 0.8674723692477516
22070000 0.47790279647284883 0.8639085594392238
22192500 0.4852913104716517 0.8600238811439233
22315000 0.49243211145500815 0.8558676848248001
22437500 0.4991054394108627 0.8519204337034664
22560000 0.5059977124821943 0.8483294193959634
22682500 0.5128918126900051 0.8441970816058374
22805000 0.5194092775076906 0.840193090583763
22927500 0.5256780685604248 0.8363579352898863
23050000 0.5324687022410217 0.8323944211167239
23172500 0.5385942474155355 0.8281742136319058
23295000 0.5446038470664092 0.8241587810970197
23417500 0.5510433177272821 0.8204752481889421
23540000 0.5569499760490421 0.8162416171616643
23662500 0.5627046802396591 0.8121643882744096
23785000 0.5684964567686247 0.8087051071868218
23907500 0.5742439895614891 0.8045932604005185
24030000 0.580134011571549 0.8007162396895532
24152500 0.5853476222651424 0.7966749454468706
24275000 0.590922286652151 0.7928942827370132
24397500 0.59638635864031 0.78902638095977
24520000 0.6015728396456591 0.7860884334952398
24642500 0.6078504675383924 0.7839033766841524
24765000 0.6128534265288075 0.776996158218504
24887500 0.6173193940319965 0.7722449283734668
25010000 0.6219026405360494 0.768475510510955
25132500 0.6270737102215813 0.7644626287713787
25255000 0.631819735739146 0.7601652823731317
25377500 0.6359771517095818 0.7564662818069052
25500000 0.6411535263032389 0.7527436137061959
25622500 0.6456287178841412 0.7486034232851717
25745000 0.6497675398623112 0.7449869965732282
25867500 0.6543734073979169 0.7414499596844059
25990000 0.6588372976872777 0.7375264882089597
26112500 0.6628364915594195 0.7334804589439319
26235000 0.6672428881706751 0.730116334433327
26357500 0.6716536196069894 0.726515902205217
26480000 0.6757833069888171 0.7223755365354251
26602500 0.6798545501341581 0.7191327551523881
26725000 0.6841141535433719 0.7155486759288955
26847500 0.6883051384482499 0.7113487193804283
26970000 0.6919755517490362 0.7080031434453518
27092500 0.6959448705075972 0.7045517071765263
27215000 0.7001976645560011 0.7003292813848052
27337500 0.7036855423552634 0.6964958879425693
27460000 0.7072611117046634 0.6931009179056127
27582500 0.7113232369954213 0.6892669273408829
27705000 0.7147524930304278 0.6851895230616419
27827500 0.7179684501282998 0.6819290101435983
27950000 0.7220528826788807 0.6783498251404686
28072500 0.7254515908492123 0.6744397873804705
28195000 0.7286391613194665 0.6708680118264141
28317500 0.7322399695435738 0.6675519526573995
28440000 0.7358195904782923 0.6637969446662246
28562500 0.7388003960575421 0.6599648676452368
28685000 0.7420305597861365 0.6567927434477264
28807500 0.7455873807865004 0.6531977042100201
28930000 0.7487449959915081 0.6492337171483391
29052500 0.7516344490254069 0.6458809457680704
29175000 0.7549652175689846 0.6426446504395987
29297500 0.7582355987256352 0.6386659467315435
29420000 0.7609404223200474 0.6351801945949047
29542500 0.7640545901785246 0.632066491691507
29665000 0.7674177318131002 0.6281157112523474
29787500 0.7700677529935451 0.6245117543503839
29910000 0.7728349399556989 0.621265481593934
30032500 0.7763173060152537 0.6175848015525132
30155000 0.778955654613075 0.6137124574612717
30277500 0.7813847798952507 0.61043777070634
30400000 0.7846564694015661 0.607043943436364
30522500 0.7874825123017364 0.6032647191642027
30645000 0.789657475041351 0.5996882258755518
30767500 0.7926192007005889 0.5964095982352843
30890000 0.7955383157642419 0.5927120003338087
31012500 0.7978477215950102 0.5889936769215014
31135000 0.8003246472975626 0.585914978297468
31257500 0.8032419535253192 0.5825326441631229
31380000 0.8055524632018332 0.5786610600608498
31502500 0.8079928984244763 0.575756135858235
31625000 0.8106930896936505 0.5723717801533211
31747500 0.8132267443105725 0.5684259221364417
31870000 0.8154008522382218 0.564860091418513
31992500 0.8176871053126797 0.5619013127779399
32115000 0.8204571354107653 0.5580638106796674
32237500 0.8225655888694905 0.55448096773044
32360000 0.8247889955188886 0.5513502378693914
32482500 0.8276029328500619 0.5478462338978926
32605000 0.8297421331751281 0.5439443174755212
32727500 0.831724769407048 0.5407636624823053
32850000 0.834426184140757 0.5375194403392198
32972500 0.8367523686806425 0.5336141527374291
33095000 0.8384865377494326 0.5300897773987753
33217500 0.8408904400557996 0.5269939726530491
33340000 0.8435057532648008 0.5231462128829979
33462500 0.8452184467430433 0.519444751759342
33585000 0.8472386288631951 0.5162398146658682
33707500 0.84972428331439 0.5127975667158458
33830000 0.8517473951180242 0.5088593426219533
33952500 0.8535800592493248 0.5055102952446827
34075000 0.8558930441381503 0.5022761300055482
34197500 0.8581743048881438 0.4983709225929931
34320000 0.8598765624185495 0.4948017192552503
34442500 0.8619725361830698 0.4917756643997349
34565000 0.8643285853132854 0.4881267219877936
34687500 0.8660968213187538 0.4844854161421336
34810000 0.8680754350081101 0.48106554496025183
34932500 0.8702612362356079 0.4769032908859786
35055000 0.8720516300882457 0.4730814498138026
35177500 0.8738993090053305 0.46935605632459926
35300000 0.8761310248630289 0.46532491603398174
35422500 0.8779496093601981 0.4612054303757243
35545000 0.8795888811421316 0.4575379532442189
35667500 0.881790165906539 0.45355092727228485
35790000 0.8834900689973325 0.4491777616486639
35912500 0.8849865579978066 0.4452017408474705
36035000 0.8871565124380947 0.4412102423586307
36157500 0.8889780949256351 0.4368703677818495
36280000 0.890415739520407 0.4323578407794611
36402500 0.8919893232646854 0.428161847011209
36525000 0.8938572791625596 0.4238775471461261
36647500 0.8949645736290106 0.41917312562068804
36770000 0.8960843263699808 0.4152256054078646
36892500 0.8976910458360206 0.41120446665689575
37015000 0.8991324822377468 0.40664993312982856
37137500 0.9003640836607499 0.4023872296551908
37260000 0.9016114116877022 0.39833044958116604
37382500 0.9029261195608417 0.39366695916953826
37505000 0.9038591230885897 0.3896498454656705
37627500 0.9052579382173035 0.3862887215453747
37750000 0.9077890415310542 0.3823318943614707
37872500 0.9102653977380722 0.37777606450055723
37995000 0.9126148778367829 0.3728814670076011
38117500 0.9155412984137653 0.36749981073870464
38240000 0.9179167336888877 0.3613288684555031
38362500 0.9195408174335146 0.35535890890854005
38485000 0.9216781361370917 0.34925655723864607
38607500 0.9236989180622105 0.34255511453828336
38730000 0.9250225366408151 0.33564078738138214
38852500 0.9265218389111939 0.3290140506251628
38975000 0.9285166123740152 0.3219556740784602
39097500 0.9296208761241291 0.3140502187927525
39220000 0.9308581917668688 0.30647613209618796
39342500 0.9323049676494041 0.29856664447407927
39465000 0.933583522179281 0.2895487542316837
39587500 0.9340860136312379 0.2803505983770613
39710000 0.9350578019727244 0.2712248068527391
39832500 0.9357387293629595 0.26066973063499327
39955000 0.9358436597129874 0.24989306941338918
40077500 0.9358751501529393 0.23886819674011392
40200000 0.9352547702457963 0.2262947005460002
40322500 0.9339818960934522 0.21276194363432463
40445000 0.93183411569252 0.19893958891464825
40567500 0.9295700204915461 0.18398799168106178
40690000 0.9259495063955133 0.16762615956606428
40812500 0.920476435512154 0.14998561942366784
40935000 0.9141523988325201 0.13135488813906826
41057500 0.9057192577660856 0.11108507150775121
41180000 0.8942329880601249 0.08917085231132746
41302500 0.8797683418122424 0.06666468109780828
41425000 0.8616192965313991 0.04278822023460175
41547500 0.8382067094306512 0.01813060152071605
41670000 0.8093649757890984 -0.005300493032669429
41792500 0.7742173495259742 -0.026817967062806047
41915000 0.7331065003416043 -0.046015725005810124
42037500 0.684628803581822 -0.05979731867026994
42160000 0.6300773800614741 -0.06631618338501305
42282500 0.5707537620292912 -0.06427851741336929
42405000 0.5065289209116797 -0.05186499648267319
42527500 0.44063642719723417 -0.026487617827708754
42650000 0.3748436122234426 0.014329300077045703
42772500 0.3136420187579228 0.0732732616162195
42895000 0.2645470675628442 0.15178730247838984
43017500 0.2370696366889522 0.24452570463425766
43140000 0.23805219184569557 0.3425854268428874
43262500 0.26639357660693086 0.4320070442431415
43385000 0.3147828077021071 0.5038658325633432
43507500 0.37261288128444287 0.554156106478732
43630000 0.43093236982746497 0.5847257338116157
43752500 0.48445575704680965 0.6012882810132457
43875000 0.5316126248010261 0.6080179780305662
43997500 0.5719187992173319 0.6083069000395555
44120000 0.605695871121798 0.6054278715275065
44242500 0.6348095007103702 0.6015655522118614
44365000 0.6608095052123246 0.5963470436012244
44487500 0.683662437966265 0.5903897304093831
44610000 0.7042879627496791 0.5846036729852006
44732500 0.723795959305626 0.5774478411512894
44855000 0.7409287125998282 0.5695934921528648
44977500 0.7560324717245728 0.5617707375792089
45100000 0.7700341657811733 0.5536467609147229
45222500 0.7822724942137135 0.5452641796494496
45345000 0.7926196322794226 0.5371462074398399
45467500 0.8023965634213637 0.5296216079780556
45590000 0.8112925812866435 0.522194954338794
45712500 0.8188441167616433 0.5144092457546319
45835000 0.8258487669186872 0.5079556828108803
45957500 0.8325751534879063 0.5014559773146957
46080000 0.8385133576699715 0.4946587074727522
46202500 0.8437817650707069 0.4887616989837158
46325000 0.8490606381439297 0.483231243727992
46447500 0.8539702588765671 0.47735031481238666
46570000 0.8581700603081825 0.471838857042799
46692500 0.86227926714295 0.46687508467210087
46815000 0.8665801166170007 0.46170184820296273
46937500 0.8700575408454124 0.45659125684319
47060000 0.8732529627683574 0.4521718279768514
47182500 0.8769816482270848 0.4475282657307214
47305000 0.8799608569886531 0.4427307895268931
47427500 0.8825368760801938 0.4384819748488041
47550000 0.8856613194184868 0.43444786006875713
47672500 0.8885111363992171 0.43002898917921756
47795000 0.8905822421752615 0.42571066347046316
47917500 0.8931610907450462 0.4222614319152743
48040000 0.89576135237566 0.41826504817918675
48162500 0.8976081679705105 0.41408731333981286
48285000 0.8995277175735562 0.4108113431198322
48407500 0.9017715775181742 0.4075439493947566
48530000 0.9035911001216728 0.4036324647493042
48652500 0.9052601247971225 0.4005194127071608
48775000 0.9072317159430043 0.3975575973341126
48897500 0.9092824903474209 0.39390912030954317
49020000 0.9107933598258602 0.39061250919370716
49142500 0.9123218352015633 0.3876130691347533
49265000 0.9142790036728065 0.38424980003376635
49387500 0.9155735271459603 0.3809150120966173
49510000 0.9170031171144024 0.37803961157087684
49632500 0.918713592098693 0.3750264092468953
49755000 0.9199894452063747 0.3718444264765051
49877500 0.9211385060101122 0.36889117918285164
50000000 0.9225603331150904 0.36625050833069184
