# HZ S RI R 50
1000000 0.9710097478269153 -0.23615271573968596
1122500 0.9637721235528702 -0.26488305575203686
1245000 0.9553302013641694 -0.2929200226018114
1367500 0.9463882551179097 -0.32144931885726974
1490000 0.9357718025269901 -0.3500492805981742
1612500 0.9247387810848173 -0.3775376869073493
1735000 0.9131333670956646 -0.4054479774282033
1857500 0.8998781322453913 -0.43379566521440877
1980000 0.8860642123079052 -0.46061030545519155
2102500 0.8716524054141689 -0.48791825164865266
2225000 0.8556343543498942 -0.5154429446832901
2347500 0.8383780065374213 -0.5418742244599815
2470000 0.8208765261792949 -0.567895671172972
2592500 0.8026508514095599 -0.5942341155453444
2715000 0.7825745760175112 -0.6200921028879284
2837500 0.7617844911332925 -0.645282248303984
2960000 0.7399705765842578 -0.6703406106035721
3082500 0.7165420070203542 -0.69481600401219
3205000 0.6920625538176466 -0.718468686112275
3327500 0.6667529860572756 -0.7416527684293126
3450000 0.6407647716407934 -0.7640425508945158
3572500 0.6140524590248807 -0.7859668460761904
3695000 0.5861526596667052 -0.8071747729801394
3817500 0.5566240086376022 -0.8281312779278802
3940000 0.5256412837891972 -0.8479817121703528
4062500 0.49387726367343626 -0.866415192926567
4185000 0.4605103239719283 -0.8845569006877242
4307500 0.4269637823080027 -0.9016589620611901
4430000 0.39176431810400064 -0.9167628636423959
4552500 0.35587669482230877 -0.9311504103678537
4675000 0.31848807440205545 -0.9445192108435841
4797500 0.27999313556913014 -0.956189634970824
4920000 0.24110982170066012 -0.9662632517430978
5042500 0.20104182844904298 -0.9753229019649865
5165000 0.1598521215427024 -0.982568359002517
5287500 0.1180414579611717 -0.9874849272743502
5410000 0.07565653690632233 -0.9910011326978105
5532500 0.032249948024659254 -0.9925531215753017
5655000 -0.010173807906221008 -0.9922087352442138
5777500 -0.05174347120609323 -0.9916885478461633
5900000 -0.09538059700782942 -0.989326065388246
6022500 -0.1403831648458723 -0.9837550434107211
6145000 -0.1853856535553286 -0.9761247821535077
6267500 -0.23039368585394554 -0.9665296098195575
6390000 -0.27578617284591117 -0.954339390765407
6512500 -0.3205052080661036 -0.9397402382737898
6635000 -0.3646372785087104 -0.9233590319388626
6757500 -0.4090526491306832 -0.9044883002257683
6880000 -0.4524437002314893 -0.8830590266145554
7002500 -0.49454817276462737 -0.8597091634212027
7125000 -0.5365378342225765 -0.8343364852745315
7247500 -0.5772532742792593 -0.8064323709544052
7370000 -0.6162956965810868 -0.7762120213782813
7492500 -0.6543403649035437 -0.7445700082030401
7615000 -0.6910595987727965 -0.7103766758683004
7737500 -0.7257301032413285 -0.6740664137589727
7860000 -0.7586894363371424 -0.6367573414359726
7982500 -0.7901526627341108 -0.5976381439447677
8105000 -0.819435670532446 -0.556210667217132
8227500 -0.8461045825172425 -0.5139134552246575
8350000 -0.8711232147628862 -0.4706060046869421
8472500 -0.8937361228907911 -0.4256520349871212
8595000 -0.9136228046398496 -0.3797728087348018
8717500 -0.9315011451349836 -0.3334393318763693
8840000 -0.9473036900629039 -0.2859198110196885
8962500 -0.960289409521315 -0.23778996547361944
9085000 -0.9708102504700871 -0.18978677577800754
9207500 -0.9793592161133812 -0.141582067765224
9330000 -0.9850945235158954 -0.09286336024427241
9452500 -0.9882616412483521 -0.044834147625078424
9575000 -0.9895471282629907 0.0028082828246934824
9697500 -0.9883497291548131 0.05054478198090975
9820000 -0.9845216826517543 0.09759517655481274
9942500 -0.978887127987142 0.14349192281860695
10065000 -0.9713789653880759 0.18918532785205067
10187500 -0.9614065740419535 0.23397238094853565
10310000 -0.9496197999075765 0.2771255003673685
10432500 -0.9363137659563796 0.31974835201441604
10555000 -0.9209944057333425 0.36150880161500887
10677500 -0.9039370052763079 0.4012904159897936
10800000 -0.8857233941915278 0.44018283423131804
10922500 -0.8659243281050988 0.478010811369091
11045000 -0.8445178662676845 0.5139673345228292
11167500 -0.82211014408967 0.5486539191193258
11290000 -0.7986795014671547 0.5823154779699978
11412500 -0.7736249914106029 0.6144340023636948
11535000 -0.7480654524690719 0.6449483637370932
11657500 -0.7217364451606688 0.6742799791118883
11780000 -0.6942086245393755 0.7017987203427734
11902500 -0.6658714860711242 0.7280554812251671
12025000 -0.6373077201282832 0.7530902229382457
12147500 -0.607551476819559 0.7765523633417061
12270000 -0.5772680009617368 0.798375415239738
12392500 -0.546747033084244 0.8191427939734441
12515000 -0.5153822141581204 0.8386115851519206
12637500 -0.4833579440867045 0.8565850021160302
12760000 -0.4514061514328871 0.8728951140975809
12882500 -0.4186624460570769 0.8883886886995886
13005000 -0.38534615428747043 0.9023997430396382
13127500 -0.35210783263602863 0.9148091403472992
13250000 -0.3181571373882145 0.9263580982331312
13372500 -0.28348381722776717 0.9364882558973444
13495000 -0.24842925183159578 0.944643162032932
13617500 -0.21326337081611219 0.9517422990044658
13740000 -0.17709322011635023 0.9577826757294254
13862500 -0.14022227920423586 0.9614901304016371
13985000 -0.103060012255107 0.9636001550292336
14107500 -0.06537118636311362 0.964471886682899
14230000 -0.02647047368889636 0.9631729750349125
14352500 0.012497802608599826 0.9594799792189714
14475000 0.05167652003199017 0.9538728237482573
14597500 0.09202450530783197 0.9456271712490562
14720000 0.132455114131019 0.9344266673311437
14842500 0.1725248632761888 0.9206749646862431
14965000 0.21326602421078836 0.9041206967923968
15087500 0.25386821678832605 0.8842898238889785
15210000 0.2935902157871271 0.86133590564697
15332500 0.3336597227605623 0.8356850235093716
15455000 0.3739278830053316 0.8062978104843658
15577500 0.4144372295523384 0.772918987313868
15700000 0.45655629718068663 0.7355624483030512
15822500 0.5008221549698468 0.69165419131535
15945000 0.5471509067281676 0.6377221645414952
16067500 0.594677389644693 0.5720251684817634
16190000 0.641565052618882 0.48930433907733756
16312500 0.6825540116901744 0.38320127894856837
16435000 0.708607944126352 0.24911675574246325
16557500 0.7049719634067503 0.08327761808616894
16680000 0.6478393520881256 -0.11144195832684241
16802500 0.510194672772896 -0.31207839840830937
16925000 0.2795961636873604 -0.472723469798062
17047500 -0.019481934628251065 -0.5361211184437238
17170000 -0.3207223284348109 -0.47215375191249037
17292500 -0.5565297556434866 -0.3056504351183778
17415000 -0.698145141627942 -0.09258019402149555
17537500 -0.7557284072384695 0.1179814846802343
17660000 -0.755477947697261 0.30032545071622735
17782500 -0.7215865785359477 0.4485838981194744
17905000 -0.6709195659868181 0.5652781414664999
18027500 -0.613215959014029 0.6557677187042575
18150000 -0.5546918185711207 0.7257315317050409
18272500 -0.49781345097493895 0.7804487644218291
18395000 -0.443628620537515 0.8229335666579304
18517500 -0.39301416163910563 0.8563038472407473
18640000 -0.34617669317611305 0.8825133123851108
18762500 -0.3021948107012346 0.9034476212437618
18885000 -0.2614375138548132 0.9199047675906571
19007500 -0.22368659815680914 0.9332428113033449
19130000 -0.1880525117980842 0.9439186833863785
19252500 -0.15451743500839346 0.9521030287251715
19375000 -0.12395807886384945 0.9582267086929395
19497500 -0.09434134431340974 0.9632240736548324
19620000 -0.06686362187491572 0.9669585790481117
19742500 -0.040957798711044976 0.9694854457457385
19865000 -0.016281037908312913 0.971339212643065
19987500 0.007179974661123029 0.9735302061284762
20110000 0.029416688959927665 0.972816666563379
20232500 0.050445259474066445 0.9727810177354669
20355000 0.07079335628985217 0.9724927382745981
20477500 0.09046135219889063 0.9713042005581611
20600000 0.10875990501769828 0.9699290486764878
20722500 0.12675500906068968 0.9686819735831035
20845000 0.1441419209111915 0.9664867959990022
20967500 0.16055570980505918 0.964182301236077
21090000 0.17646838810146045 0.9621801856588178
21212500 0.19195808095724864 0.9593301730854625
21335000 0.20682228391714189 0.9564530001721899
21457500 0.2206970602104312 0.9539387177627374
21580000 0.2348849572234289 0.9507548666322742
21702500 0.24840709912745157 0.9475868144148639
21825000 0.2608861484394824 0.9443337088282834
21947500 0.2735696175649572 0.941584287544968
22070000 0.28599999554279226 0.9383149422627881
22192500 0.29774733840583334 0.9345603993138214
22315000 0.3092822088928217 0.9313960431683891
22437500 0.32075199216820227 0.9278340306786932
22560000 0.33158776265011203 0.9238499517994421
22682500 0.3418486941522919 0.9202473916246235
22805000 0.35225784696727597 0.9168267575848127
22927500 0.362417755136186 0.9127388376250476
23050000 0.3720009045337433 0.9091238334679631
23172500 0.38157608613007654 0.9057010059105239
23295000 0.39112598445710967 0.9016436007184774
23417500 0.40018183374477967 0.8978760321548098
23540000 0.4089387957436361 0.894285640114028
23662500 0.41809376561929174 0.8903861722120322
23785000 0.426534665847316 0.8863617860335002
23907500 0.4344419594981588 0.8826264861960382
24030000 0.4430127975875891 0.8787148414861643
24152500 0.4511625045182712 0.8747093720149628
24275000 0.45860248385383745 0.8708044387927857
24397500 0.46635474305905317 0.8672311188650822
24520000 0.47410071590896247 0.8634118379354084
24642500 0.48111767220301976 0.8595993346808337
24765000 0.48837978350278755 0.8559074905535733
24887500 0.4955650389041391 0.851790941147
25010000 0.5023293425397295 0.8473894899595636
25132500 0.5089678090625984 0.8435884862335454
25255000 0.5156888626135122 0.8399604174790608
25377500 0.5221432431715843 0.835711862904333
25500000 0.5283704640573579 0.8319243188345131
25622500 0.5345086426661981 0.8282819382925533
25745000 0.5407364135571011 0.8244214095658354
25867500 0.5466848369007216 0.8207780467487409
25990000 0.5523908232487319 0.8171696937375381
26112500 0.5583486287162993 0.813464383249061
26235000 0.5640831692256123 0.809580385747085
26357500 0.5694943296315216 0.8058789877823878
26480000 0.5751370540948627 0.8022202915588059
26602500 0.5807257210117904 0.7986698157099846
26725000 0.5859131741158249 0.7948681522369326
26847500 0.5912201473034924 0.7912558878156499
26970000 0.5965158983045152 0.7879659944202995
27092500 0.6014758726329009 0.7840452551381648
27215000 0.6064744510854498 0.7803619379441261
27337500 0.6115299059791518 0.776764731401461
27460000 0.6162712811626534 0.7728144308882465
27582500 0.6208628411847948 0.7693608262916368
27705000 0.6255588135932828 0.7657693022501658
27827500 0.630197963668153 0.7621734067161168
27950000 0.6346373883490064 0.7585347488888996
28072500 0.6389311163854389 0.75506397281639
28195000 0.6435128313808285 0.7515703146386278
28317500 0.6476709683589709 0.7479712754659152
28440000 0.6517080840555949 0.7443694751999557
28562500 0.6559299514390037 0.7410070994912737
28685000 0.6601068731619757 0.7374989752511579
28807500 0.6639569495684754 0.734112461907042
28930000 0.6680388565275255 0.7306384538189016
29052500 0.6719958397252906 0.7272543922223467
29175000 0.6756384582964259 0.7236723486763201
29297500 0.6794122595149602 0.7204071130735491
29420000 0.6832828498339627 0.7169847596772584
29542500 0.6868768745195405 0.713414330314862
29665000 0.6904220303160619 0.7099430159278666
29787500 0.6940250411172733 0.7067151331179994
29910000 0.6975689545966033 0.7031719706143967
30032500 0.7011396722690793 0.699641221588127
30155000 0.7043249263877783 0.6965626792695436
30277500 0.7077969670469991 0.693394152216242
30400000 0.711103028666232 0.6899461508355469
30522500 0.7142424977730182 0.6866976749935443
30645000 0.7174282099757524 0.6836295767068284
30767500 0.7207731284088723 0.6803232020310563
30890000 0.7236833143963112 0.6768865480425101
31012500 0.7267350751844099 0.6738913612083262
31135000 0.729928266445651 0.6708617851700038
31257500 0.7328511816872348 0.6676068970797404
31380000 0.7356666576517572 0.6646100606998463
31502500 0.7387338601688695 0.6617294404532428
31625000 0.7417260335558877 0.6584095275079603
31747500 0.7442920826964616 0.6551605622480482
31870000 0.7471606539269859 0.6523077115882275
31992500 0.750076321309998 0.6491619572219546
32115000 0.7525102039754005 0.6456979547586025
32237500 0.7551073458784412 0.6428905072468217
32360000 0.7579712260050374 0.639974936144215
32482500 0.760575322655512 0.6366685459961867
32605000 0.7628985202145425 0.6337173719546464
32727500 0.7655080189600316 0.6309966173798451
32850000 0.7681850598410495 0.6278475495660184
32972500 0.7704682647307215 0.6247888472503257
33095000 0.7728039820374036 0.6221483814059136
33217500 0.7754517887904924 0.619252827124608
33340000 0.7778813937301863 0.6159955798378389
33462500 0.7800795471979866 0.6134166307982966
33585000 0.782361909233568 0.6104172415968707
33707500 0.7845185151930237 0.6077578021231221
33830000 0.7868753692684783 0.6049017802261485
33952500 0.7891667081038894 0.6021203686968248
34075000 0.7911576978875514 0.5993651175243412
34197500 0.7934603741485391 0.5967325929321168
34320000 0.7957157091665236 0.5939422700642458
34442500 0.79764674359515 0.5913772600066642
34565000 0.7998224080613724 0.5890388915195118
34687500 0.8022353706538049 0.5865998385127956
34810000 0.804185352317555 0.5835970197724951
34932500 0.8061780000827689 0.5808386530746165
35055000 0.8083563659141334 0.5780619300531779
35177500 0.8103196259430183 0.5750214785693668
35300000 0.812104660229665 0.5723107793002236
35422500 0.8141691185714826 0.569780466975759
35545000 0.8160685949593713 0.5669229393782149
35667500 0.8179444444858371 0.5642825096248681
35790000 0.8195938412807487 0.5617016778921495
35912500 0.821576917281798 0.5592236635600266
36035000 0.823491452961746 0.5564539516458301
36157500 0.8250491802049977 0.5539547086387289
36280000 0.8269521741014488 0.5514258562760799
36402500 0.8287634334871903 0.5486232095041194
36525000 0.8304890645754068 0.5461669431506809
36647500 0.8322210993048537 0.5436699443396891
36770000 0.8339626876193428 0.541113406474429
36892500 0.8356301355029253 0.5385353956345076
37015000 0.8371479350222147 0.5360263333428631
37137500 0.8389841202982365 0.5336265511640913
37260000 0.8405081542120335 0.5310709416253149
37382500 0.8420601935425942 0.5285397804265959
37505000 0.8436236601729874 0.526216762653301
37627500 0.8452733681878372 0.5237245649183545
37750000 0.8467614305200402 0.5211838323808684
37872500 0.8482639383258018 0.5189407569686211
37995000 0.849839717957396 0.5163967501128381
38117500 0.8513518850104508 0.5139552206772945
38240000 0.8527882696196916 0.5116510934723272
38362500 0.8542765773595439 0.5093236447997722
38485000 0.8558142896512604 0.5068288170448195
38607500 0.8570452048436192 0.5044852211976993
38730000 0.8585198892258018 0.5021655741028223
38852500 0.8600336091887348 0.49974177113079005
38975000 0.8613184600934432 0.49757049647890433
39097500 0.8625519792574723 0.4951373653425739
39220000 0.8641788444195784 0.4929049450634391
39342500 0.8653031283434962 0.49055081752799257
39465000 0.8667270720843872 0.48824702873426296
39587500 0.867971650086411 0.4861070178040972
39710000 0.869387467903509 0.48376600189983693
39832500 0.8703968668152762 0.48142901058989274
39955000 0.871810252637285 0.47946126432559366
40077500 0.8730704187721708 0.4771423423322531
40200000 0.8742391507378604 0.474847138354582
40322500 0.8753496193461905 0.4727199515192233
40445000 0.876619752345083 0.47059821923188117
40567500 0.8779697389550433 0.4684359186324725
40690000 0.8790240639762243 0.46632390453835365
40812500 0.8801198845340995 0.46428623061989127
40935000 0.8814466795346448 0.4620878781713379
41057500 0.8824038395314793 0.45997869898738825
41180000 0.8836147832407092 0.4578356075395238
41302500 0.8847375909267757 0.4556395519658852
41425000 0.8858460184818726 0.45350644127964906
41547500 0.8867636076183516 0.4513215248158005
41670000 0.8880486209743129 0.44934745700790185
41792500 0.8890887073567922 0.447003244522361
41915000 0.8901781781434006 0.44482200869821575
42037500 0.891213253643143 0.4427989983760136
42160000 0.8923236016047053 0.4406695735772025
42282500 0.8933689791661618 0.4383975908190584
42405000 0.8941283156122604 0.43647430414902694
42527500 0.895289939813718 0.4344675041065874
42650000 0.896249688353656 0.4322243277863432
42772500 0.8970926125245778 0.43023268488935223
42895000 0.8981547013739221 0.42841809076244003
43017500 0.8992140767087127 0.42634790716454807
43140000 0.9001456754456695 0.4241999655510391
43262500 0.9010297837726619 0.42240621481580953
43385000 0.9020849461341098 0.42047031601129214
43507500 0.9030188258251709 0.4183091672260163
43630000 0.9038226308297124 0.4164106149551449
43752500 0.9048655062749535 0.4147139064237496
43875000 0.9057742064777585 0.41254819289731665
43997500 0.9066024559163506 0.4105942186443859
44120000 0.9074861264415927 0.4087489061716449
44242500 0.9085532770353827 0.4067888065471
44365000 0.9093574095559671 0.4046557348379893
44487500 0.9100910901214945 0.40290260970659003
44610000 0.9111447224177291 0.40108168757126733
44732500 0.9119152742364142 0.39875513190902784
44855000 0.9126563377395734 0.3969960122108171
44977500 0.9135877307424743 0.39529214319869277
45100000 0.9146311917171245 0.3930729905659256
45222500 0.9151996899120184 0.3911947328504558
45345000 0.9160807130102668 0.3894539416560803
45467500 0.917074184730288 0.387511221860487
45590000 0.9176502050114229 0.38549575049146484
45712500 0.9182239632253935 0.38356193972726677
45835000 0.919108579429867 0.3819037248113962
45957500 0.9198841069518366 0.3798015707282405
46080000 0.9205081084111604 0.378075432614417
46202500 0.9213625649576148 0.3763634109180796
46325000 0.9221981690801677 0.3743500677680732
46447500 0.9227866985070374 0.3725757493386988
46570000 0.9234033905915265 0.3709252959699302
46692500 0.9243958033889471 0.36911518479867894
46815000 0.9249559780534208 0.3671717526813085
46937500 0.92555768159103 0.36553886404659824
47060000 0.9264085113206085 0.36398279462081534
47182500 0.9272048043210231 0.36188446760321036
47305000 0.9276405751774047 0.3601374276582939
47427500 0.9284114242552165 0.35875822204571034
47550000 0.9293818847540325 0.3567397582339114
47672500 0.9298261382672611 0.3547529342964317
47795000 0.9303556412674916 0.3532538330275286
47917500 0.9312531628845967 0.3517324254914265
48040000 0.9319504057152543 0.3496707221407223
48162500 0.9323026814417951 0.3481179145857742
48285000 0.933067087378283 0.3465848932430497
48407500 0.9338268180785578 0.3449683056536733
48530000 0.9341714968829461 0.3431834264260861
48652500 0.9350363716632838 0.3419653211541751
48775000 0.9359969644797804 0.3401115790783754
48897500 0.9365901887982071 0.33811972047872985
49020000 0.9371570512865112 0.33665701918123025
49142500 0.9380192251458113 0.33487325088659337
49265000 0.9386741824622674 0.3328108607052634
49387500 0.9390526282255153 0.3312873249398453
49510000 0.9397915796646723 0.3296995872677753
49632500 0.9405435670302488 0.3277328012177358
49755000 0.9408737714998423 0.32593753035282946
49877500 0.9415368914623767 0.3245071648019292
50000000 0.9424465469913688 0.3227678665868439
