# HZ S RI R 50
1000000 0.9711728471743356 -0.2360535738217352
1122500 0.9637501541773795 -0.2645184424418676
1245000 0.9552393329871139 -0.29321467720613204
1367500 0.9462192364168092 -0.3213006364064495
1490000 0.9360708201537876 -0.349763980957759
1612500 0.924931851862073 -0.37764158764946
1735000 0.9130726765384638 -0.40545322039731563
1857500 0.9002688625728502 -0.4334045715429255
1980000 0.8858812037879642 -0.4610261581492439
2102500 0.8714115390195918 -0.4878241145605065
2225000 0.8559363102320497 -0.5149292951741339
2347500 0.8391514694674711 -0.541777425103107
2470000 0.8212062717271076 -0.5682542314022009
2592500 0.8023290535815443 -0.5943709101657803
2715000 0.7820040511367156 -0.6202296550651607
2837500 0.7609513450685254 -0.6450486589556566
2960000 0.7401149124854617 -0.6697390304836207
3082500 0.7172494187231598 -0.6942048277126743
3205000 0.6932012107465216 -0.7181872340481631
3327500 0.668133260694488 -0.7416631528500045
3450000 0.6417170968415933 -0.7644272745581122
3572500 0.6143730059214344 -0.7867050992152842
3695000 0.5858783375524511 -0.8078302269435961
3817500 0.5561296585725725 -0.8282886554338115
3940000 0.5254018808686541 -0.848050613674644
4062500 0.49354859976618926 -0.8667224146424725
4185000 0.4605049314532378 -0.8844193530025191
4307500 0.4258945151176438 -0.9010630199881268
4430000 0.3904400058112892 -0.9164319244146449
4552500 0.3538003760202671 -0.9298101947052401
4675000 0.31703361394251317 -0.9419353613310548
4797500 0.28097966734099744 -0.9549320677310363
4920000 0.24275862330337455 -0.9662522629726201
5042500 0.20286601566391396 -0.9754912595604583
5165000 0.16213560550631761 -0.9830465335501214
5287500 0.12035078962986318 -0.9887026712150313
5410000 0.07780725409201443 -0.9927005891327859
5532500 0.03480052109923897 -0.9950138917790846
5655000 -0.009055030911723008 -0.9952859047420713
5777500 -0.05324146026725538 -0.9933795490842612
5900000 -0.09787399769531069 -0.989854766485916
6022500 -0.14279179394240923 -0.9840871010839741
6145000 -0.18809811583346492 -0.9762314049074992
6267500 -0.2330771622339815 -0.9660811515223267
6390000 -0.27818477944115666 -0.9537983796750493
6512500 -0.32315842715234777 -0.9391860161720446
6635000 -0.3677155699890098 -0.9221603619946741
6757500 -0.41198743816496924 -0.9030511618724363
6880000 -0.45532217939530245 -0.8816866690616587
7002500 -0.49769155861660885 -0.8579145235181173
7125000 -0.5391228074568539 -0.8323081169637351
7247500 -0.5795644566879805 -0.8046107805600752
7370000 -0.619157490690548 -0.774267262544028
7492500 -0.6573019290893073 -0.7417339395065853
7615000 -0.6939294536307203 -0.7072175377514355
7737500 -0.7290627326002688 -0.6705574304108786
7860000 -0.7623962439087707 -0.6323496144855542
7982500 -0.7936639621364924 -0.5921779282946856
8105000 -0.8230800729179263 -0.550501569514999
8227500 -0.8503025646450014 -0.507102217382148
8350000 -0.8751321238371146 -0.4624308284581235
8472500 -0.8977925245316365 -0.4165653587083993
8595000 -0.9180313456734596 -0.3696889152399754
8717500 -0.9357507934865602 -0.3217921882326663
8840000 -0.9509407148032302 -0.27332993064076394
8962500 -0.9637377343189886 -0.22415796592112583
9085000 -0.9739388297940341 -0.17440647270548665
9207500 -0.9814249190620749 -0.12467232575891653
9330000 -0.9864219321401532 -0.07470046961462182
9452500 -0.9890332951598558 -0.024702216148298806
9575000 -0.9889272520177946 0.024926415308474854
9697500 -0.9862978823360471 0.07433431639453535
9820000 -0.9813341295236523 0.12328801550966483
9942500 -0.9739780751239627 0.17158465271430523
10065000 -0.9641579419918538 0.21939322298405586
10187500 -0.9521934762413333 0.2661043507904483
10310000 -0.937962627867759 0.3119219777231813
10432500 -0.9215783059870895 0.3569770182692022
10555000 -0.9031254379502237 0.4007588149333554
10677500 -0.8825551032213312 0.44324338817095954
10800000 -0.8601087060927799 0.48471583763683385
10922500 -0.8357521183677185 0.5251857237670817
11045000 -0.8090480203867317 0.5640104925274936
11167500 -0.7808362735874468 0.6013332381428649
11290000 -0.7508722591766235 0.637451976762644
11412500 -0.7185922870643572 0.6722952219376522
11535000 -0.684711280335204 0.7051833986576321
11657500 -0.6488800004383491 0.73719720258357
11780000 -0.6106635028015229 0.7674975145890873
11902500 -0.5703271036818459 0.7954481883795016
12025000 -0.5279378256774452 0.8220466300201748
12147500 -0.48258413511955567 0.846927616239164
12270000 -0.4342456079464362 0.8697379823982732
12392500 -0.3829616623353335 0.8898825638582856
12515000 -0.3275378336134534 0.9076436959835482
12637500 -0.26732043013512313 0.9218412316910343
12760000 -0.20241780134725768 0.9316189043008597
12882500 -0.1313988646568889 0.9364994781091048
13005000 -0.05283873743205798 0.9342479364167586
13127500 0.0335495076080895 0.921475935415505
13250000 0.1288277531235801 0.894877538423602
13372500 0.2330198723229035 0.84840198976965
13495000 0.3437657320691596 0.771926580418645
13617500 0.45258152168710253 0.6535560533313665
13740000 0.5405162065091554 0.47936165213029963
13862500 -0.48881030875610854 0.8561424082489814
13985000 -0.4677878972980546 0.8681513011914795
14107500 -0.4457077202539212 0.8760596516098001
14230000 -0.0721845725388411 -0.16274665632493995
14352500 -0.2640437542930214 -0.2978416264477223
14475000 -0.46462123274236594 -0.1793525248355861
14597500 -0.5861953942880437 -0.03175155092345307
14720000 -0.6480330409187169 0.1111411598814107
14842500 -0.6709172998507263 0.23587506291758772
14965000 -0.6704874166677128 0.3407774150000891
15087500 -0.6573683293760213 0.4276486088727332
15210000 -0.6371528648205408 0.49959093784180214
15332500 -0.2457628359330294 0.9441213260268295
15455000 -0.22786656579425985 0.9507744410055236
15577500 -0.20991342174055125 0.9563754803933624
15700000 -0.19201179711759297 0.9602323839297487
15822500 -0.17443614339174202 0.9637099130775174
15945000 -0.15668157895248275 0.9668008576353087
16067500 -0.13991489271545324 0.9720461097313101
16190000 -0.12317834650277638 0.974829246924294
16312500 -0.10613628580861761 0.9768001384735246
16435000 -0.08940701754089973 0.9780248819066893
16557500 -0.07331977352625532 0.9766171258453926
16680000 -0.0570544301905366 0.9742024109008017
16802500 -0.04141234310560962 0.9743449229859447
16925000 -0.026104451875289876 0.9749353115579406
17047500 -0.011167286643422295 0.9759184861490805
17170000 0.003992967246859529 0.9773367807538018
17292500 -0.026400750086985336 0.9012852303625377
17415000 -0.16072938198979733 0.9629837576159995
17537500 -0.1377079033466627 0.9677269459500579
17660000 -0.11521787677033196 0.9711391886127285
17782500 -0.09397627320719117 0.9741247113828216
17905000 -0.07320691583351573 0.976748127624981
18027500 -0.05294568215706189 0.9783070730847905
18150000 -0.033880357255371855 0.9793097295123665
18272500 -0.014992914136191984 0.9805295701357103
18395000 0.0034778220882742505 0.9810593376156698
18517500 0.021333385326753815 0.9810617840528076
18640000 0.038000813691751734 0.9804733958490787
18762500 0.05482299346091632 0.9800470127190721
18885000 0.07130103000755263 0.9791450679648444
19007500 0.08675288570580376 0.9781400338819558
19130000 0.10203067240045462 0.9771460512533483
19252500 0.11738909278109817 0.975927189209059
19375000 0.13184990092446675 0.9738006056759901
19497500 0.14614954098264005 0.9720385439724466
19620000 0.16009208743853587 0.9702883009021037
19742500 0.17366059745018764 0.9675931131769072
19865000 0.18676161189918186 0.9652002539512842
19987500 0.20025642936841437 0.9627413626043984
20110000 0.21238136352858378 0.9600663072254886
20232500 0.2246352518201362 0.9572255780240821
20355000 0.23656461162633227 0.954806101525816
20477500 0.24854390570507606 0.9519376924558572
20600000 0.2599490639807608 0.9488807986293792
20722500 0.2710379904303361 0.9459200084179098
20845000 0.2822225871256506 0.9429527396131779
20967500 0.29305696748700044 0.9395644667161474
21090000 0.3033786436306187 0.9363322128857086
21212500 0.3137340646303321 0.933011384709281
21335000 0.3240345418384453 0.9296283992895006
21457500 0.3335515425251268 0.9261765402751576
21580000 0.3433553271385264 0.9227165560133642
21702500 0.3529129494505962 0.9193255706092156
21825000 0.36205284847200514 0.9154644208215698
21947500 0.371025863817105 0.9121575257994444
22070000 0.38002515474139353 0.908862296293649
22192500 0.38890368132694864 0.9050020153439187
22315000 0.39731069955887194 0.9016042282445154
22437500 0.4056971934612027 0.8983023034454435
22560000 0.4140694798306893 0.8944601644063545
22682500 0.4219862982127002 0.8905277802985362
22805000 0.4297575655674671 0.8869084288892741
22927500 0.43764327894380933 0.8832335958338804
23050000 0.4454145881509349 0.8794802070131976
23172500 0.45257488460711864 0.875929067368333
23295000 0.4599715145660038 0.8722821531375455
23417500 0.46745663097629664 0.8688526940753608
23540000 0.47434897616060223 0.8651477780890129
23662500 0.48144158201669907 0.8614267566019942
23785000 0.4883927169546706 0.8578139996804894
23907500 0.4951011504269325 0.8538321199425832
24030000 0.5018037021593964 0.850046584003076
24152500 0.5084164070603723 0.8459437070136734
24275000 0.5143812733537068 0.8421975168977931
24397500 0.5208942357698138 0.8387675045322058
24520000 0.5273005801698732 0.8346748544382846
24642500 0.532968934205092 0.8308560599650591
24765000 0.5388963014116804 0.8274159688524741
24887500 0.5450748180510044 0.8236001613933227
25010000 0.5505200101476978 0.8197440572686658
25132500 0.5561537508433961 0.8165015072443421
25255000 0.5620638033760402 0.8130314272536158
25377500 0.5674041089169958 0.8088814330211964
25500000 0.5727368325104526 0.8054545578288755
25622500 0.5780215398177347 0.8018594022190692
25745000 0.5834051799606282 0.7979486952888033
25867500 0.5883121327010195 0.7942165896183094
25990000 0.5931872863410954 0.7908222473332187
26112500 0.5983499703017068 0.7869824822610147
26235000 0.6032088923384437 0.7832236465835629
26357500 0.6077982552062974 0.7798829598978099
26480000 0.6127871338114981 0.7763925820126432
26602500 0.6176146436288147 0.7728590459852167
26725000 0.621980598684493 0.7693881717603261
26847500 0.6265845738127026 0.7659906440768344
26970000 0.6312301441003889 0.7630480464767879
27092500 0.6355469948764599 0.7593428098290577
27215000 0.6397969186093017 0.7560472893732809
27337500 0.6444680353668412 0.7536446121601663
27460000 0.6494183898815805 0.7503963990108429
27582500 0.653123529563415 0.7449454935542158
27705000 0.6569528588070905 0.7411054827661495
27827500 0.6609443082478661 0.7374830757668326
27950000 0.6646887629477567 0.7339945280391248
28072500 0.6685222449225473 0.7307186802296947
28195000 0.6726034297259537 0.7272785755360122
28317500 0.676190749822735 0.7236191577356046
28440000 0.6797447450020204 0.720305110217382
28562500 0.6835334724261218 0.7169447030803945
28685000 0.6872109052303371 0.7134538520141105
28807500 0.6905555399867725 0.7101739033520456
28930000 0.6941707816146678 0.7068694920198034
29052500 0.6978135623095942 0.7034778880878904
29175000 0.7010177294030464 0.7000927373498417
29297500 0.704331385144499 0.6968416102613155
29420000 0.7077643380583327 0.69364052889652
29542500 0.7108687683868125 0.6902191881819226
29665000 0.714052831218459 0.6869810908280654
29787500 0.7172330727831203 0.6839022685376308
29910000 0.7203805135905085 0.6806835664269474
30032500 0.7233791561120824 0.6776268156945984
30155000 0.7263992941679143 0.6748427164495859
30277500 0.7295851289493547 0.6718811546541914
30400000 0.732621297341882 0.6685170455289794
30522500 0.7354662438108363 0.6655468554146371
30645000 0.7384265418951574 0.6623792881581033
30767500 0.7414584493690148 0.6589990503127746
30890000 0.7441369862099173 0.6558075147146853
31012500 0.7469822254147818 0.6528813161748145
31135000 0.7497684083575709 0.6499841601561497
31257500 0.752397420500609 0.6467957564643795
31380000 0.755045354916863 0.64384631188803
31502500 0.7579496612705761 0.6410666570719148
31625000 0.760543793868451 0.6377424912506034
31747500 0.7629108436283257 0.6345795265655579
31870000 0.7656378216641666 0.6317589122667984
31992500 0.7680870709175293 0.628609345274813
32115000 0.7703643906606409 0.6254639591006751
32237500 0.772771660028307 0.6227585527739015
32360000 0.775365102432121 0.6198652281380278
32482500 0.7777046582289623 0.6167294954654086
32605000 0.7798481132339468 0.6138854073855566
32727500 0.7823141539235576 0.6111841088885155
32850000 0.7847661381190729 0.6081495801519854
32972500 0.7868309316575661 0.6052050843207551
33095000 0.7889994789439253 0.6025992898223679
33217500 0.7914336597315009 0.5997500407296302
33340000 0.7935202793602831 0.59672687939369
33462500 0.7955237277332782 0.5941406310986985
33585000 0.7977719147814539 0.59149495723936
33707500 0.7999065735859598 0.5885508373241768
33830000 0.8018103765597797 0.5859581674886138
33952500 0.8040135851487757 0.5833536893035918
34075000 0.8061896823225676 0.5805679878775561
34197500 0.8080387849387316 0.5777891290705021
34320000 0.8099986640142858 0.5751913989744344
34442500 0.8122195191038302 0.5725825205329587
34565000 0.8139511710376927 0.5696696992031177
34687500 0.8157561741497548 0.5671312237967803
34810000 0.8176852633370938 0.5646399400381312
34932500 0.8196811974351604 0.5618906801745134
35055000 0.8213020553890159 0.55944574532121
35177500 0.8231583825944311 0.5571734515384553
35300000 0.8252251554866781 0.5545998245450582
35422500 0.8269500675150908 0.5519144022226125
35545000 0.8286771234692444 0.5495414420810987
35667500 0.8306614138923778 0.546969897413563
35790000 0.8321864379174712 0.5440565584745105
35912500 0.8337459672642474 0.5416211287555165
36035000 0.8356660724090889 0.5391453124046941
36157500 0.8374694444478039 0.5364053343228874
36280000 0.8388665718836954 0.5337691732561498
36402500 0.8405131366886821 0.531474178279481
36525000 0.8425057703595746 0.5289366225091702
36647500 0.8438119583386761 0.5261279665941451
36770000 0.8453272264484499 0.5240362852009217
36892500 0.8471567787337655 0.5216180358430653
37015000 0.8486730336877724 0.5188225551776192
37137500 0.8499847280191123 0.5165073513199973
37260000 0.8515705707038862 0.5144322509041968
37382500 0.8532896320574817 0.511680008578634
37505000 0.8544374025868885 0.5091761759933866
37627500 0.8558031906766379 0.5072232271951065
37750000 0.8576906712582346 0.5046350733860515
37872500 0.8588931323161393 0.5020304739636312
37995000 0.8600499343702307 0.4998428419259638
38117500 0.8618251451561177 0.49765500022626463
38240000 0.863264193612961 0.49489207169518623
38362500 0.8642892271782563 0.4927109907370929
38485000 0.8658151646455853 0.4905642039317569
38607500 0.8673152360719506 0.4880800446053908
38730000 0.8683373551631355 0.48581416120487386
38852500 0.8698104490351691 0.4833847899407933
38975000 0.8711677007353028 0.4812513130772328
39097500 0.8722572702799185 0.4788774407055754
39220000 0.8737093424119425 0.47665167479263915
39342500 0.8748927556482173 0.4743761700122885
39465000 0.876034308973626 0.4720870186235228
39587500 0.877293260596333 0.46995648117356137
39710000 0.8785924627016388 0.4676082036342029
39832500 0.8795878093309701 0.4652443643707565
39955000 0.8808699308135431 0.4633256501737896
40077500 0.8820837359344547 0.46128347669376746
40200000 0.8832221171457098 0.4589232226655809
40322500 0.8842579536685258 0.4567089921362132
40445000 0.8855036389282638 0.4546157943468457
40567500 0.886698345960706 0.452244860421942
40690000 0.8876952311218224 0.4500683509542125
40812500 0.8886490596462124 0.4480155610800305
40935000 0.8899521212089985 0.4458206834299277
41057500 0.890982729737759 0.44371139282745414
41180000 0.8919088630756217 0.4418033186914407
41302500 0.8931155167452058 0.4397097646027084
41425000 0.894188071537917 0.43741477608495244
41547500 0.8949159378177175 0.4350974168482483
41670000 0.8960495314447765 0.43328220751211927
41792500 0.8969723994217778 0.43113538788558775
41915000 0.8978442767431659 0.4290136740489773
42037500 0.8986682844985924 0.4271643526966157
42160000 0.8997379973564757 0.42542454148878767
42282500 0.900653072836448 0.4233659379094861
42405000 0.9012785373934478 0.4216347261169251
42527500 0.902515251494125 0.4198872795163646
42650000 0.9036094578718048 0.4176539685748571
42772500 0.9043442689603558 0.4156580758771052
42895000 0.9053094054095229 0.4139398089052207
43017500 0.9064432151008517 0.41189411649322455
43140000 0.9073274823580939 0.40966008298486684
43262500 0.9080266446381183 0.40784436201128865
43385000 0.9091557726277969 0.4060249391107264
43507500 0.9100732248428869 0.40381078985334756
43630000 0.9108389850246809 0.4018907676592737
43752500 0.9118036124040985 0.4002502902730517
43875000 0.9128050336465232 0.3981232472902511
43997500 0.9136202129179269 0.39627863758694104
44120000 0.9145155857427593 0.3941595388801412
44242500 0.9152515008826658 0.3923881243675943
44365000 0.9161974912413398 0.39045596804343097
44487500 0.9170540562016867 0.3884222304060723
44610000 0.9177577943561722 0.386497240323798
44732500 0.9185069841576072 0.38464955780436855
44855000 0.9195990407690512 0.38310705440374754
44977500 0.9206197213664824 0.38158732805222867
45100000 0.9216827606937363 0.37934397443092294
45222500 0.9222344191564444 0.377113169074174
45345000 0.9229344512927562 0.3749978868211812
45467500 0.9234299155216581 0.3730563073323835
45590000 0.9241879334969149 0.37131711417762114
45712500 0.9248804653827968 0.36916679468511976
45835000 0.9255663470354721 0.3674183901178006
45957500 0.9260715487101299 0.36572769144899075
46080000 0.9270438177316047 0.3638261330873987
46202500 0.9276212485567182 0.3618601774803824
46325000 0.9280568316773934 0.3602170640929211
46447500 0.9290104929268989 0.35851310945357245
46570000 0.9297589664083435 0.356603315593265
46692500 0.9301981270269585 0.35483933957476654
46815000 0.9309946940002949 0.3532948291623947
46937500 0.931717133182489 0.3514586020276526
47060000 0.9322131908779363 0.3497149724035416
47182500 0.9329451281560709 0.34811830017015855
47305000 0.9337213435794878 0.34640035576098227
47427500 0.934355580802637 0.3445976941788761
47550000 0.9349669863101615 0.3429326204136003
47672500 0.9357535100799063 0.34116443833460397
47795000 0.9363321344010196 0.3393124636463326
47917500 0.9369953374539766 0.3376176425202458
48040000 0.9376945767272828 0.33601565568681
48162500 0.93841172731481 0.33416147568820753
48285000 0.938968993434005 0.3323496020233352
48407500 0.9394751112180084 0.33089459964864726
48530000 0.9400899628724518 0.3289915530563776
48652500 0.9408176778943974 0.32734958563459177
48775000 0.941276043061732 0.3256153058468394
48897500 0.9419260034246019 0.3239555299792374
49020000 0.9425341251152503 0.32232555016200026
49142500 0.9429305225724791 0.3207164029488277
49265000 0.9435941246680353 0.3192015378514582
49387500 0.9442871352086364 0.3175592142964238
49510000 0.944889653684923 0.31576210477845035
49632500 0.9454742484118123 0.314152842791858
49755000 0.9460824447874354 0.31250250189814194
49877500 0.946688661982754 0.31072833004463807
50000000 0.9472064659257675 0.3090128668296502
