# HZ S RI R 50
1000000 0.9712295403677451 -0.23606141281040574
1122500 0.9639247555648747 -0.2648089642245025
1245000 0.9556145910763204 -0.29291110074997856
1367500 0.9461231557866133 -0.32153500303556776
1490000 0.9360761807774098 -0.3496090936517541
1612500 0.9249942894831379 -0.37756270276428017
1735000 0.9128183840369767 -0.40572982288839504
1857500 0.900388611718211 -0.43330312401853077
1980000 0.8864456064973877 -0.460614527043293
2102500 0.8717822986151839 -0.4880724056263723
2225000 0.8557824911853684 -0.5153660693431248
2347500 0.8384012447183523 -0.5418710367476356
2470000 0.8210158642686725 -0.5676292401439147
2592500 0.8030588470401501 -0.5940728947347955
2715000 0.7828560715990619 -0.620052622354963
2837500 0.7621156558325293 -0.6450085723025992
2960000 0.7404047734807486 -0.670150258481353
3082500 0.717036353823098 -0.6948198989306426
3205000 0.6929517828105278 -0.7183228670275865
3327500 0.6681336482917152 -0.7417215986698766
3450000 0.6416056546351357 -0.7647485390588549
3572500 0.6140047168176391 -0.7866191836513359
3695000 0.5855163804812205 -0.8077366864415025
3817500 0.5553615450992723 -0.8284140547778325
3940000 0.52359837481275 -0.8473845642508896
4062500 0.4921499097688491 -0.8639754661087903
4185000 0.4615185599160809 -0.8831638219134811
4307500 0.4281026932239799 -0.9011630765111742
4430000 0.3930485808691562 -0.9167463297939896
4552500 0.35694721353637604 -0.931425466003094
4675000 0.3193265817875095 -0.9447335682691562
4797500 0.2811254344453988 -0.9564203359676829
4920000 0.24220949189998903 -0.9669447862736325
5042500 0.2018868982613377 -0.9761745866649401
5165000 0.1610099970943624 -0.9833580978478677
5287500 0.11951603197416258 -0.9887305858552511
5410000 0.07685655697737082 -0.9929925842625218
5532500 0.03357776737932408 -0.9950223125763378
5655000 -0.010097912392213458 -0.995148773307707
5777500 -0.05451632722074146 -0.9933807298992945
5900000 -0.09953010390776976 -0.9893833429426617
6022500 -0.14439711031693825 -0.9830318958939872
6145000 -0.18883134280585553 -0.9755120236939158
6267500 -0.23350214495371763 -0.9658979763986637
6390000 -0.27869012297398826 -0.9536341969611538
6512500 -0.32359234387599467 -0.939249887523178
6635000 -0.36837578470879656 -0.9223235657475365
6757500 -0.4129159892152345 -0.9028959155598906
6880000 -0.45642567866452133 -0.8813082639629258
7002500 -0.499373916275154 -0.8574938308097607
7125000 -0.5416738806624503 -0.8311409340610811
7247500 -0.5825225412931935 -0.802553123046187
7370000 -0.622373776734432 -0.7718757662161242
7492500 -0.6609486986694738 -0.7387232900365492
7615000 -0.6977210524709776 -0.7035208710869785
7737500 -0.7330226983862261 -0.6663442113320684
7860000 -0.7666086329808858 -0.6274057086158802
7982500 -0.7981088979864888 -0.5862461907299207
8105000 -0.8276416843528193 -0.5434411332894585
8227500 -0.8549655003167412 -0.49904506139335497
8350000 -0.880086457494598 -0.4531243650870943
8472500 -0.9026255903397963 -0.4056501492338578
8595000 -0.9227770288018221 -0.35715246534268147
8717500 -0.9404965880606713 -0.30739235784194957
8840000 -0.9552659731422183 -0.25666367963828074
8962500 -0.9674963399917047 -0.20518275835138586
9085000 -0.9770450103595176 -0.15293465901929917
9207500 -0.9836843174822283 -0.10019544786150832
9330000 -0.9873453028919961 -0.04691777540088222
9452500 -0.988356406889896 0.006477056803170092
9575000 -0.9863895465995245 0.060216764170658424
9697500 -0.9811782508976197 0.11408877904252183
9820000 -0.9729578885251402 0.16797596016863928
9942500 -0.9615545411795084 0.22194600413719237
10065000 -0.9468032619524113 0.27560140335854577
10187500 -0.9289210014177218 0.328875245811731
10310000 -0.9073477998920946 0.38195364347595195
10432500 -0.8817015450038831 0.4351016835337956
10555000 -0.8516683752266253 0.4878346152336937
10677500 -0.8171159374372027 0.5400348938224319
10800000 -0.7768391636453603 0.5922784000700356
10922500 -0.7300503329975663 0.6437882836012361
11045000 -0.6749610902660113 0.6945858701278819
11167500 -0.6097191585217987 0.7441945760900209
11290000 -0.5316115802854909 0.7908995325306133
11412500 -0.4359971307982985 0.8330279441686304
11535000 -0.3171861360278953 0.8648577133407289
11657500 -0.1667526765146217 0.8763076239457568
11780000 0.02184097036139691 0.8457953492643214
11902500 0.24627269201222446 0.7315817550830526
12025000 -0.7895489421253232 0.5942768551130516
12147500 -0.7698914925895278 0.6191763758068903
12270000 -0.7499940166412438 0.6430140016449595
12392500 -0.7296199511022246 0.666164144528189
12515000 -0.7086840137383948 0.6878571725387943
12637500 -0.6878690992291591 0.7086080317440951
12760000 -0.6668026099537856 0.7284613335507172
12882500 -0.6452328404240832 0.7473330655719737
13005000 -0.6239199989069084 0.7653482691107618
13127500 -0.6024426493701729 0.78236812908595
13250000 -0.580543192847631 0.7982375244136073
13372500 -0.5589631965129621 0.8131012642010637
13495000 -0.5375268836926598 0.8273729073518145
13617500 -0.5160974270761051 0.8409514282648783
13740000 -0.49450462835016235 0.8533578154416172
13862500 -0.47332446145530505 0.8649900608267675
13985000 -0.452055197208965 0.8762359638900958
14107500 -0.43089654330554755 0.8865413674372801
14230000 -0.41004807463020543 0.8961091805982769
14352500 -0.38941987625817054 0.9053394899874648
14475000 -0.36896786239070023 0.9139989132759972
14597500 -0.3484785610244453 0.9215542798257466
14720000 -0.3286209816640057 0.9289114637824886
14842500 -0.3087264700811232 0.9355545472089432
14965000 -0.28892190839365467 0.9416278886003672
15087500 -0.26976500498078143 0.9473438532464279
15210000 -0.25067620811399777 0.9526754827971458
15332500 -0.23164165783792004 0.957290884821664
15455000 -0.2131909312759508 0.9616203201387007
15577500 -0.1949909289087331 0.9654100538830858
15700000 -0.1765697632192289 0.9689910211950074
15822500 -0.1587933683383556 0.9718168022060797
15945000 -0.14132271440724584 0.9742592249809348
16067500 -0.12399661618163975 0.9768990572236061
16190000 -0.10696642176388096 0.9789539880860519
16312500 -0.0902691537920095 0.9805365661682078
16435000 -0.07369560395427409 0.9822557440133125
16557500 -0.057336071724658384 0.9830660448197058
16680000 -0.041356561378213565 0.9837106391180493
16802500 -0.025987125864078645 0.9842529358884838
16925000 -0.01025254583453153 0.9847076986659086
17047500 0.004863220548237167 0.9843179011338301
17170000 0.019521162077433315 0.9841648617906221
17292500 0.03446044631433222 0.9838957775507092
17415000 0.04899364109589018 0.9829655599886301
17537500 0.06288095303831831 0.9820839762126329
17660000 0.07687431360436447 0.9814689403993428
17782500 0.09078992507748031 0.9803225198281329
17905000 0.10411333786824453 0.9789699150830162
18027500 0.11726337748786424 0.9776325365661009
18150000 0.13020214430255259 0.9762495504936426
18272500 0.14320496933412313 0.9743902286592447
18395000 0.1555587363664532 0.9724167537823742
18517500 0.16802057702609643 0.970733925476404
18640000 0.18015895173668964 0.9681102290473101
18762500 0.19179533726832346 0.9657409754891475
18885000 0.2033828528647547 0.9638814373040051
19007500 0.21514677649424405 0.9617055263894734
19130000 0.22633887586929366 0.9585490613638915
19252500 0.23714836926333083 0.9558030847369695
19375000 0.24806989878892974 0.9531866288216091
19497500 0.25907437451792753 0.9499888521427692
19620000 0.26921126005605805 0.9471685558351833
19742500 0.2794651883471359 0.9444293042089792
19865000 0.2900675950157009 0.941305250036296
19987500 0.2992196094232536 0.9376596306309268
20110000 0.3092541976990151 0.9352584049018947
20232500 0.3191799963811362 0.9322165255881784
20355000 0.3285615361609318 0.9287161310441399
20477500 0.3375900528541649 0.9255844196101138
20600000 0.3467770708292756 0.922598136914688
20722500 0.35601742529061337 0.9190368488577748
20845000 0.3644649095411683 0.915574751653
20967500 0.37303234356484116 0.9124992174043668
21090000 0.38194519508010444 0.9091354483411089
21212500 0.39010009412658603 0.9052799220248122
21335000 0.39818941182673606 0.902042278400053
21457500 0.40632894167518674 0.8990187476123822
21580000 0.41443180464844254 0.8949577218701592
21702500 0.42205187721279114 0.8916099732628283
21825000 0.4295894767033352 0.8886207829309716
21947500 0.437515585756286 0.8847962150869836
22070000 0.4446729243109223 0.8810593228835415
22192500 0.45179224327233625 0.8777431361345716
22315000 0.4593217984315066 0.8741393046230507
22437500 0.4661263647614073 0.8699993631455869
22560000 0.4728391484403481 0.8665444871868238
22682500 0.47988623053151563 0.8630621617362755
22805000 0.4868356808681573 0.8591935167832949
22927500 0.493030213507205 0.8553681443482839
23050000 0.499735026128779 0.8521920121284895
23172500 0.5063715666574131 0.8482078688359032
23295000 0.5124896645362036 0.8441343226221538
23417500 0.5184861313591866 0.8407853569184248
23540000 0.5249152201159969 0.8371765272323687
23662500 0.5309208193636025 0.8331017426511037
23785000 0.5364116019735495 0.8296781286148082
23907500 0.5423356040255647 0.8263590757867002
24030000 0.5483322212980115 0.8222912088179287
24152500 0.5536273059092196 0.8186399357927955
24275000 0.5590695435952724 0.8153491642435255
24397500 0.5649846849583056 0.8117291547411757
24520000 0.5701270954321751 0.8075655969061957
24642500 0.5751907262483301 0.8041566799965358
24765000 0.5806845271933361 0.800460998674715
24887500 0.5858107566328584 0.7961775681640423
25010000 0.5901396196370867 0.7924805938641633
25132500 0.5953441942868846 0.7892977596677393
25255000 0.6005878189700997 0.7853738688546822
25377500 0.6048371520646265 0.781517533846428
25500000 0.6097820670395234 0.7785712629722082
25622500 0.6149388094659647 0.7749698074000865
25745000 0.6193701045829225 0.7711663445701971
25867500 0.6236215887835191 0.7679992129057007
25990000 0.6284883974478683 0.7646332170055931
26112500 0.632766277090678 0.7606548695407969
26235000 0.636776559509064 0.7574140056921239
26357500 0.6410350855061956 0.754024134438597
26480000 0.6338682412600628 0.760031086937877
26602500 0.6378844913250711 0.7565206986797977
26725000 0.642178054497485 0.7532833190164436
26847500 0.646810713400838 0.7495616627599132
26970000 0.6507302409937085 0.7458147638944854
27092500 0.6648785537299221 0.7325789307868598
27215000 0.6692864086565242 0.7294084210411617
27337500 0.6734582260129871 0.7259828049294628
27460000 0.6768116423910897 0.7229199727835111
27582500 0.6806230762099033 0.7200009677373655
27705000 0.6846512612915384 0.7162540051827859
27827500 0.6876139908615266 0.7125809463397728
27950000 0.6819517641720984 0.7187569863217803
28072500 0.685974754824297 0.7153648757099316
28195000 0.6894498852830876 0.7116890676369263
28317500 0.6927428981193882 0.7084650768704234
28440000 0.6966080364769102 0.7054179642012686
28562500 0.7000549311449155 0.7017261571096105
28685000 0.7031095147604848 0.6983279589931957
28807500 0.7065276158603392 0.6955219089536757
28930000 0.7100750822399371 0.6920643670789491
29052500 0.7131269251517527 0.688628648132331
29175000 0.7161416593322629 0.6858097681141991
29297500 0.7197006372919356 0.6825202614524453
29420000 0.7246868193543095 0.6697761718448778
29542500 0.7286638373763278 0.6664883769497395
29665000 0.7326729202389964 0.6633285444984044
29787500 0.7358394149722962 0.6598699632415418
29910000 0.7383704408596461 0.6567734093899582
30032500 0.7414988694717245 0.6539322488860788
30155000 0.7445734136241354 0.6507012559490946
30277500 0.7470232569789358 0.6475757050895652
30400000 0.7497031100863658 0.6447548884253705
30522500 0.7530378719140489 0.6417389674826711
30645000 0.75723220240829 0.6386395827228827
30767500 0.7602282947992831 0.6358101979934265
30890000 0.7631500330756951 0.6330965629886269
31012500 0.7661309607781066 0.6300074683566259
31135000 0.76859201906926 0.6271524719688799
31257500 0.7711562025836094 0.6245421921346789
31380000 0.7737697062581014 0.6213795877923902
31502500 0.7760037661251197 0.6183242643137177
31625000 0.778247413653423 0.6156285699642552
31747500 0.7808125232929792 0.6127530958410835
31870000 0.7832230017340132 0.6096143936997066
31992500 0.7850399267638537 0.6069317851714338
32115000 0.7855061075133577 0.6038382429983039
32237500 0.7849958404737652 0.6084869512021102
32360000 0.7869120085429425 0.6055155528642503
32482500 0.7884802412228475 0.6020169385814186
32605000 0.7909778879311472 0.5989297943072007
32727500 0.792924194323626 0.5958457790075578
32850000 0.7947820971032968 0.5926104282281872
32972500 0.8007638435312703 0.5840094483819498
33095000 0.8048485413477625 0.581379948140236
33217500 0.8067993651191143 0.5787703825360975
33340000 0.8091114763915487 0.5761634334736875
33462500 0.8110485387025167 0.5733489247150939
33585000 0.8128255220445483 0.5704869413438048
33707500 0.8147708877792419 0.5681480287650068
33830000 0.8168414697610209 0.5655015325408215
33952500 0.818704435463664 0.5627463382042484
34075000 0.8204256669641962 0.5605215366877724
34197500 0.8225426050246173 0.5580181449843864
34320000 0.8245189541732119 0.5550560122823402
34442500 0.8261692150858866 0.5525138950381321
34565000 0.8279818199423005 0.549820704019815
34687500 0.8299637396865145 0.5469596640081222
34810000 0.8312370339221303 0.5445260208637328
34932500 0.8333674126462818 0.5420190597045954
35055000 0.835123177967024 0.5390632731423318
35177500 0.8363367997050524 0.5367090029505348
35300000 0.8383990932212412 0.5345987121609161
35422500 0.8403108391754643 0.5316926099593404
35545000 0.8415691290621278 0.5290020644943453
35667500 0.843246644268772 0.5268289442812966
35790000 0.8451479657992003 0.5240724293866931
35912500 0.8465028197132072 0.521318097961129
36035000 0.8479781151892679 0.5189387695622212
36157500 0.8497776739004435 0.5166488573930427
36280000 0.8513782863636844 0.513783867888567
36402500 0.8525655252957811 0.5113094831665607
36525000 0.8543499267709234 0.509319884752089
36647500 0.8558743332304204 0.506497693041753
36770000 0.8570497393702083 0.5039608848922077
36892500 0.8584702171344712 0.5018679114856075
37015000 0.8602179699005196 0.49934018483535736
37137500 0.8615358506008425 0.49666093794266697
37260000 0.8627707110998851 0.4948054782316851
37382500 0.8644181524017813 0.4920722647443695
37505000 0.8654649869627139 0.4896556177012563
37627500 0.8667272535519749 0.48773836955038613
37750000 0.8684170104297226 0.4852845692223699
37872500 0.869600374449705 0.4827428970668156
37995000 0.8707411238650304 0.4806172799873464
38117500 0.8724071166009151 0.47847814691393437
38240000 0.8738138134752993 0.4757902262747914
38362500 0.8747030444217376 0.4737101537571431
38485000 0.8762062735593487 0.47157339953449084
38607500 0.8776345944778345 0.4690468267963274
38730000 0.87856835407505 0.4666131081290021
38852500 0.879695627728317 0.46469901739734376
38975000 0.8814641717419796 0.46247216885520664
39097500 0.8822947699987985 0.4599598992366463
39220000 0.8833090525049816 0.4578898975450462
39342500 0.8846725769363539 0.45590358847559903
39465000 0.8858268432752952 0.4533164970252681
39587500 0.886626868926776 0.45124562886103853
39710000 0.8880168967967857 0.44927450330584145
39832500 0.8891197174864093 0.44680138509783857
39955000 0.8901055171991642 0.44460739627508716
40077500 0.8911989449611786 0.44288060105257515
40200000 0.8924577646709825 0.4405765151048631
40322500 0.8933133640281501 0.43813747642353185
40445000 0.8942446439586262 0.43631332357716657
40567500 0.8956176537038294 0.434274739207036
40690000 0.8966986953783657 0.43184492826219145
40812500 0.897232203936143 0.4297914782733057
40935000 0.8986169616283546 0.42790096844530234
41057500 0.8998264066775932 0.42570500372744546
41180000 0.9004416455767738 0.4235426059106735
41302500 0.9014463202982466 0.4218111277321677
41425000 0.9026714022083491 0.4197407168737083
41547500 0.9034387857914833 0.4171449263981115
41670000 0.9042457033341381 0.415370361989149
41792500 0.9053339821425398 0.41341196770808747
41915000 0.9063650547620686 0.41104767359450767
42037500 0.906965115649471 0.4089492458287493
42160000 0.9080548071818121 0.40730657689104816
42282500 0.9091467873981672 0.4049593808821498
42405000 0.9095787492643611 0.402815005085393
42527500 0.910473945528996 0.4012436415763447
42650000 0.9116431495856567 0.3990726163617402
42772500 0.9123572533974434 0.3968146508009995
42895000 0.9129359097399663 0.39520060047936967
43017500 0.9140467749306693 0.3934296911948369
43140000 0.915187106821155 0.39103174056578605
43262500 0.9156548093092759 0.389149840391042
43385000 0.9166872066864965 0.3875583168323793
43507500 0.9178664046777344 0.38543863124706745
43630000 0.9182965938093824 0.3832721385981963
43752500 0.9190734712523525 0.38177519503627866
43875000 0.9202058610615768 0.37985396661956655
43997500 0.9204525233007895 0.3776687015916929
44120000 0.9196926813112821 0.37687653617232375
44242500 0.9205750695469727 0.3756831088464609
44365000 0.9215243899051074 0.37341400986953877
44487500 0.9220162852146152 0.3712380681283275
44610000 0.9246074007009644 0.36856641926798306
44732500 0.925800588033317 0.3662731312475159
44855000 0.9262983692972965 0.36424556379494655
44977500 0.9268902594231253 0.36280170033072556
45100000 0.9280528893323357 0.36072106741868853
45222500 0.928653188842909 0.35860536652255715
45345000 0.9291135511679294 0.35689952771148387
45467500 0.9300136076627549 0.35513515728383893
45590000 0.9308237338004811 0.3530559865302998
45712500 0.9310537049793819 0.3509841862422399
45835000 0.931768965222437 0.34962517262819665
45957500 0.9327303087070554 0.34765075193676875
46080000 0.9331912411243799 0.3456265043310378
46202500 0.9337208879016216 0.3441296194988422
46325000 0.9346329960190228 0.3424061595031539
46447500 0.9352989494090874 0.34034520355754105
46570000 0.9356769942045263 0.33874913051854527
46692500 0.9356641811636199 0.33761487336109375
46815000 0.9362814180102546 0.3359107584409377
46937500 0.9373341425916222 0.3363114867910983
47060000 0.9381251500664924 0.334955614386253
47182500 0.939094388201547 0.33298920644239577
47305000 0.9395295194578511 0.330888798458857
47427500 0.9394232088092546 0.32920135549655155
47550000 0.9405892658931337 0.3253816573335119
47672500 0.9414822547574146 0.3230724650983732
47795000 0.9421750126573254 0.32130291152190055
47917500 0.943062596762559 0.3198100823402295
48040000 0.944039832330729 0.31783096986775683
48162500 0.9442609844623748 0.31593195025499543
48285000 0.9448636247571665 0.3145231008575291
48407500 0.9457867289154276 0.3127753980355386
48530000 0.9461277780555547 0.3106121566261963
48652500 0.9466506922216782 0.3091998727996654
48775000 0.947531054663655 0.3075998684370107
48897500 0.948143240390212 0.3054202892123925
49020000 0.9482992152396885 0.30388251449646686
49142500 0.9489810783116515 0.3024795008431874
49265000 0.949737244551353 0.30052338837489206
49387500 0.9498875475203492 0.29888124014717954
49510000 0.9505181522871837 0.29765180172142
49632500 0.9514452048669453 0.29587371184175526
49755000 0.9518723753458597 0.2938442125424334
49877500 0.9519026296924562 0.29250118780654516
50000000 0.9521747118860305 0.2923505171712948
