# HZ S RI R 50
1000000 0.9710880048584827 -0.23606907023755808
1122500 0.9636486578875506 -0.26463498140301756
1245000 0.9553736534650168 -0.29324353535344005
1367500 0.9462162757461013 -0.3214438115248531
1490000 0.936021551628248 -0.34979539478019217
1612500 0.9249814801724205 -0.377797870640156
1735000 0.9129054510768798 -0.4056376456299274
1857500 0.9003056812885935 -0.43338097017625743
1980000 0.8861522505397484 -0.4610225283276323
2102500 0.8713472562048479 -0.4881155696516549
2225000 0.8559027235196458 -0.5152059280630139
2347500 0.8390088348326438 -0.5419394032553425
2470000 0.8209710081964219 -0.5684260102256314
2592500 0.8025123512328337 -0.5942049348901383
2715000 0.7827963926670473 -0.6201403734883874
2837500 0.761805656170693 -0.645443555500336
2960000 0.7400090494234203 -0.670134010485119
3082500 0.7167404490513176 -0.6947224877184482
3205000 0.692478962149062 -0.718359577882221
3327500 0.6679938034239951 -0.7415485911258151
3450000 0.6419570084273541 -0.7642467978288371
3572500 0.6145447580186488 -0.7865089675219722
3695000 0.5861287506037404 -0.8076257108298206
3817500 0.5567070315262583 -0.8280348345907059
3940000 0.5259683120392917 -0.8480484739048828
4062500 0.4941184019570878 -0.8665622373237982
4185000 0.46115687982336845 -0.8848275493875045
4307500 0.4269692372206191 -0.9012223211044889
4430000 0.3916064636976275 -0.916679284964166
4552500 0.3566301883523795 -0.9306854246775483
4675000 0.3198488721958352 -0.9440366080639049
4797500 0.28180668763055455 -0.9560860774007057
4920000 0.24306600135146852 -0.9662550208896598
5042500 0.2034426016424498 -0.9754737806295284
5165000 0.16259524390429442 -0.9829534126148051
5287500 0.121288818133319 -0.988367806202416
5410000 0.07934491294621909 -0.9925154158502945
5532500 0.03644453907314876 -0.9952069764430417
5655000 -0.006988590744843729 -0.9951348192750307
5777500 -0.050701171496131896 -0.9933976330143198
5900000 -0.09479719390665331 -0.9904429835913161
6022500 -0.13948522278081146 -0.9846364718856643
6145000 -0.18410977537186735 -0.9769475541211393
6267500 -0.22856408987252136 -0.9674531610854568
6390000 -0.2735269031812958 -0.9555659864098185
6512500 -0.31790288859909066 -0.9412753681311888
6635000 -0.3616195021605454 -0.9250694914242275
6757500 -0.4057924834276153 -0.9066292048199435
6880000 -0.4489366724414375 -0.8854937667111419
7002500 -0.4908476126337569 -0.8626046374311829
7125000 -0.5325980099270176 -0.8377146351191095
7247500 -0.5728232805838509 -0.8104381678096939
7370000 -0.6103641218388149 -0.7812649111364225
7492500 -0.6468044450807543 -0.7503554302818388
7615000 -0.6829356317547717 -0.7172056863634818
7737500 -0.7173584421015234 -0.6819745137506008
7860000 -0.7501710875147592 -0.6458171770114794
7982500 -0.781747412348238 -0.6077784818912679
8105000 -0.8110841780477605 -0.567675646772335
8227500 -0.8379885257722396 -0.5266455594225163
8350000 -0.8633118297483297 -0.4845321331760618
8472500 -0.886444204792855 -0.44079495370595034
8595000 -0.9068807833235619 -0.39615704318215095
8717500 -0.9253495077941485 -0.3514238606097146
8840000 -0.9416729482339673 -0.30544257700156996
8962500 -0.9551372101073703 -0.2589447255105003
9085000 -0.9665248907900561 -0.21264295104938588
9207500 -0.975987740143398 -0.16594722303338527
9330000 -0.9826602103050369 -0.11894339506348708
9452500 -0.9870380496701743 -0.07256930614981587
9575000 -0.9896611488703093 -0.026327129177029483
9697500 -0.9898385125825935 0.019825385861298835
9820000 -0.987578204767579 0.06526807448427951
9942500 -0.983883958091426 0.10975899676011079
10065000 -0.9780728932805878 0.1538671136073721
10187500 -0.9700650436765593 0.19694844579305087
10310000 -0.9607617798315152 0.23870604544320373
10432500 -0.9497114940793151 0.28000635752630515
10555000 -0.9367015756670158 0.3202037130550231
10677500 -0.9224420394324981 0.35870884214185084
10800000 -0.9070071043844697 0.3966774518626762
10922500 -0.8900273658108123 0.4334959265695362
11045000 -0.8716874634188735 0.4686282442501587
11167500 -0.8526463264905002 0.5025982881693047
11290000 -0.8326522928597675 0.5352000280883602
11412500 -0.811525537327781 0.5664176274625896
11535000 -0.7899914544980218 0.5958793502644433
11657500 -0.7674882456511966 0.6248142511777519
11780000 -0.7443579206803786 0.6514329551564093
11902500 -0.7206986572010334 0.6772552284777312
12025000 -0.6968539416301487 0.7021368565723138
12147500 -0.6720245547186074 0.7252992267076933
12270000 -0.6471342278128172 0.7471445591166015
12392500 -0.6222064441787923 0.7680649887154875
12515000 -0.5965708112832464 0.787716995253534
12637500 -0.5709253737653269 0.8059002070157634
12760000 -0.5455913196089115 0.8232317750136592
12882500 -0.519525177136533 0.8396282926981119
13005000 -0.4935275497153962 0.8546764501769918
13127500 -0.467832970154396 0.8687333582521288
13250000 -0.4418815527110305 0.8820613293591629
13372500 -0.4158194409354573 0.8943763247262934
13495000 -0.3904434149071278 0.9053232625915147
13617500 -0.364915845154413 0.9156147556722316
13740000 -0.33936008224936837 0.9252898592143861
13862500 -0.31416190158029256 0.933400421526155
13985000 -0.28909554251557656 0.9412045694797876
14107500 -0.2641359909289542 0.9482740401387677
14230000 -0.23924629513081444 0.9544380653077759
14352500 -0.21484048914873302 0.9595522990438458
14475000 -0.19090676735701617 0.96447599060491
14597500 -0.16669662030940682 0.9680147599373384
14720000 -0.14318737998270162 0.9714209881592247
14842500 -0.12013181596790246 0.9739944502699699
14965000 -0.0968838952960285 0.9760739119786019
15087500 -0.0743155301594952 0.9773040085398224
15210000 -0.05240400312418415 0.9783954768435412
15332500 -0.030255404556045543 0.9788930561236782
15455000 -0.008749772518122763 0.9789290574531457
15577500 0.012310004825052144 0.9784178480388268
15700000 0.03343739630064391 0.9781596303448933
15822500 0.05434858039061307 0.9773193947084315
15945000 0.07499351569292109 0.9753250907807276
16067500 0.0955316851118105 0.973893586479608
16190000 0.11614163313752239 0.9718852140216552
16312500 0.13644802811061088 0.9690389922012145
16435000 0.15658501374971745 0.9662600365089791
16557500 0.17676113966997337 0.9630448847328118
16680000 0.19700729925016644 0.9588178157175722
16802500 0.2165120272778735 0.9546492450341707
16925000 0.23612357199919803 0.9503274205302615
17047500 0.2557386376515092 0.9449167334490306
17170000 0.274900276696108 0.9394557848808076
17292500 0.2942751789848423 0.9336428308259461
17415000 0.3139033730888415 0.9270326860124333
17537500 0.333291438563572 0.9199553799591215
17660000 0.3522473405083321 0.9127357150688278
17782500 0.37178768953389446 0.9052173661308496
17905000 0.39108437203614177 0.8965596598352509
18027500 0.40991853082029966 0.8877440064735199
18150000 0.4198752204791367 0.8654380747957512
18272500 0.44819718140778125 0.8695479440818451
18395000 0.4674003805897901 0.8585496392000209
18517500 0.4868514326474565 0.8474179248319377
18640000 0.5067279080119285 0.834875822922969
18762500 0.52294752730434 0.8166057058296458
18885000 0.5459853991492266 0.807545605917158
19007500 0.5662263554432455 0.7928729798098161
19130000 0.5864144075386925 0.7765629306676018
19252500 0.6065316970044089 0.7592498923476575
19375000 0.6271850840662146 0.7412309479761398
19497500 0.6487509238776721 0.7203856680687402
19620000 0.6699547551712358 0.6980072951428411
19742500 0.6913833265863096 0.6737920680118755
19865000 0.7138443999614434 0.6468049919372351
19987500 0.7361535192665914 0.6165676525956436
20110000 0.7579325759865101 0.5836161050486528
20232500 0.7803894746292358 0.546789563278483
20355000 0.8022309900254354 0.5048061799945397
20477500 0.8226705187250013 0.4575652962500943
20600000 0.8420052197897641 0.4044121287220988
20722500 0.8589438536990089 0.3430990910406668
20845000 0.8710537805488436 0.2727960779310243
20967500 0.8770221258194585 0.19252545437579358
21090000 0.31293588100696995 0.8150694726086326
21212500 0.8551243617474207 -0.004550889503045067
21335000 0.8151392049387421 -0.12174093223824256
21457500 0.3668272868184837 0.9118649841359688
21580000 0.37521653863737536 0.9073128177163052
21702500 0.3831803990257448 0.9038397094684627
21825000 0.39020294282779316 0.8995952451726456
21947500 0.29789435832403277 0.6400790359613503
22070000 0.32276922419154197 0.706988781210643
22192500 0.4100105730906321 0.8822441628041726
22315000 0.3860979965477366 0.818657461873052
22437500 0.3615915434306381 0.7595095043329365
22560000 0.305473686232413 0.6746117101315658
22682500 0.33910991078693176 0.7157043873297063
22805000 0.33236643249376896 0.7115161083997925
22927500 0.4391833548304825 0.8372888948532041
23050000 0.4633538702574353 0.8655829335696479
23172500 0.36346651005262537 0.7305650174799566
23295000 0.4014806200948421 0.8058104282496776
23417500 0.46677685918835043 0.8291352078131478
23540000 0.4879222703915183 0.8486920111759021
23662500 0.49328092523375144 0.843120420871037
23785000 0.47407866072041444 0.805724898895207
23907500 -0.022069012017943042 0.9228152903805488
24030000 0.01786182359802596 0.9285769634958864
24152500 0.05382382050855079 0.9323846482398707
24275000 0.08656092735401036 0.9344785091012983
24397500 0.11770613929283344 0.9353356409480581
24520000 0.14672387030620015 0.9344901279591127
24642500 0.1731754632637013 0.9330580983667196
24765000 0.19865211992314502 0.9312672060029354
24887500 0.22237296570944987 0.928393486594449
25010000 0.24350595025599142 0.9242841383461805
25132500 0.26379199067673414 0.920969125216749
25255000 0.2832468822821547 0.9171472664009642
25377500 0.300691225968826 0.9126813833994585
25500000 0.31727845590575754 0.9090459548217044
25622500 0.33345825571661997 0.905403083888507
25745000 0.34835603181043495 0.8999096893824206
25867500 0.36172603236105233 0.8955075766208057
25990000 0.3751219093023381 0.8916528979467739
26112500 0.38823625279577895 0.8872557141313071
26235000 0.4003650864650737 0.8832462128781865
26357500 0.4123636105719519 0.8796299758476601
26480000 0.424752226961976 0.8755350215105338
26602500 0.4360656259118144 0.8713956851558752
26725000 0.4469642888541007 0.8673711240404643
26847500 0.45821684139267654 0.8631135382318769
26970000 0.4687146246303254 0.8585024918392965
27092500 0.4784049279924871 0.8539266390591428
27215000 0.48846378050907413 0.8495553434091031
27337500 0.49799034716043916 0.8447160050021507
27460000 0.5064047933029288 0.8396989370867873
27582500 0.5149025278643994 0.8353911505428213
27705000 0.5234618461022462 0.8307809572547908
27827500 0.5312237379663163 0.8258396618972399
27950000 0.5386431178007365 0.8216468109270775
28072500 0.5463667666296991 0.8173556597286235
28195000 0.5538259527343924 0.8126340450852986
28317500 0.5605976456725583 0.8082081245932619
28440000 0.5675672593855594 0.804171272653167
28562500 0.5744917733106291 0.7996494077095081
28685000 0.580909018112947 0.7951347677319756
28807500 0.5871700337122162 0.7910808457281933
28930000 0.5938133783820411 0.7867642102354043
29052500 0.5998343920471992 0.7823233302983618
29175000 0.605304671560896 0.7783009919833599
29297500 0.611356844169351 0.7743594962408312
29420000 0.6171742796168307 0.769974222141643
29542500 0.6223890806763175 0.7658161405046385
29665000 0.6278398686626879 0.761853976799638
29787500 0.6334510862116244 0.7576565677684238
29910000 0.6383503738181431 0.7532475655659695
30032500 0.6433707351036825 0.7491275155812338
30155000 0.6483696799966318 0.7453529273138975
30277500 0.6530998195079109 0.7411428495312404
30400000 0.6576505899280458 0.7372108427627229
30522500 0.6622799692373832 0.7335203915175854
30645000 0.666819632595292 0.7295183812339445
30767500 0.6711631255626351 0.7253770282090256
30890000 0.6754105070567231 0.7217694248108444
31012500 0.6799048861421949 0.7180832695972054
31135000 0.6839981892667477 0.7142763760633053
31257500 0.6878308384835439 0.7105903547494521
31380000 0.6919901623424439 0.7068848880170249
31502500 0.6958532863930019 0.7032425584014839
31625000 0.6995407222442138 0.69947186266855
31747500 0.7033555935385557 0.6959759450436578
31870000 0.7072373678106619 0.6923708927159818
31992500 0.7106398362318308 0.6886819680431042
32115000 0.7141522745699866 0.6851582346025217
32237500 0.7177667860020631 0.681712739248374
32360000 0.7211495089033294 0.6780858955114368
32482500 0.7243722849322731 0.6747067799099467
32605000 0.7277540184196516 0.6714180829440849
32727500 0.7310537862274485 0.6678932785271661
32850000 0.7340529723228184 0.6646435150676988
32972500 0.7371837839478286 0.6613578098941417
33095000 0.7403503885631975 0.6579907854424072
33217500 0.7433948374670165 0.654641718828068
33340000 0.7463057132984894 0.6514455068089298
33462500 0.7493334079046432 0.6482242503883608
33585000 0.7523036738711332 0.6448875220404046
33707500 0.7548754458197013 0.641616432685462
33830000 0.7578136445202757 0.6385957204530288
33952500 0.7606551135789155 0.6354143957702781
34075000 0.7632433433749499 0.6321917325168394
34197500 0.7660350522858097 0.6292373676403052
34320000 0.7688014677993551 0.6260999838407073
34442500 0.7713458356458768 0.6229865267302392
34565000 0.7737535076548276 0.6200501447594682
34687500 0.7764594873883325 0.6173320321069634
34810000 0.7789384702981625 0.6147454543879396
34932500 0.7814919129012273 0.6116657770844621
35055000 0.7789832710071811 0.6028125823905662
35177500 0.78631757105302 0.6054559323203544
35300000 0.7885962830179151 0.6023370812500762
35422500 0.7909643556931631 0.5994772229136313
35545000 0.7932953659828411 0.596496577186261
35667500 0.7955896139190122 0.5935886049121675
35790000 0.7976105134647234 0.5905537000545785
35912500 0.7998323368338344 0.587841414129184
36035000 0.8021797440267652 0.5848477338804152
36157500 0.8042397549815042 0.5819155890484456
36280000 0.806332054720792 0.5791535542876209
36402500 0.8085727331214033 0.5763645140240949
36525000 0.8107169743380743 0.5735108539843865
36647500 0.8125332787867574 0.5707131782949415
36770000 0.8146549892350401 0.5681426471118239
36892500 0.8167447954800531 0.5651786981902772
37015000 0.8184809804149165 0.5623626163097984
37137500 0.8204884077787251 0.5598459278882969
37260000 0.8224695793661503 0.5571590025587961
37382500 0.8243282140186892 0.554223062386801
37505000 0.8260198094945939 0.5517497071825329
37627500 0.8278962456943373 0.5491871154703448
37750000 0.8298108317670146 0.5462892608671016
37872500 0.8313969201146972 0.5437351365608947
37995000 0.8331896958801378 0.5411876903430521
38117500 0.8351599199067921 0.5385418093394438
38240000 0.8366842560234545 0.5358440729952425
38362500 0.8382252787339414 0.5334964068346307
38485000 0.8401721233993209 0.5309459293495526
38607500 0.8417850633761683 0.528253305328308
38730000 0.843213638491034 0.5257992154808925
38852500 0.8449556873208774 0.5232740361294168
38975000 0.8467186072553535 0.5207379889878985
39097500 0.8479606064893324 0.5181126019037002
39220000 0.8495890340953497 0.5158722957739647
39342500 0.8511795526053245 0.5134613003809457
39465000 0.8525772222788369 0.5107675382104888
39587500 0.854037273743004 0.5084574990430295
39710000 0.8556895184565574 0.5061187118274555
39832500 0.856916061789896 0.5035176584585904
39955000 0.8583587789812357 0.501393760344156
40077500 0.8598239487311554 0.49918562491789065
40200000 0.8613425220322684 0.49659783122812673
40322500 0.862490886254134 0.4940931311722513
40445000 0.8638345892821965 0.49195358636391306
40567500 0.8654486330973644 0.4895968445296902
40690000 0.8667279044564745 0.4871292396150895
40812500 0.8677916947212733 0.484882440905699
40935000 0.8692727953828232 0.4827322763428771
41057500 0.8706533877789473 0.48035817747651344
41180000 0.8716356783605667 0.47815364235406593
41302500 0.8728969378175058 0.4761843562986071
41425000 0.8743296682554982 0.47388639329708687
41547500 0.8752702480838553 0.47143964705452496
41670000 0.8765939821113328 0.46959727589976913
41792500 0.8779354202238212 0.4673137830458356
41915000 0.8792150163743025 0.46483329762696696
42037500 0.880170240274329 0.46264912434640804
42160000 0.881597427543643 0.4607033284384444
42282500 0.8829067425214854 0.45825672940376705
42405000 0.883742671016104 0.45624195683447344
42527500 0.8850108328617765 0.4545953592401267
42650000 0.8868719203092756 0.45259850082633896
42772500 0.8882856344054314 0.45019728810938364
42895000 0.8892251649959242 0.44788864209636237
43017500 0.8903201425966084 0.44546571459687184
43140000 0.8912120719050857 0.4428601434158686
43262500 0.8918978285279335 0.44078509908644076
43385000 0.8931406033970847 0.43894551959872213
43507500 0.8943438269560074 0.4365791151325951
43630000 0.8950116565858147 0.4343613244181388
43752500 0.8960156554187537 0.4326569611530339
43875000 0.8972151461191831 0.43051420593043277
43997500 0.8980785219310219 0.4282654391073773
44120000 0.8989048936233724 0.4264615041363559
44242500 0.9001630806805134 0.4245941856867807
44365000 0.9012324489249312 0.4221740709808329
44487500 0.9017802001781501 0.4201247087975879
44610000 0.9030153478122132 0.4184450975517762
44732500 0.9040685109045207 0.41602492998517154
44855000 0.9047729723288715 0.4139516836880473
44977500 0.9056667175370047 0.4122819490463878
45100000 0.907006438127981 0.41007848138567743
45222500 0.9076659915405371 0.4078470805686913
45345000 0.9083989260943693 0.40611890410224943
45467500 0.9095639420040009 0.40419458446586504
45590000 0.9103792167604645 0.40186761901509854
45712500 0.9108357573532799 0.39981904365969206
45835000 0.9118951903065521 0.39826912478133536
45957500 0.912832725473577 0.39606950837925475
46080000 0.913491255404983 0.39397837188626256
46202500 0.9142877340950635 0.3923284505050221
46325000 0.9152182442137731 0.390365741992576
46447500 0.9160997917103355 0.3882127685131371
46570000 0.9166417351981085 0.386604146134832
46692500 0.9176385855783932 0.3848742447993667
46815000 0.9184556503585766 0.38279622861845003
46937500 0.9189156495325954 0.38092530568149163
47060000 0.9198135767748287 0.3794182915126988
47182500 0.9208558029199265 0.37732827596035373
47305000 0.9214214800069251 0.3752381190023742
47427500 0.9220407792162337 0.373885297548886
47550000 0.9231512125116956 0.37207244152360375
47672500 0.9238486952408107 0.36975537627508065
47795000 0.9241845324853393 0.3681132219825564
47917500 0.9252912839766189 0.3665926286300706
48040000 0.92620794527136 0.3644613678200403
48162500 0.9265946078824115 0.362534728801303
48285000 0.927373537358541 0.36100669407233055
48407500 0.9283651386639722 0.3592607860603326
48530000 0.9287010325941326 0.3570582066107053
48652500 0.9293730041683883 0.35559538532368445
48775000 0.9303643954189887 0.35405731420487324
48897500 0.9310651877219894 0.3519804438296138
49020000 0.9314547140938657 0.3505159581993898
49142500 0.9324031248466008 0.349011027089767
49265000 0.9332487453367837 0.34686560704301
49387500 0.9335855732698284 0.34503421754992264
49510000 0.9346081864984193 0.3434798569829871
49632500 0.9354622140164037 0.34147339117397946
49755000 0.9357577876514392 0.339495597051028
49877500 0.9362757928602405 0.33799343642930146
50000000 0.9373321616086588 0.33624158673958754
