# HZ S RI R 50
1000000 0.9711697767097208 -0.23599762544204234
1122500 0.9637760137099228 -0.26455014642805935
1245000 0.9554811410574598 -0.2929101073420014
1367500 0.9463291276066222 -0.321227096822386
1490000 0.936174261825426 -0.3494221767090871
1612500 0.9251254600818599 -0.37741241168662104
1735000 0.9132018746137334 -0.4053743577213802
1857500 0.9003977300194531 -0.43303654598551283
1980000 0.8865144188446828 -0.4604083550194667
2102500 0.8718902808039971 -0.4878034339672175
2225000 0.856057261087517 -0.5148456306690965
2347500 0.8393754442677603 -0.5411804284326448
2470000 0.8217669979109582 -0.5677931589510083
2592500 0.803090978080938 -0.5938715205715425
2715000 0.7831646696329752 -0.6195064728283476
2837500 0.7626048750299572 -0.6445641779216577
2960000 0.7408563573499355 -0.6695402798828027
3082500 0.7178210482700811 -0.6938522978914629
3205000 0.6940190317763723 -0.7174315006564748
3327500 0.6693333557810615 -0.740820970237715
3450000 0.642909565301548 -0.7635372547108632
3572500 0.6156783842945822 -0.7855194446604173
3695000 0.5878245431477648 -0.8066185530193315
3817500 0.5584530450084237 -0.8272173840550364
3940000 0.5279829794830758 -0.846753899063781
4062500 0.4968216447587319 -0.8651135145826506
4185000 0.464251304374403 -0.8827881671200591
4307500 0.4303881700842968 -0.8997538525226485
4430000 0.3958607505773974 -0.9153312317579954
4552500 0.3602398126143551 -0.9300495432458462
4675000 0.3233830008122819 -0.9432039211000023
4797500 0.28598030235601496 -0.9548923763977332
4920000 0.24771590360242088 -0.9655186088286226
5042500 0.20833672012661597 -0.9746443891531446
5165000 0.1682748904704092 -0.9819286261618293
5287500 0.1274291795916445 -0.9878230737519066
5410000 0.08586770313668285 -0.9922821335246728
5532500 0.04353849685976731 -0.9945996588742605
5655000 0.0010468496909652918 -0.9952056484370226
5777500 -0.04213185913518268 -0.9940723041770478
5900000 -0.08579589153695714 -0.9911130544871014
6022500 -0.12948186240737372 -0.9859260813985028
6145000 -0.1734890700599843 -0.9791596269831715
6267500 -0.21762929596937983 -0.9703255225748744
6390000 -0.2617770730233899 -0.9595008603662317
6512500 -0.3055605082248378 -0.9463692941976665
6635000 -0.34884186618708407 -0.9304163465131922
6757500 -0.3920109472600216 -0.9126279785966328
6880000 -0.4340396655266868 -0.8928813143070137
7002500 -0.47565071299325334 -0.8711663360557791
7125000 -0.5167042440419037 -0.8473211499212827
7247500 -0.5563056693302147 -0.8213712925607579
7370000 -0.594988208014653 -0.7935815321407235
7492500 -0.6325311603556418 -0.7637706754136842
7615000 -0.6684298439855942 -0.7320097532425547
7737500 -0.7029806127268712 -0.6985317810848637
7860000 -0.7360784423709812 -0.6637184800508221
7982500 -0.7672773829486005 -0.626927605230149
8105000 -0.7966419485011345 -0.588788191722893
8227500 -0.8241245096568098 -0.5493190067320951
8350000 -0.8497724863015967 -0.5085605028285285
8472500 -0.873093718774063 -0.46686930451485853
8595000 -0.894608725647022 -0.42429665252290455
8717500 -0.9135667610685126 -0.38086733851166193
8840000 -0.9306875652966001 -0.3371468538164154
8962500 -0.9456740053965118 -0.2925455545417508
9085000 -0.9581918780096198 -0.24748361939934638
9207500 -0.9686377632960655 -0.20272487572576214
9330000 -0.9770811949368299 -0.1575742783774923
9452500 -0.9832545274748881 -0.11254253837823283
9575000 -0.9872036482392024 -0.06785060123229146
9697500 -0.9893712198567962 -0.023404586237948385
9820000 -0.98936852531815 0.02076713540871108
9942500 -0.9873092984980224 0.06410633717932461
10065000 -0.983675937023312 0.10685429515450383
10187500 -0.9782279069646896 0.1490273118072942
10310000 -0.9708593929657356 0.1900922813975789
10432500 -0.961979540385738 0.23034303855323557
10555000 -0.9517850368333164 0.2697709797929256
10677500 -0.940375520885264 0.3078051455983256
10800000 -0.9278727896949169 0.344972159398631
10922500 -0.9140979223278469 0.38090268430509383
11045000 -0.8986645693012927 0.41559241516226386
11167500 -0.8822246837584512 0.4491054480404968
11290000 -0.8650585516920207 0.4813849195126452
11412500 -0.8466821292165183 0.5128996181351803
11535000 -0.8276325614766019 0.5427841522678154
11657500 -0.8080060595089175 0.5716355369807395
11780000 -0.7876748852277101 0.5991202624508406
11902500 -0.7666572911172493 0.6258084418201001
12025000 -0.7453460620773068 0.6506445017075744
12147500 -0.7235877099315982 0.6745866873837455
12270000 -0.7013737221730456 0.6973727900602578
12392500 -0.679071526817832 0.7190270421995036
12515000 -0.6564578321504346 0.7394189429405105
12637500 -0.6335474543338816 0.7590493762517655
12760000 -0.6104974980178267 0.7773175641426157
12882500 -0.5875679177315926 0.7946956749765656
13005000 -0.5645226999208188 0.811160433591722
13127500 -0.5414040547969966 0.826670146589257
13250000 -0.518180118904531 0.8410333074667264
13372500 -0.4953002752075274 0.8547594179512387
13495000 -0.4722438038297413 0.8675422703467297
13617500 -0.4494464034798477 0.8791578653007676
13740000 -0.4270694001291962 0.8902519377237857
13862500 -0.40448333809570575 0.9005246016274324
13985000 -0.3819692762566171 0.9098566772031033
14107500 -0.3601107377933068 0.9185181574417749
14230000 -0.3381158736851209 0.9267995923818576
14352500 -0.31618707984735034 0.9345188474039442
14475000 -0.29509491590690107 0.9410281053865404
14597500 -0.2739294411364238 0.947490275275632
14720000 -0.25289128071551614 0.9528718863368997
14842500 -0.23262650390293263 0.9580169797338458
14965000 -0.21207584154408018 0.9626907897423687
15087500 -0.19189723962424665 0.9667717932530286
15210000 -0.17237453035968242 0.9701792068425815
15332500 -0.15283670369248722 0.9735805045327154
15455000 -0.13362410097935776 0.976647956282832
15577500 -0.11491005558748944 0.9788999346648518
15700000 -0.09635496629483918 0.9812923463522361
15822500 -0.07792877885671518 0.9830822062911545
15945000 -0.05957184914152642 0.9839978080020134
16067500 -0.04197603310606598 0.985211807656074
16190000 -0.024461801540826306 0.9862496830102145
16312500 -0.006862812992774118 0.9859695409787793
16435000 0.009844479608152054 0.9854384764188482
16557500 0.026115999059294005 0.9851481434392656
16680000 0.04290092011367624 0.9845047013601714
16802500 0.05853456869367385 0.9827996658250536
16925000 0.07399201624225503 0.9818981214506004
17047500 0.08954747113972299 0.9805439932673041
17170000 0.10475177873854392 0.9789175367947195
17292500 0.11945875717870102 0.9771099429531417
17415000 0.13405618500040414 0.9754122975510865
17537500 0.14863012904134432 0.9734483149286586
17660000 0.16252954798316552 0.970743974501683
17782500 0.17633431557102805 0.9686792426649263
17905000 0.1902473875334039 0.9662006476693997
18027500 0.20354436331710785 0.9631847452004905
18150000 0.21635130437248243 0.960646502965254
18272500 0.2295339201367108 0.958210266115791
18395000 0.24245599270510054 0.9548431522850639
18517500 0.2548220169137572 0.9520588906928318
18640000 0.2668269604040393 0.9487899562840407
18762500 0.27930786598012297 0.9450393136780604
18885000 0.2907024503660004 0.9412884711336901
19007500 0.30259327573029415 0.9378381693895992
19130000 0.3138818968864252 0.9336967911693856
19252500 0.3248944715597156 0.9298131626024839
19375000 0.3359942517817502 0.9261919511014403
19497500 0.347174584477237 0.9217558134748958
19620000 0.357499200957186 0.9177763836825025
19742500 0.3679615823356922 0.9138271682036917
19865000 0.3787089733020825 0.9094510413115352
19987500 0.3880049397345649 0.905483432770425
20110000 0.3981982268087734 0.9009803729051002
20232500 0.40837311982768804 0.896707623490388
20355000 0.41804024678905166 0.8920956026856406
20477500 0.4272504354945652 0.8877242116570422
20600000 0.4367539566690222 0.8836000361657674
20722500 0.4461177200624107 0.8789490462729239
20845000 0.4548486026506044 0.8741904818406724
20967500 0.4636559452840753 0.8697483899046308
21090000 0.47284923969642495 0.8651775174587114
21212500 0.4811790975300655 0.8599323228064923
21335000 0.4894823119101881 0.8554532707901173
21457500 0.49804147430623696 0.851049567334795
21580000 0.5064239992831917 0.8454255466946495
21702500 0.5141698022744573 0.8407460194089973
21825000 0.5220798527630586 0.8363459327679021
21947500 0.5303755081474962 0.831173751281808
22070000 0.5376883675148342 0.8263090950460023
22192500 0.5451521932922105 0.8217505589817623
22315000 0.5531179078328813 0.8168661214403075
22437500 0.5605110000334999 0.8114867774211255
22560000 0.5674443717173855 0.8066090126104474
22682500 0.5748881652195014 0.8015997944867513
22805000 0.582168417343879 0.7961874632997165
22927500 0.5886857630398127 0.790722463383376
23050000 0.5958129844747639 0.7859500998532182
23172500 0.602873002802935 0.7804872080076607
23295000 0.6093356529595187 0.774818844583348
23417500 0.6158810719039526 0.7699046370424795
23540000 0.6227289190210863 0.7647239389121386
23662500 0.6293064697618806 0.758834384641453
23785000 0.6353113275080715 0.7536886953122793
23907500 0.6417057603849127 0.7486493808642175
24030000 0.6482888837918317 0.7426863313622567
24152500 0.6541133564852185 0.7370390856356581
24275000 0.6600259006762413 0.7318808148022703
24397500 0.6665825195729316 0.7262698239708475
24520000 0.6723300235885006 0.7202424562296694
24642500 0.6779321509140748 0.7150158415785346
24765000 0.6841685701628614 0.709152762518293
24887500 0.6898803934938325 0.7026939216159112
25010000 0.6949089731388302 0.6967844493281615
25132500 0.7009733819086418 0.6910669245715412
25255000 0.7066486875926438 0.6847291765453958
25377500 0.7113372376103402 0.6782815461067406
25500000 0.7167740898112334 0.6726422382829224
25622500 0.7222246490529002 0.6665162230560036
25745000 0.7270347681658669 0.6600155615372614
25867500 0.7318183588454793 0.6543688416865912
25990000 0.7372106191208135 0.6484071466892029
26112500 0.7421251235885555 0.6420277940085306
26235000 0.7472524104529207 0.6360784647637818
26357500 0.7525124719657154 0.6300912695582861
26480000 0.758200607162607 0.623384537142062
26602500 0.7633077007177889 0.6169684572822205
26725000 0.7688550511732133 0.6107599925275177
26847500 0.7749839030885748 0.603668910997005
26970000 0.7804171366259948 0.5963589309581415
27092500 0.7857127984296479 0.5892251034228612
27215000 0.7915900413616106 0.5815342260304764
27337500 0.7971196184160935 0.5730500537778453
27460000 0.8019129828346397 0.5648706726009589
27582500 0.8072457880046154 0.5567829148589742
27705000 0.81267267459579 0.548247415058239
27827500 0.8175688666886577 0.53922822053865
27950000 0.8225836793417327 0.5303320702485058
28072500 0.8279662709120861 0.5210698197992057
28195000 0.8331165120556255 0.51116594813098
28317500 0.8382380003676854 0.501561800487018
28440000 0.8438695058803416 0.4915766445295131
28562500 0.8495313026391689 0.48046221424083235
28685000 0.8550048519338758 0.4691456773063749
28807500 0.8608535660691126 0.4574575984918976
28930000 0.8669525803490884 0.4440952373115696
29052500 0.8726316139286476 0.4303359092227403
29175000 0.878280884480195 0.4161282805588931
29297500 0.8844264725776161 0.4002124107522585
29420000 0.8896703584061232 0.38326701106422595
29542500 0.8953134532203062 0.3655484385096183
29665000 0.9007527306997354 0.3455215181138858
29787500 0.9053733672881855 0.32425196927746686
29910000 0.9094401499574704 0.30151268874259657
30032500 0.9137395739628945 0.2759882042104779
30155000 0.9164113198061815 0.24795605869288093
30277500 0.9178430169041313 0.21769583526906858
30400000 0.9183157855816237 0.18417739055794427
30522500 0.9162979425457621 0.14652284490954104
30645000 0.9109461583094713 0.10518123962357347
30767500 0.9022638713467749 0.05920380417831661
30890000 0.8878967528266571 0.0073800480980241705
31012500 0.8657965321110799 -0.04989107488474866
31135000 0.8339595742774027 -0.11251913351417464
31257500 0.788341825368098 -0.1811547624461385
31380000 0.7236704113795891 -0.2530264442145601
31502500 0.6356646900486992 -0.32371999556242803
31625000 0.518667908476135 -0.38598608042002513
31747500 0.36982556698580993 -0.4273106458461252
31870000 0.1924938802028711 -0.43007085365585446
31992500 0.0007757445939082874 -0.3766848906019078
32115000 -0.1778292963777802 -0.25629590724746704
32237500 -0.31020761805689506 -0.0780093869059097
32360000 -0.3738793921524899 0.12892494963635862
32482500 -0.3681663023470447 0.3290573559486009
32605000 -0.3117027152252688 0.4971955474847244
32727500 -0.22741805198167517 0.6252401648342129
32850000 -0.13320318530341455 0.7156100008875758
32972500 -0.04043989913279931 0.775519219113412
33095000 0.04510197389125049 0.813086555677879
33217500 0.12188821942318855 0.8353562783910378
33340000 0.18997334010797645 0.8462109423700592
33462500 0.2486358760035189 0.8497778711673775
33585000 0.29974474554975944 0.8489186071157844
33707500 0.3448987573179228 0.8445258508639256
33830000 0.3844862765307129 0.8379999571671767
33952500 0.4194427882040847 0.8305773500001844
34075000 0.45069355595955585 0.8221588521566938
34197500 0.47828768324335114 0.8130716332785908
34320000 0.5029953433297147 0.804023352338947
34442500 0.5252640102957372 0.7951173278324142
34565000 0.5455937303727233 0.7856026393726525
34687500 0.5635339395675113 0.7766252237145478
34810000 0.5800812806924194 0.7679562060923363
34932500 0.5956338086453422 0.758963745779515
35055000 0.6095096189061192 0.7502780007442009
35177500 0.6221377308570856 0.7421116049733426
35300000 0.6344930870922603 0.7340617347889792
35422500 0.6456037024629001 0.7260982801819457
35545000 0.6554942429200427 0.7186619986731508
35667500 0.665411191582364 0.7116984740400886
35790000 0.6744922987679031 0.7042965965861652
35912500 0.6826425019049798 0.6974933670334883
36035000 0.6907641890320982 0.6910799880409143
36157500 0.698425882006533 0.6846424965027643
36280000 0.7053918144523931 0.6779159219532399
36402500 0.7119586743723014 0.6720603797033963
36525000 0.7185134864112199 0.6664453576829658
36647500 0.7244472741892839 0.6602528567066837
36770000 0.7297849601342752 0.6548677227274036
36892500 0.7354632434134392 0.6498328273145708
37015000 0.740859332959138 0.6442872331074245
37137500 0.7456165884689251 0.6392164456669022
37260000 0.7501501526173343 0.6346933887563456
37382500 0.7551404243360693 0.6296834691600924
37505000 0.7592009046906526 0.6248220975604641
37627500 0.762941414374293 0.6208416648403252
37750000 0.7676111819453255 0.6167396933985544
37872500 0.7720025865558188 0.6123944761767943
37995000 0.7757844958062133 0.6081789309580597
38117500 0.7801911643645255 0.6042025604861683
38240000 0.7843557568884679 0.599701906448925
38362500 0.7876704941237993 0.5953686953973514
38485000 0.7912841723233236 0.5914196424813876
38607500 0.795083666294182 0.5873733649744117
38730000 0.7982038651746475 0.582828421969132
38852500 0.8012194239332557 0.5790281157994067
38975000 0.8046459634446691 0.575560901197873
39097500 0.8075407152736124 0.5712574583496295
39220000 0.8102143092044085 0.5675312731673487
39342500 0.8130820427967026 0.5643592431873424
39465000 0.8161655743322751 0.5603573878198689
39587500 0.8185661700475291 0.5565736138842601
39710000 0.8210649162479018 0.5534055015394622
39832500 0.8239031010388012 0.5497894419328462
39955000 0.8264061857696547 0.5462137093580054
40077500 0.8283874541212335 0.5430283489640888
40200000 0.8310894358461095 0.5398445431008992
40322500 0.8335177873916415 0.5363208586844312
40445000 0.8353091930760965 0.5330580588619499
40567500 0.8377932692119527 0.530360247324664
40690000 0.8401983723387856 0.5269501947620334
40812500 0.841872549096575 0.5234798636498629
40935000 0.8440382830215329 0.520751515066976
41057500 0.8463502760053898 0.5177905712180183
41180000 0.8481179889850817 0.5142216314425305
41302500 0.8498577076146608 0.5114673594845017
41425000 0.8520349124247781 0.5087840709031207
41547500 0.8540772295094464 0.5053019619209747
41670000 0.8556984039446796 0.5025075054780315
41792500 0.8575820887601603 0.4998803272984266
41915000 0.8597865806004104 0.4965433348739326
42037500 0.8612168269664288 0.4934145902530588
42160000 0.8628039955669625 0.4910272675646527
42282500 0.8649426967031046 0.48803087402074613
42405000 0.8663034717406907 0.48502165871008207
42527500 0.8677298319739518 0.48250666271801484
42650000 0.8696516932637863 0.47987474905088373
42772500 0.8712610559825178 0.4767860764930176
42895000 0.8723755197254875 0.47416403076987246
43017500 0.8741091226893528 0.47179301423760844
43140000 0.8758878573622414 0.46891750174995245
43262500 0.8768517868627075 0.46618343666765755
43385000 0.8784229922207978 0.46413795555548487
43507500 0.8802740255438934 0.46173607721993504
43630000 0.881952168468854 0.4593969741411945
43752500 0.883171269920174 0.45665186773206223
43875000 0.884553199926122 0.45395043653761663
43997500 0.8856727457558952 0.4509736565828237
44120000 0.8867236455396998 0.44859808674449947
44242500 0.8881583056230958 0.4465242382400042
44365000 0.889708030942238 0.44371282329195794
44487500 0.8906099735700184 0.44119743330975364
44610000 0.8919184239356508 0.4391336083171329
44732500 0.8934372056544293 0.4363475949142645
44855000 0.8944477878493919 0.43380395050024445
44977500 0.8955082151789652 0.4318260212139923
45100000 0.8971378947258035 0.42929575016719496
45222500 0.8981181755574114 0.4267166282970857
45345000 0.8988827810494854 0.42453606523187265
45467500 0.9003642152320405 0.42237168205647
45590000 0.9015131538821617 0.4198457631868327
45712500 0.9022218130460533 0.417360268864962
45835000 0.9034200705919428 0.4154271935736685
45957500 0.904693024042058 0.4129695684926462
46080000 0.9055596881910223 0.4104783285239304
46202500 0.906513921127475 0.40853618669093456
46325000 0.9077732409797774 0.4063390659216898
46447500 0.908749766506583 0.4038264402155744
46570000 0.9095072960453722 0.4018291376691498
46692500 0.9106353493183431 0.3998120450562211
46815000 0.9117148060785674 0.39744884062373775
46937500 0.912413837158967 0.39534569676971326
47060000 0.9133285918099148 0.39346540112551104
47182500 0.9146105367289976 0.3910839402426536
47305000 0.9152495020317584 0.38877928776628434
47427500 0.9159849870967637 0.38706167129422936
47550000 0.9172479438911929 0.3849609007491327
47672500 0.9181390541243546 0.3825538061391902
47795000 0.9186311753462205 0.3805249913684872
47917500 0.9198718688824209 0.3787922289533599
48040000 0.9208384628346036 0.37650897000204003
48162500 0.9212727906230141 0.3743018512965798
48285000 0.922240821848267 0.37254425751080467
48407500 0.9232335674082177 0.370584400694285
48530000 0.9236104525730168 0.3682832430918868
48652500 0.9244240516772249 0.36688144414813856
48775000 0.9255162250282353 0.3651418933434269
48897500 0.926529287522778 0.3627698488055473
49020000 0.9271531064656211 0.36104283401734377
49142500 0.9281494980151062 0.3591307266489056
49265000 0.9291354102111703 0.35667762729953684
49387500 0.9295855639780913 0.35471615153602715
49510000 0.9305475386699636 0.3529682229532845
49632500 0.9315325170058854 0.35079352749905296
49755000 0.93197063544444 0.3486260182675592
49877500 0.9325830266986269 0.34698268085725903
50000000 0.9337220484715113 0.34501306472985416
