# HZ S RI R 50
1000000 0.9988683926426783 -0.009477173740835901
1047500 0.9986251141221515 -0.009910495214808397
1095000 0.9987742282188706 -0.010475342657880454
1142500 0.9987945220939045 -0.010892881980875832
1190000 0.9987967752795364 -0.011379176794785631
1237500 0.9988791854454132 -0.011816715767077504
1285000 0.9988031125229377 -0.012228350899403311
1332500 0.9987754709178978 -0.012742088838376206
1380000 0.9987955945534402 -0.013241582946104849
1427500 0.9986667354604905 -0.013664674214472212
1475000 0.9987394552690095 -0.014036556026984491
1522500 0.9987332173220925 -0.014418322710922027
1570000 0.998758440215053 -0.01507688721710362
1617500 0.9986590909474301 -0.015566419367844203
1665000 0.9986607732972353 -0.015917617204605796
1712500 0.9987774032946729 -0.016300126181811828
1760000 0.9987637148627316 -0.016872880959707414
1807500 0.9986888878727979 -0.017354050078810995
1855000 0.9986259775762437 -0.017777742023991776
1902500 0.9985639191968538 -0.01812366738963129
1950000 0.9985981639503375 -0.018527047034648154
1997500 0.9987045467217234 -0.01904150658794154
2045000 0.998597031606098 -0.019574549284949092
2092500 0.9986122313774372 -0.019922262791071864
2140000 0.9986518621771173 -0.020374433220622015
2187500 0.9986593333936306 -0.020804547009845478
2235000 0.9985897392961162 -0.02136226655736761
2282500 0.9985213445084496 -0.021869293401572194
2330000 0.9984562516118258 -0.022229765975806216
2377500 0.9985647453289023 -0.02250457447264966
2425000 0.9986076983771298 -0.023056778974607162
2472500 0.9985731537356543 -0.02366967213853273
2520000 0.99848281934571 -0.024078366448988565
2567500 0.9984591340220064 -0.024410833854836035
2615000 0.9985662303741086 -0.024870831792251812
2662500 0.9986211785219351 -0.025573141141163554
2710000 0.9984473083622908 -0.026035482126517594
2757500 0.998263852480953 -0.026290327827167437
2805000 0.9984051017381461 -0.026642408503638276
2852500 0.9984815422859437 -0.027182369357574523
2900000 0.9983983998973658 -0.027659796678501138
2947500 0.9983367335630907 -0.02808840113802373
2995000 0.9983510699224398 -0.028474022291621794
3042500 0.9984277393653728 -0.028949858524157483
3090000 0.9984823022298507 -0.029564333435307573
3137500 0.9983465429896058 -0.030127166504981012
3185000 0.9982538297934536 -0.030382715586412343
3232500 0.9983154416460291 -0.030736649601511144
3280000 0.9984026689598937 -0.031247145548312257
3327500 0.9984038148665743 -0.0318490927401575
3375000 0.9982015686665499 -0.03226883131080743
3422500 0.9982148366837008 -0.03255528900345083
3470000 0.9983414561227146 -0.03298448143430268
3517500 0.9983067838312147 -0.03363808993052318
3565000 0.9981947509935462 -0.034258904168513266
3612500 0.9980519674264071 -0.03445034887122963
3660000 0.9981027251892014 -0.03481744259923287
3707500 0.998272103605607 -0.03525870362822739
3755000 0.9982168903076891 -0.03591430514800766
3802500 0.9980845190673361 -0.03630044665210913
3850000 0.9980940269007108 -0.0366645282281542
3897500 0.9982121014860048 -0.03710943522812949
3945000 0.9982286219355687 -0.037640972635563735
3992500 0.9981349894752228 -0.03821362584736169
4040000 0.997867683869256 -0.03861289885668021
4087500 0.997948396949581 -0.03887975284317656
4135000 0.9980979963461446 -0.039315413852809435
4182500 0.9981868887679861 -0.03992086349664072
4230000 0.9979725030484582 -0.0404670601274593
4277500 0.9978351993597562 -0.0407802239490708
4325000 0.9980440586560452 -0.041080232679568535
4372500 0.9981064387108982 -0.041679721788946536
4420000 0.9979630136788524 -0.04239730686442984
4467500 0.9977320983945578 -0.042647368975831955
4515000 0.9977606797138889 -0.042943526926141846
4562500 0.9979321017077041 -0.043274663069185836
4610000 0.9980353297127158 -0.04401999964880429
4657500 0.9979070535016291 -0.04457941986063958
4705000 0.9976586094558122 -0.04483196222252438
4752500 0.9977054275331921 -0.04514783532062599
4800000 0.9979512501797497 -0.0457343988256733
4847500 0.9978874536199814 -0.04637463683325033
4895000 0.9975748745125165 -0.046885297056443134
4942500 0.9975791815171033 -0.047046742445174025
4990000 0.9976526448218183 -0.04736030204391167
5037500 0.9978052893679783 -0.04801350958301798
5085000 0.9976710598992876 -0.048614806216705386
5132500 0.9974525215010688 -0.04890232004776833
5180000 0.9974709260439459 -0.04924724013051562
5227500 0.9976567989156603 -0.04971099568274694
5275000 0.9976970008842383 -0.05039763466296018
5322500 0.9974733791858297 -0.0509747594633825
5370000 0.9972362077154029 -0.051250101033831014
5417500 0.9973994575213176 -0.051424920017998046
5465000 0.9975277132657229 -0.05201382787283088
5512500 0.9975685404171345 -0.052670047842677564
5560000 0.997375686054766 -0.053062676773980265
5607500 0.997199242066249 -0.0533645300246394
5655000 0.9974668773150189 -0.053684880127759065
5702500 0.9975547963641698 -0.05444211157976713
5750000 0.9973017039558958 -0.05498510316495354
5797500 0.9970866804259565 -0.055399332369256205
5845000 0.9971779499259172 -0.0555466751854469
5892500 0.9972864439251801 -0.05606585916401358
5940000 0.997302015861828 -0.056702727237586195
5987500 0.9971316273043506 -0.05715614532639591
6035000 0.9970984822740115 -0.05748540878010124
6082500 0.997110314638774 -0.057737644001966106
6130000 0.9973531766641186 -0.05847510939522515
6177500 0.9971336022001274 -0.05910020111388621
6225000 0.9968500578910032 -0.059411666199706586
6272500 0.9968429220342631 -0.05972385322654972
6320000 0.997054437416638 -0.06016147492502687
6367500 0.9971133153303054 -0.06074600891468531
6415000 0.9968700503069161 -0.06127312513931903
6462500 0.9967419672901826 -0.06156426798376532
6510000 0.9969005644668514 -0.06189027631004329
6557500 0.996998811536448 -0.062455401465101514
6605000 0.9969076655190564 -0.06311656362115513
6652500 0.99667331965283 -0.06359192691181191
6700000 0.9966197644418736 -0.06379669591407587
6747500 0.9967356424967766 -0.06416718193877699
6795000 0.9968459530046869 -0.06478224101988558
6842500 0.9966556192821341 -0.0653932234943821
6890000 0.9965936576845332 -0.0655861032008432
6937500 0.996686204035927 -0.06596583453146979
6985000 0.9967063893174815 -0.06656794808720344
7032500 0.9966091549451599 -0.06720793632893836
7080000 0.9963673434431534 -0.06752789910001171
7127500 0.9963232365133818 -0.06784027939183448
7175000 0.9964406639449075 -0.06823754580993205
7222500 0.9965467309683691 -0.06884473403558604
7270000 0.9964266699412975 -0.06940582380564682
7317500 0.9962063124888556 -0.06969556154427274
7365000 0.9962776776675822 -0.07004427145206056
7412500 0.996381446633136 -0.07056115868863908
7460000 0.9964175780057776 -0.07117954118079245
7507500 0.9961292067805326 -0.07166093947765868
7555000 0.996064865444343 -0.07193325674882718
7602500 0.9960919870838226 -0.0722113053564452
7650000 0.9961932006980376 -0.07283676957008452
7697500 0.9961572909692294 -0.07342966238857664
7745000 0.995940777791176 -0.07376170671613813
7792500 0.9960193877202389 -0.07409346134178679
7840000 0.9961204864968338 -0.07462649633680547
7887500 0.9961478425721942 -0.07523970713120776
7935000 0.9958626456202464 -0.07579256111124526
7982500 0.9957470201189552 -0.07604927245563246
8030000 0.9958274025698731 -0.07633528757163736
8077500 0.9958543864473371 -0.07683816713250412
8125000 0.9958779551621314 -0.07746085453329729
8172500 0.9956441352652746 -0.07776157150093872
8220000 0.9956455404771789 -0.0782267396166446
8267500 0.9957090012828395 -0.07862591291354724
8315000 0.9957932351308768 -0.0792764467472297
8362500 0.9955221404020694 -0.07976615112622562
8410000 0.9954667469112485 -0.0800927462574777
8457500 0.9954594078728759 -0.08042610891649297
8505000 0.9955961153986664 -0.08097315626869793
8552500 0.995562501843701 -0.08157072589016154
8600000 0.9953333565938175 -0.08198357542369414
8647500 0.9951552841912817 -0.08232215943190659
8695000 0.9953093427937295 -0.08270041058513493
8742500 0.9954791475864765 -0.08315830462342924
8790000 0.9952886634347394 -0.08384797541902256
8837500 0.9951230019488169 -0.08423332765819466
8885000 0.9951048777092601 -0.08448288682428116
8932500 0.9952840371455541 -0.0849519944515421
8980000 0.9951931235361672 -0.08562316805438483
9027500 0.9950319532420637 -0.08618293679335226
9075000 0.9948451154481965 -0.08645132510505678
9122500 0.9949618437905434 -0.08671052227086229
9170000 0.9949768976851261 -0.08726216901677315
9217500 0.9950213059543902 -0.08792968527796936
9265000 0.9947817228172727 -0.08826627150995753
9312500 0.9946805064767187 -0.08861195726637468
9360000 0.9948929568711343 -0.0890652228401458
9407500 0.9948836812493316 -0.08959930310175089
9455000 0.9947242829881375 -0.09015271320319075
9502500 0.9944964488690612 -0.09055279736463957
9550000 0.9944925514728897 -0.0908162557609811
9597500 0.9947116941350895 -0.09127699713436632
9645000 0.9946119383121751 -0.09194046478923876
9692500 0.99443031160339 -0.09236003592392905
9740000 0.9943504732868036 -0.09266915208841324
9787500 0.994533283112581 -0.09302388051824022
9835000 0.9945030387535766 -0.09362475400051506
9882500 0.9943502443930531 -0.09422534946439953
9930000 0.9940867072400131 -0.09467225814120216
9977500 0.994037640054214 -0.09485690013130826
10025000 0.9941765487528414 -0.09529051522393017
10072500 0.9942809540254582 -0.09593732094839719
10120000 0.9940652401863194 -0.09643538112321778
10167500 0.99391984085854 -0.0966668579584985
10215000 0.9940106579069513 -0.09711883480548084
10262500 0.9941762561981893 -0.09769979881235745
10310000 0.9940026821309368 -0.09830699447945705
10357500 0.9937344556735859 -0.09873517261440892
10405000 0.9936249375607296 -0.09897258356769628
10452500 0.9937213665567121 -0.0993101114816543
10500000 0.9938911377861986 -0.0998884768984394
10547500 0.9937145308435804 -0.10050966227500026
10595000 0.9936080160012134 -0.1008303760719126
10642500 0.9935589620471202 -0.10119616103706712
10690000 0.9936159066403082 -0.10166177117840652
10737500 0.9937204290741052 -0.102324055285328
10785000 0.9933710961794208 -0.1028458246590905
10832500 0.9931964643215413 -0.10313471857659211
10880000 0.9933018551653086 -0.10337581033699236
10927500 0.9934270522175459 -0.10397033776223273
10975000 0.9934054005853062 -0.10445190771242968
11022500 0.9930933072795969 -0.10491548040974236
11070000 0.9930959905779804 -0.10516511537292292
11117500 0.9932269033088035 -0.10567475091880019
11165000 0.9932119558772876 -0.10633953767820761
11212500 0.9930044938561687 -0.10682833018432324
11260000 0.9927892278049332 -0.10720019433053707
11307500 0.9928590603040449 -0.10738405191610002
11355000 0.9929125220020454 -0.10783698326043784
11402500 0.9929488876467989 -0.10858029736836482
11450000 0.9926782368440197 -0.1089647839214448
11497500 0.992631384861899 -0.10926197090482662
11545000 0.992776536631967 -0.10968045868864842
11592500 0.9927698655736598 -0.11027871813782922
11640000 0.9925964661071753 -0.11085521862156035
11687500 0.9923329699630752 -0.11123546655149828
11735000 0.9924214611789247 -0.11146141622422628
11782500 0.9925321571886069 -0.11200452081382943
11830000 0.9924774011086362 -0.1126481294936201
11877500 0.9922984365213571 -0.11302446724052433
11925000 0.9921355318172764 -0.11336607019136247
11972500 0.9922684510225178 -0.11367963048562604
12020000 0.9922665452109442 -0.11436447513996204
12067500 0.992111939883005 -0.1149151058120077
12115000 0.9918963886903888 -0.11525963413760061
12162500 0.9918894796126726 -0.11554559928182125
12210000 0.9919246421415018 -0.11602218010576246
12257500 0.9920233347951105 -0.11656643543952133
12305000 0.9917898644228706 -0.11726834219689353
12352500 0.9916698992638644 -0.11746300931587957
12400000 0.9917955589789419 -0.11780924792787918
12447500 0.9918081036405084 -0.11831464497742661
12495000 0.9917023515884369 -0.11903836294527897
12542500 0.9915420701802993 -0.11940277326509119
12590000 0.991433866014493 -0.11962597007416499
12637500 0.9914228727224885 -0.12002799079553773
12685000 0.9915413430169212 -0.12058344963511691
12732500 0.9913837602001876 -0.1211546532307598
12780000 0.9911817812945636 -0.12154444143257094
12827500 0.9912949884599422 -0.1218213202392867
12875000 0.9913477714603447 -0.12236509508826567
12922500 0.9912043495540495 -0.122947121037199
12970000 0.9909435369057314 -0.1234759571009416
13017500 0.9908166327684647 -0.12376481515647765
13065000 0.990886493862976 -0.12406921135073468
13112500 0.991111055424607 -0.12458118438133646
13160000 0.9908901831008428 -0.12524450793312927
13207500 0.9906892172078499 -0.12564685076008406
13255000 0.9906820663748361 -0.1258717963339922
13302500 0.990754047018319 -0.1263770635107335
13350000 0.9907864305398008 -0.12698020990844824
13397500 0.990508178625761 -0.12756504036427813
13445000 0.9903653602800284 -0.12777572567597437
13492500 0.9904188758537118 -0.12808809041176691
13540000 0.990570225277679 -0.12866842158572017
13587500 0.9903933378278748 -0.12927451077638685
13635000 0.9902123155848981 -0.12964583760216122
13682500 0.9900476910455976 -0.1300213490064756
13730000 0.9901960079035758 -0.13036759608425386
13777500 0.9902653699940535 -0.13095102558486355
13825000 0.9900021049012321 -0.1315544838464352
13872500 0.9897989806947658 -0.13195807259831654
13920000 0.9898094324593073 -0.13217597346658996
13967500 0.9899725980749279 -0.13253766327336
14015000 0.9898826004012483 -0.13323617740155763
14062500 0.9895833137450645 -0.13374265890385365
14110000 0.9895087237233343 -0.13400591155534797
14157500 0.9896916349512013 -0.13445277073119527
14205000 0.9897178319676254 -0.13500652497523188
14252500 0.9895730227778761 -0.135739914586787
14300000 0.9892788033738957 -0.13605833581115226
14347500 0.9892695070497913 -0.1362110511157192
14395000 0.9893605664953327 -0.13664549534420287
14442500 0.9893236798686409 -0.1372316509689598
14490000 0.9891738822621038 -0.1377662589660589
14537500 0.9889855089629567 -0.13816984428234197
14585000 0.9889855743928452 -0.1384314328762259
14632500 0.9892039521076107 -0.1390146264134599
14680000 0.9890215872013306 -0.13969523157268138
14727500 0.988716127692417 -0.14005009057583823
14775000 0.9887230220862556 -0.14041200431155043
14822500 0.9886858429679589 -0.14072565860793987
14870000 0.9887312854620934 -0.14132079848202697
14917500 0.9885579453133089 -0.1417864010084383
14965000 0.9884819096146341 -0.14212456067982934
15012500 0.9884501447059107 -0.1425610694770013
15060000 0.9885151513570511 -0.14306206537956168
15107500 0.9884097896126852 -0.14366584862071052
15155000 0.9882024663466201 -0.14407669398412007
15202500 0.9880992164676985 -0.14433488957253118
15250000 0.9881059939529833 -0.14482334116866472
15297500 0.9881014150007973 -0.14528758774085324
15345000 0.9880022365094738 -0.145798234125309
15392500 0.9878738436515965 -0.1461129624780831
15440000 0.9879510777812471 -0.14648553119114324
15487500 0.9878869988297607 -0.14710185993242833
15535000 0.9877694242378621 -0.14757119821072254
15582500 0.9875791748595081 -0.1479732049806449
15630000 0.9876418367224705 -0.14834199978315069
15677500 0.9875271252006473 -0.14880345921922553
15725000 0.9875632278276402 -0.14927179780071217
15772500 0.9874135224054139 -0.14981145152514094
15820000 0.9872809945610418 -0.15016587571495316
15867500 0.9872862154726306 -0.15054611823833647
15915000 0.9872997484078131 -0.1510870551220221
15962500 0.9871879159548828 -0.15153735476291827
16010000 0.9870077079402352 -0.15212540661293456
16057500 0.9869155421521631 -0.15245625390033815
16105000 0.9868564630096662 -0.15292675614363851
16152500 0.9868583384468986 -0.15325827784729826
16200000 0.9867331479938448 -0.15374829088466388
16247500 0.9867633051836029 -0.1541909709591481
16295000 0.9866601915153431 -0.15468474890690415
16342500 0.9865967174688643 -0.15516581260367537
16390000 0.986482941070884 -0.15562346842246857
16437500 0.9863703488972946 -0.15599198280741655
16485000 0.9862504459875896 -0.15638939481884245
16532500 0.9862947790486296 -0.15693150064759956
16580000 0.9861733726809644 -0.15736487418085118
16627500 0.9861290614053846 -0.15779995799349872
16675000 0.9859731817009485 -0.1582571473851567
16722500 0.98609787716229 -0.15868592552365915
16770000 0.9859940520482396 -0.15923905660938115
16817500 0.985881729374731 -0.1596340169478033
16865000 0.9856494907152066 -0.16015216561887965
16912500 0.9857318774690338 -0.16056754099756168
16960000 0.9855043639642711 -0.1609162339938989
17007500 0.9854795650453301 -0.16136539346525242
17055000 0.9854432342851086 -0.16182387614029017
17102500 0.9854180897483672 -0.16228813841409448
17150000 0.9852634092259737 -0.1626314208649618
17197500 0.9852765860070429 -0.16323367916432818
17245000 0.9851938935532105 -0.16373565609636184
17292500 0.9850838665817285 -0.16420916008875427
17340000 0.9849427191534424 -0.16449969188430277
17387500 0.9849209082575107 -0.16510182603927526
17435000 0.9847989479397923 -0.16543944423597015
17482500 0.9848107098081155 -0.16577988956239498
17530000 0.9847435870033977 -0.16623240601223255
17577500 0.984848496922384 -0.1667889810272221
17625000 0.9846488805861303 -0.16732927041380835
17672500 0.9844316912641229 -0.1677165760193859
17720000 0.9844655004756308 -0.16811418081584756
17767500 0.9842866527550762 -0.1685574186501985
17815000 0.9842372050164138 -0.16901179681093378
17862500 0.9841618240614026 -0.16943624850487066
17910000 0.9840355615242933 -0.16981992833035225
17957500 0.9841050566386601 -0.17016539864239136
18005000 0.9840501879467262 -0.1707281734844395
18052500 0.9838654944609173 -0.17125182135644873
18100000 0.9838495306942234 -0.17176056435577586
18147500 0.9836505581231286 -0.1720882171284531
18195000 0.9835706173563851 -0.1725573471359473
18242500 0.9834824235722694 -0.1730592161024617
18290000 0.9834744561708937 -0.17347832284603149
18337500 0.9833120628378483 -0.1738185170073734
18385000 0.983387502662478 -0.17423139872921029
18432500 0.9833369860506077 -0.17470375895329898
18480000 0.9831639193828694 -0.17526767336578594
18527500 0.9830350994340661 -0.17579109658509612
18575000 0.9828925325157701 -0.17610049318058832
18622500 0.9829778990723976 -0.17651906756790417
18670000 0.9828690791788056 -0.1770622925248853
18717500 0.982781283416004 -0.1774659356552508
18765000 0.9826296266503783 -0.17781358924863333
18812500 0.9825687511449875 -0.17821914619023832
18860000 0.9826202009691848 -0.17865855041441772
18907500 0.982477910387893 -0.17924730334048705
18955000 0.9823220023007347 -0.17974042271157128
19002500 0.9822993310801363 -0.18004819629749338
19050000 0.9821550702824708 -0.1805768978151117
19097500 0.9821122358527453 -0.1809774739394273
19145000 0.9819262906355947 -0.1814861245240483
19192500 0.9818115467214465 -0.1819187130169166
19240000 0.9818992257063004 -0.18219759886835515
19287500 0.9818532002751391 -0.18268633727973066
19335000 0.9817940507251823 -0.18321831604788916
19382500 0.9815885411722527 -0.1836705387231525
19430000 0.9815687982492618 -0.18411509848832036
19477500 0.9813771304846706 -0.18452489965226268
19525000 0.9813931670716088 -0.18498505799577147
19572500 0.9812347624058415 -0.1853893152082828
19620000 0.9811409464229147 -0.18594626091109032
19667500 0.9810965658487905 -0.1862400161074591
19715000 0.9810102697271773 -0.18671656034321665
19762500 0.9809708179113342 -0.18710285157523318
19810000 0.9807833492583051 -0.1877546162021932
19857500 0.9807393147463566 -0.18814478886474537
19905000 0.9806786802240766 -0.1885387820402503
19952500 0.9805694283167503 -0.18893867197809794
20000000 0.980443115715968 -0.1893226584493916
