# HZ S RI R 50
1000000 1.0000022297104918 -0.0112190291439825
1047500 0.9994746258358508 -0.01149555166131445
1095000 0.9997149929837466 -0.01210136907622741
1142500 0.999855539901861 -0.0125285063263987
1190000 0.9998870634255665 -0.013224648820363382
1237500 0.999836412731984 -0.01368094829637438
1285000 0.999705569320025 -0.014233932163043965
1332500 0.9997073243607847 -0.014570112087371596
1380000 0.9997828597798859 -0.015104308499807305
1427500 0.9998292256411276 -0.015706340774323552
1475000 0.9997116516292426 -0.016197173438773773
1522500 0.9997494731681151 -0.016688857627014688
1570000 0.9996604877794469 -0.017213264115183816
1617500 0.9996771767134116 -0.017764888876907588
1665000 0.9996474292883896 -0.0182345124332667
1712500 0.9997231367519517 -0.0188172984067845
1760000 0.9996440762602606 -0.019251529078754957
1807500 0.9996744684473965 -0.019723399698060928
1855000 0.9996951664916841 -0.02025281988408124
1902500 0.9996611579133866 -0.02084109486494174
1950000 0.9996168356163831 -0.021366488881449475
1997500 0.9995915493452708 -0.02181939982019729
2045000 0.9996001425583314 -0.022295991755338772
2092500 0.9996034445215665 -0.02283268946588231
2140000 0.999535943829612 -0.02332311104286688
2187500 0.9995190539155194 -0.02384838887628432
2235000 0.99947471760334 -0.024277432225422675
2282500 0.9995453473798992 -0.024828584489067836
2330000 0.9995288123288057 -0.02531708181566262
2377500 0.999482829484883 -0.025762447724366845
2425000 0.9994554102338804 -0.02638361166631081
2472500 0.9994979148760201 -0.026855733806566917
2520000 0.9994474004539373 -0.027388963426055745
2567500 0.9994655111807597 -0.027844619945885267
2615000 0.9993687275403448 -0.02842684711075648
2662500 0.9994402073081537 -0.02884992256398018
2710000 0.999470293736938 -0.029450495606760222
2757500 0.9993934258201187 -0.029945954742852384
2805000 0.9992922658539825 -0.03045271245491916
2852500 0.9993007734014709 -0.03099264321019346
2900000 0.9993189099006856 -0.03138292749760969
2947500 0.9993725897981776 -0.031953924838445884
2995000 0.9992568595218548 -0.03249359937440473
3042500 0.9992491858656651 -0.033005836907548304
3090000 0.9991770732615923 -0.033443833842800356
3137500 0.999238361398367 -0.034031854454358364
3185000 0.9992385673374281 -0.03450980740198864
3232500 0.9992563311446416 -0.035017389844102215
3280000 0.9992130297432885 -0.03559115300927192
3327500 0.9991401053834997 -0.03603559903674515
3375000 0.999146178752497 -0.036537000788401594
3422500 0.9991643883485776 -0.037068368415866686
3470000 0.999072471192207 -0.03755253587254614
3517500 0.9990291546456491 -0.0380071319942433
3565000 0.9990831255177706 -0.03862119293789623
3612500 0.9991004139420169 -0.0391297942833377
3660000 0.998980956835801 -0.03960479420137076
3707500 0.9988914778694657 -0.04007811682641547
3755000 0.9989037437665544 -0.04060870643383114
3802500 0.9990249999095651 -0.04104688484974946
3850000 0.9989153748112088 -0.0416493820595606
3897500 0.9989736133305782 -0.042209833565462866
3945000 0.9988925715310997 -0.04260116403866709
3992500 0.9989594823398216 -0.04313682516644215
4040000 0.9988653066409783 -0.043681192442906885
4087500 0.998871576380608 -0.044163362488314685
4135000 0.9987967507737905 -0.04471930699235803
4182500 0.9987853946768434 -0.04514984812349794
4230000 0.9987980587096336 -0.045645843021680975
4277500 0.9987769983412322 -0.0462280963617746
4325000 0.9987011475936692 -0.046685252084098156
4372500 0.9986549835466999 -0.047263412635556244
4420000 0.9986361922328696 -0.04768834727112602
4467500 0.9986702359044445 -0.0481867998435296
4515000 0.9986439029887914 -0.0487784087417538
4562500 0.9985915242712586 -0.04918913405319214
4610000 0.9985127336474341 -0.049793303680149524
4657500 0.9985655506294462 -0.050211298589826384
4705000 0.9985023442325901 -0.05075882850774925
4752500 0.9984333666070546 -0.051289380662788375
4800000 0.9984367612270981 -0.05183032564359987
4847500 0.9984340173107205 -0.05230463576427522
4895000 0.9983486121938223 -0.0528219134362132
4942500 0.9983596613368132 -0.05337572735250604
4990000 0.9983292797709271 -0.0537832711724739
5037500 0.9983218194093655 -0.05427633742612088
5085000 0.998279703861506 -0.05487679154167512
5132500 0.9982039111296799 -0.05535507217467547
5180000 0.9982094290273712 -0.05585564816816828
5227500 0.9981912370986286 -0.05632687634105021
5275000 0.9981818070424616 -0.05689487336423034
5322500 0.9981076344734917 -0.05745944589627999
5370000 0.9980861711541203 -0.05793368164403161
5417500 0.9981148778594805 -0.05839602034817303
5465000 0.9979891568823064 -0.05900971628353598
5512500 0.9980213454444904 -0.05938116283502552
5560000 0.9980329917004288 -0.059851542689508846
5607500 0.9979136915363642 -0.06046411299775027
5655000 0.9979216022534759 -0.060849502397413435
5702500 0.997877036058488 -0.06145639758341928
5750000 0.9978826950697072 -0.06197343031961404
5797500 0.9978223273236575 -0.062453054140280725
5845000 0.9978245247186179 -0.06299986339470844
5892500 0.9978261042408944 -0.06343417908942424
5940000 0.9976970272897868 -0.06394801457148644
5987500 0.9976885258403813 -0.06449432817198486
6035000 0.9976787908613644 -0.0649191361744185
6082500 0.9975551235651807 -0.06551298248683907
6130000 0.997629674802289 -0.06607498916339856
6177500 0.9975790587135895 -0.06656026165166615
6225000 0.9974651088100441 -0.06701442816352438
6272500 0.9974257198611742 -0.06754915787747924
6320000 0.997494099417472 -0.06808494312472067
6367500 0.9973872246963595 -0.06855745290956054
6415000 0.9973142735713901 -0.06905476125990766
6462500 0.9973184229851005 -0.06951690030588557
6510000 0.9973517942701969 -0.07008604770387508
6557500 0.9972305441701005 -0.07060425603718118
6605000 0.9972049397903162 -0.07106091627053
6652500 0.9971964443510531 -0.0716856180957824
6700000 0.997180719983149 -0.07209695721221741
6747500 0.9971933736454226 -0.07261721695223412
6795000 0.9971459527369787 -0.07311009050789981
6842500 0.9970247986103282 -0.0737284092430661
6890000 0.9970512918278697 -0.0742107071704089
6937500 0.9969472579485434 -0.07467047908624097
6985000 0.9968713985764791 -0.07519445973123781
7032500 0.9968942660648049 -0.0756442911581218
7080000 0.9968803286016525 -0.0761717246823954
7127500 0.9967931023522976 -0.07672098788221657
7175000 0.9967181939270436 -0.07718164272929197
7222500 0.9967251204275127 -0.07774606857342396
7270000 0.9967963248116202 -0.07820024082790011
7317500 0.9966376501906218 -0.07874545068358241
7365000 0.9965897016133767 -0.07922364134640265
7412500 0.9965562738832305 -0.07969143024490219
7460000 0.9965807294476724 -0.08014393147496367
7507500 0.9965282681679578 -0.0807171469754733
7555000 0.9963807502631992 -0.08119523276449356
7602500 0.9963978509394779 -0.08179261106665416
7650000 0.996381543582749 -0.0822812212118178
7697500 0.9963658081950533 -0.0827703377561208
7745000 0.9962261282543039 -0.08321586993772355
7792500 0.9962706044299673 -0.08381334368313319
7840000 0.9962041286936444 -0.08437247836671719
7887500 0.9961735828312928 -0.08483116381153606
7935000 0.9961118466786566 -0.0852979744157334
7982500 0.9960532881779115 -0.08583907979584161
8030000 0.9960507473907575 -0.0863950069317495
8077500 0.9959819037715499 -0.08685864698267264
8125000 0.9958667779106393 -0.08733141819757019
8172500 0.9958949104156902 -0.08784249046795567
8220000 0.995856137421069 -0.08846289084436568
8267500 0.9957363880076157 -0.08891085408882907
8315000 0.9956812858472625 -0.08939620069159221
8362500 0.9956051655976109 -0.08988166960669249
8410000 0.995595257024643 -0.09038776292966884
8457500 0.9955385894222923 -0.09090093152892013
8505000 0.9955300384406044 -0.0914501376533787
8552500 0.9954528520841228 -0.09193116373895187
8600000 0.9954503551273943 -0.09235394245706965
8647500 0.9953734460800726 -0.09291140554480015
8695000 0.9954164407738157 -0.09346348335348145
8742500 0.9952964017396462 -0.09396163100413925
8790000 0.9951770227644634 -0.0945057951630278
8837500 0.995155593141089 -0.09500889607134513
8885000 0.9951193567004226 -0.0955174355776324
8932500 0.9951030852134093 -0.09597197175774892
8980000 0.9950484760488835 -0.09641853932000233
9027500 0.995086616112079 -0.09701320414728068
9075000 0.9950491351671205 -0.09757745708315269
9122500 0.9949017421894739 -0.09802959437061931
9170000 0.9947869548980858 -0.09841612422967842
9217500 0.9948416148949956 -0.0990144214795965
9265000 0.9948107744706762 -0.09948061409639053
9312500 0.9946829956955406 -0.10008287836937257
9360000 0.9946637593448541 -0.10054087042386314
9407500 0.9945366560884079 -0.10104255258708966
9455000 0.9945530431583123 -0.10154708670514034
9502500 0.9945132053940585 -0.10221817089407238
9550000 0.9943973351990999 -0.1026424255189558
9597500 0.9944567587110031 -0.10303102117195975
9645000 0.9943885817215994 -0.10356342365338288
9692500 0.994402208617797 -0.10400998964170566
9740000 0.994286261938425 -0.10462041814185856
9787500 0.9941806871290663 -0.10512431507840067
9835000 0.9941285746330646 -0.10555043893691879
9882500 0.9941331384764145 -0.10605195436252642
9930000 0.9939692225544234 -0.10668370732099305
9977500 0.9938708756236487 -0.10718467845974546
10025000 0.993893562456368 -0.10768071045769155
10072500 0.9938531856404694 -0.10810533553462495
10120000 0.9937767818338953 -0.10865058107336224
10167500 0.9938411337578524 -0.10912032970439839
10215000 0.9936719156943344 -0.10968173489114023
10262500 0.9936212841437737 -0.11025882097109364
10310000 0.993559377248604 -0.1106234954067699
10357500 0.993496150022765 -0.11113573351253789
10405000 0.9934577800208566 -0.11174688656063839
10452500 0.9933163637820941 -0.11225330191292986
10500000 0.9933086445737788 -0.11266099919515034
10547500 0.9933195906209694 -0.11315003719824333
10595000 0.9933323283362206 -0.11374722128915452
10642500 0.9931764028075482 -0.1142642045931859
10690000 0.9930058086218689 -0.11474159814537563
10737500 0.9930689040168474 -0.11508950251488498
10785000 0.9930447448086773 -0.11573979276310667
10832500 0.9928552136937752 -0.11639984183307728
10880000 0.9928399803081064 -0.1167569541567068
10927500 0.9927487152893746 -0.11717388623053931
10975000 0.9928558031271122 -0.11763076504437567
11022500 0.9927517147280039 -0.11832804470979957
11070000 0.992522460862483 -0.11885041148682138
11117500 0.992538011611648 -0.1191874873908269
11165000 0.9925367255966546 -0.11962466355266019
11212500 0.9925915921965446 -0.12031027256832003
11260000 0.9923857458507526 -0.12091747174118156
11307500 0.9922021818252517 -0.12130001443101167
11355000 0.9921646839520789 -0.12163895766996001
11402500 0.9922849298485801 -0.12224246053423214
11450000 0.9922291770827476 -0.1228173966915206
11497500 0.992034769155619 -0.12340679723835066
11545000 0.9919183757946061 -0.12376100279886058
11592500 0.9918928680632053 -0.1242118909665112
11640000 0.9920322110509818 -0.12481194919205027
11687500 0.9918119522443406 -0.12545562553928055
11735000 0.9917018172233193 -0.12593052252360257
11782500 0.9916406163470056 -0.12629006904299198
11830000 0.9916784879605136 -0.12679242017227885
11877500 0.9916796544344842 -0.12730408639358726
11925000 0.9914862860311522 -0.12795078002032978
11972500 0.9914038452081377 -0.12834485863441172
12020000 0.9912907470177061 -0.12874518819281083
12067500 0.9914483291085109 -0.12926792888080926
12115000 0.9913055182008844 -0.12987252343821354
12162500 0.9910727965122952 -0.13047030340576415
12210000 0.9909549943802899 -0.13076874339267658
12257500 0.9910607797916134 -0.1311863789387523
12305000 0.9909900597698619 -0.1319016499839515
12352500 0.9908976511196992 -0.13254947400954156
12400000 0.9907266150292791 -0.132982194591356
12447500 0.99065804602972 -0.13334074048157699
12495000 0.9907942605140825 -0.13385311257648458
12542500 0.9907322069421753 -0.13450254781558352
12590000 0.9905634976282022 -0.13507094453503288
12637500 0.9903644059568004 -0.13543617247668807
12685000 0.9904166550235951 -0.13577659018340757
12732500 0.9904799105308296 -0.13637725148660704
12780000 0.9903287676751513 -0.13716535937987345
12827500 0.990072972114708 -0.13742574590717027
12875000 0.990090394246878 -0.13775199155587947
12922500 0.9902110035342663 -0.1383851386527502
12970000 0.9901088063888736 -0.13909338604922122
13017500 0.9897941828549318 -0.1396727855236657
13065000 0.9896554453266276 -0.13992781246873168
13112500 0.9897614421982802 -0.14025710890102008
13160000 0.9898371662478482 -0.14089621523173607
13207500 0.9897270235001677 -0.14166334954318158
13255000 0.9894185794047025 -0.1420309105968116
13302500 0.9893229157434962 -0.1423234275611389
13350000 0.9894887176118701 -0.1428750921664373
13397500 0.9894586518997551 -0.14356628154341886
13445000 0.9892661830601043 -0.14412210415051444
13492500 0.9890059145884594 -0.14450587655921554
13540000 0.9891034865365215 -0.14483210465191113
13587500 0.9891399257597331 -0.1454391720078608
13635000 0.9890778015687054 -0.14610149588490123
13682500 0.9887791718782011 -0.14665372434885585
13730000 0.9886540348867386 -0.1469836725496982
13777500 0.9887884298513041 -0.14736678508664608
13825000 0.9887515081527156 -0.14801603199949048
13872500 0.9885645556350001 -0.14865770693532124
13920000 0.9884089457442023 -0.14913183841168104
13967500 0.9882828487422077 -0.1493258929287506
14015000 0.9884115329180405 -0.14991045777616455
14062500 0.9883083874851147 -0.15067134614028116
14110000 0.9881271847598931 -0.1511965998521325
14157500 0.9879934523325243 -0.15150738129355346
14205000 0.9880563040102089 -0.1518684854290422
14252500 0.9880617018013452 -0.15257571653898133
14300000 0.9879850026720691 -0.15326710610448294
14347500 0.9877236085189921 -0.15368146197309146
14395000 0.9875555710175621 -0.15395755190648508
14442500 0.9876485981489237 -0.154383974230583
14490000 0.987683154757137 -0.15508584571531375
14537500 0.9874982752179654 -0.15575285340275044
14585000 0.987321109924609 -0.15608248475507178
14632500 0.9872763655247202 -0.15646925490199848
14680000 0.9873817485016035 -0.15704298076817055
14727500 0.9872917740527682 -0.15774979535322756
14775000 0.9870604116845084 -0.15828484121820777
14822500 0.9868421262661111 -0.15855374323166405
14870000 0.9869603644462228 -0.15898696475279542
14917500 0.9869550993377948 -0.15961193035524973
14965000 0.9868228630272018 -0.16024328132978005
15012500 0.9864978978944174 -0.16069636239772908
15060000 0.9865318352481837 -0.16093840834087653
15107500 0.986624670050838 -0.16153165584576243
15155000 0.9865924466055079 -0.16220974664087542
15202500 0.9862992139432261 -0.162674677810407
15250000 0.9861119976009309 -0.16309192237130984
15297500 0.9861264359693289 -0.16344549554882562
15345000 0.9862256884717104 -0.1640853907232312
15392500 0.9860393327625107 -0.16468732050881704
15440000 0.9858347338421007 -0.16519486015313786
15487500 0.9857000273010945 -0.16552829560239277
15535000 0.985816872522508 -0.1659339116089904
15582500 0.9857574260239788 -0.166650745234793
15630000 0.9856702303099387 -0.16728289573409919
15677500 0.9852536804470323 -0.16764019308317965
15725000 0.9853309930552547 -0.16795447456870113
15772500 0.9854051004342347 -0.16858806342950106
15820000 0.9853500313030709 -0.1691639653108898
15867500 0.9851519994370519 -0.16977538570399014
15915000 0.9850183163575931 -0.1700658686190411
15962500 0.9849829811561498 -0.1704571764788882
16010000 0.9850089138361866 -0.17113042453942676
16057500 0.9847910369339571 -0.1717836548654949
16105000 0.9845942400656947 -0.1721866491474029
16152500 0.9845727818373868 -0.17248652165379127
16200000 0.9845893996467935 -0.17293774899543252
16247500 0.9845256586442209 -0.17367723263615642
16295000 0.9843473479451752 -0.17422308536742342
16342500 0.9841286392635297 -0.17459826756816013
16390000 0.9841663344099039 -0.17497358912939037
16437500 0.9841896380978583 -0.1755657920781156
16485000 0.984083909138807 -0.17618605062934548
16532500 0.9838098366950749 -0.176754161665007
16580000 0.9837112656142495 -0.17712652754477157
16627500 0.983724904405307 -0.17754347583818644
16675000 0.9837242738401869 -0.17816853738015506
16722500 0.9835252651731246 -0.1788331598639565
16770000 0.9833314021897388 -0.17922118088371414
16817500 0.9833516829865226 -0.17952302025059247
16865000 0.9833111018761748 -0.18015828951308457
16912500 0.9833374638728922 -0.18077631033995137
16960000 0.9829562164703257 -0.18131335459897766
17007500 0.9828797357874685 -0.1815938570525202
17055000 0.9828657652877356 -0.1820745029254608
17102500 0.982853287195109 -0.18262823980622597
17150000 0.9826717928303247 -0.183225564243006
17197500 0.9824605802183084 -0.18372133227655013
17245000 0.9824347875904139 -0.18413382802389353
17292500 0.9824704670633255 -0.1846095049370194
17340000 0.9823227188601993 -0.1852384847091248
17387500 0.9821967719653902 -0.1858714791525132
17435000 0.9820764646939715 -0.18610342086758697
17482500 0.9819858393440618 -0.1866199116912952
17530000 0.9820292847964297 -0.18716186740604904
17577500 0.9820270827717233 -0.18778003692214823
17625000 0.9816736889070339 -0.18829489301580135
17672500 0.9815707606382659 -0.18866552164515313
17720000 0.9815553381520045 -0.18904075331613177
17767500 0.981437520548289 -0.18966311705506386
17815000 0.9813662320475308 -0.19032283515389978
17862500 0.9811273983729362 -0.19071903346697267
17910000 0.9810419819193108 -0.1910482065224705
17957500 0.9811090940957473 -0.1915407931928357
18005000 0.9810562261683545 -0.19228475058556546
18052500 0.9807212890830282 -0.1928028403865577
18100000 0.9807341634236799 -0.19307370117433553
18147500 0.9807151942250082 -0.19356075544495288
18195000 0.980693860977357 -0.1942098706129499
18242500 0.9804378539682889 -0.1949263753057818
18290000 0.9801805381681081 -0.19515869195037955
18337500 0.9802174082947211 -0.19545970650469877
18385000 0.9802902608271007 -0.19601404836976047
18432500 0.9801544377829842 -0.19670836166600036
18480000 0.9798680951597623 -0.19738272339098326
18527500 0.97967958443813 -0.1976053092646721
18575000 0.9797178806018312 -0.1979831777943075
18622500 0.9798337022756602 -0.19860546151005812
18670000 0.9796174318231962 -0.19933971846628856
18717500 0.9793560119792751 -0.19970485208593372
18765000 0.9792334234983926 -0.19998246677147105
18812500 0.9792786486954076 -0.20050706926016118
18860000 0.9793161649054692 -0.20116445382847797
18907500 0.9790042259058569 -0.20174330448383462
18955000 0.9787145838474647 -0.20211085603462692
19002500 0.9788246871096505 -0.2024294044908284
19050000 0.9788448910643253 -0.20307398007701763
19097500 0.9786739363184851 -0.2037435657025145
19145000 0.9783719165872513 -0.20420331130857342
19192500 0.9782590476943598 -0.20452133092059202
19240000 0.9783474695550854 -0.20497333082869593
19287500 0.9783447769226881 -0.20556166904882803
19335000 0.9781316124558949 -0.20626512566627922
19382500 0.9778829819516609 -0.20654929855620668
19430000 0.977909828050131 -0.20694896779315994
19477500 0.9779182537965754 -0.2075415044387794
19525000 0.9777757203581318 -0.2081771190310993
19572500 0.9774549871246364 -0.2086796172127204
19620000 0.9772401145041693 -0.20909234970773996
19667500 0.9774221759228855 -0.20936562498154584
19715000 0.9773368603769353 -0.21005015916828598
19762500 0.9772210883191615 -0.2106111481853936
19810000 0.9768626055699627 -0.2111560189470049
19857500 0.9768615001680745 -0.21138002394447142
19905000 0.9769593789829908 -0.21196161984701561
19952500 0.9768132848363841 -0.21261976771502167
20000000 0.9763787526452272 -0.21274624765461397
