# HZ S RI R 50
1000000 -0.04566794021385975 0.5001914551533253
1172500 0.02377509406076245 0.549390882870501
1345000 0.09590560357739404 0.5844382734097386
1517500 0.16620303546134005 0.6093894307253199
1690000 0.23409020109615383 0.6248586903568725
1862500 0.29848493144249677 0.6322462356522722
2035000 0.35880367359796633 0.6336596582402533
2207500 0.41448421846932604 0.6294677621983887
2380000 0.465547202331745 0.6214307206749143
2552500 0.5124235019566066 0.6101851874791749
2725000 0.5549322213442677 0.5964283573144542
2897500 0.5937206997494735 0.5810264074884751
3070000 0.6290343389415939 0.5648328844546482
3242500 0.6607167005601438 0.5475327028098382
3415000 0.6896697174620392 0.529619317956584
3587500 0.7159083181180429 0.5117573975495168
3760000 0.7397041715289685 0.49348337599137854
3932500 0.7612548094078497 0.4756050491333445
4105000 0.7810971728813264 0.4577313191340918
4277500 0.7987301375063233 0.44018480626347
4450000 0.8150673999228027 0.4227668049567236
4622500 0.8298569835433979 0.40599241374048245
4795000 0.8433667653605185 0.3892703359750198
4967500 0.8561985213436724 0.3731852122528068
5140000 0.8672784330927289 0.3575126210764395
5312500 0.877560284830152 0.34203211572308617
5485000 0.8874209884821431 0.3268764333270159
5657500 0.8961452981666643 0.3126320627123658
5830000 0.904006331864749 0.29828655529552084
6002500 0.9116528967721773 0.2841711923638201
6175000 0.918678031722055 0.2709797243797958
6347500 0.9245497089541082 0.2579038640669992
6520000 0.9304901609286322 0.24461349971749996
6692500 0.9362062508456777 0.23234669945049763
6865000 0.9408534095445328 0.22037234523586932
7037500 0.9454178354012033 0.20807503931829263
7210000 0.9498707313055196 0.19655082466761675
7382500 0.9536146489171167 0.18554843511840993
7555000 0.957478957142588 0.17414927792644838
7727500 0.9607068569588194 0.1634732283228992
7900000 0.9634762790275228 0.15285189747658914
8072500 0.9665992829612384 0.1421589598247635
8245000 0.9692742724960672 0.13228006893075392
8417500 0.9713911287821041 0.12233478879358818
8590000 0.9736889322434027 0.11235448898600947
8762500 0.9759604515454589 0.10299921603604442
8935000 0.977726664002219 0.09380652973737205
9107500 0.9792833096533519 0.08431578611398362
9280000 0.9810948207798085 0.07535533954899182
9452500 0.9824121563995493 0.06655213253555564
9625000 0.983643270339404 0.05771233087251127
9797500 0.9849411462223826 0.049094390291626294
9970000 0.9859168047463978 0.04081208489799859
10142500 0.9866392714777513 0.03244266779994601
10315000 0.9877565699669296 0.02433586704415074
10487500 0.9884702363724843 0.016461920610173254
10660000 0.9888360583370898 0.008351846174298024
10832500 0.9896532864083079 0.0005514115478170337
11005000 0.9900836787284156 -0.007042044801046397
11177500 0.9902894040536807 -0.014719383717794512
11350000 0.990775996350853 -0.022401317291639616
11522500 0.9909913077446947 -0.029457063427782003
11695000 0.9909192950536516 -0.03685836421822446
11867500 0.9910706214677492 -0.044304010307457765
12040000 0.9912131184003423 -0.05125942978956949
12212500 0.9909563125468003 -0.05825696841517432
12385000 0.9909105846702527 -0.0653799005317358
12557500 0.9910421376784677 -0.07198885874920147
12730000 0.9906721689070676 -0.07862168345879846
12902500 0.9902795562957969 -0.08582718780031873
13075000 0.9901224936855894 -0.09236429854192192
13247500 0.9896575545567642 -0.09877437568325388
13420000 0.9890571106562497 -0.10555140578286669
13592500 0.9888753311582981 -0.11198126337112393
13765000 0.988176144363688 -0.11816652026276576
13937500 0.9874912604750243 -0.12477919948912533
14110000 0.987172885699681 -0.13094289167577658
14282500 0.986466604451969 -0.13689554957960676
14455000 0.9854980898995632 -0.14339677630312114
14627500 0.9850633478699921 -0.1495837357706124
14800000 0.9843321348228343 -0.1552792903986342
14972500 0.9831681441098946 -0.16141454981159306
15145000 0.9825473915873126 -0.1675520066033088
15317500 0.9816883172671518 -0.17316939788136315
15490000 0.9804962547124504 -0.17909745570092414
15662500 0.9796378633879104 -0.18513902668826346
15835000 0.9787434900237669 -0.19057242467660063
16007500 0.9775193573149884 -0.19616228806997835
16180000 0.9765740078946158 -0.20201188955999083
16352500 0.9757893211057675 -0.2075195355095643
16525000 0.9744476228669011 -0.21296668709890168
16697500 0.9733255555387453 -0.21874850712152447
16870000 0.9725300147361323 -0.22422727886392219
17042500 0.9711172499930718 -0.2295383897882613
17215000 0.969733951546466 -0.2351477979940514
17387500 0.9688345131522068 -0.24054123127057897
17560000 0.9675092349742848 -0.2457324027616995
17732500 0.9659344961471975 -0.2512365117302712
17905000 0.9648204810492185 -0.25661278595908493
18077500 0.9634860604912936 -0.26160448626017496
18250000 0.9618571267335213 -0.26690683705179274
18422500 0.9606470310118063 -0.2722261016615169
18595000 0.9592368644663201 -0.27724216305173294
18767500 0.9574024461873378 -0.2822969826893318
18940000 0.9561895481082078 -0.28772253156656724
19112500 0.9545911663474266 -0.29243812346040743
19285000 0.952855630701886 -0.2972538373945421
19457500 0.9514345217456155 -0.30250879731275
19630000 0.9500844875939856 -0.307324040738947
19802500 0.9483015660543498 -0.3121091002826319
19975000 0.9466544307299479 -0.3173232971524686
20147500 0.9453412055734997 -0.322204123453039
20320000 0.943555304298919 -0.32687699662462644
20492500 0.9416301159151891 -0.33206955980089586
20665000 0.9403573965170715 -0.3368571289216554
20837500 0.9386184432013288 -0.3412764669141641
21010000 0.9365876274512325 -0.34640793067220793
21182500 0.9351350035799211 -0.3512133419542919
21355000 0.933245505687674 -0.35563555564290633
21527500 0.9313111606059968 -0.3605141470026442
21700000 0.9295557059363558 -0.36540982987806364
21872500 0.9278246192841075 -0.36990646103696406
22045000 0.9256994411924531 -0.37443285693249384
22217500 0.9239556644071382 -0.37914630770011915
22390000 0.9222664957735853 -0.38352801901892086
22562500 0.9201074682465399 -0.3879524033895127
22735000 0.9181842648081836 -0.3926589126142486
22907500 0.9165076979049704 -0.3971689750204898
23080000 0.9142973361085887 -0.4014341705217093
23252500 0.912207284359019 -0.40611429054076054
23425000 0.9104487894810487 -0.4106016874923568
23597500 0.9082150697513085 -0.41479218145133145
23770000 0.9059855566552001 -0.4193716937177378
23942500 0.9042263049910284 -0.4238196694977483
24115000 0.9019758473181513 -0.42789728378104464
24287500 0.8996304655177002 -0.4325092150306851
24460000 0.8976517044731454 -0.4370786390344931
24632500 0.8955188456535532 -0.4409199681647933
24805000 0.8929245710773744 -0.4453467197584555
24977500 0.8910185888975821 -0.44979404257170247
25150000 0.8888174403989729 -0.4537585286215792
25322500 0.8861573122516745 -0.4579446609053063
25495000 0.8841529695355164 -0.46261276477382685
25667500 0.8820817562784347 -0.4663996560532426
25840000 0.8793957221805127 -0.4704073188999048
26012500 0.8770535786886448 -0.47486918323505883
26185000 0.8749704208577174 -0.47881586541064064
26357500 0.8723950463464923 -0.4825607139952873
26530000 0.8700168293169354 -0.4870897715486964
26702500 0.8681969524293279 -0.4911520378130854
26875000 0.8655907948288496 -0.49501683369493293
27047500 0.8629597287672571 -0.499415076028222
27220000 0.8610378705548939 -0.5034786889946927
27392500 0.858602553893624 -0.5072740642454956
27565000 0.8557816654747932 -0.5116522394946563
27737500 0.8537504575829419 -0.5157321049171103
27910000 0.851215854604166 -0.5194683283328915
28082500 0.8484248384754299 -0.5235585048918489
28255000 0.846108253223992 -0.527773334467291
28427500 0.8437214031482111 -0.5314638596310576
28600000 0.8407062105801939 -0.5353331787763165
28772500 0.8383677596430832 -0.5395399032446327
28945000 0.8360054453120488 -0.5432861996867521
29117500 0.832859332846344 -0.5470163221089593
29290000 0.8303601397884401 -0.5511373561475215
29462500 0.8280050718922697 -0.5548396843687856
29635000 0.8250698247002564 -0.5583703613381941
29807500 0.8222952607756683 -0.5625234809279622
29980000 0.8199153673993387 -0.5662806965173445
30152500 0.8169700341746188 -0.5697850373752001
30325000 0.8138951913551604 -0.5738406670678718
30497500 0.8113182289799651 -0.5776007353473994
30670000 0.8083266577300149 -0.5808951549641549
30842500 0.8051204696294993 -0.5847224290637978
31015000 0.8024435899472566 -0.5886370854513248
31187500 0.7994503772816609 -0.591767019365395
31360000 0.7963249902318236 -0.5948417052565392
31532500 0.7933157675726735 -0.5984807566509042
31705000 0.7911421535355958 -0.6016759708898921
31877500 0.7884390282818329 -0.6047871318794974
32050000 0.7856304092708138 -0.6087218692174239
32222500 0.7831983895756177 -0.6124899972538587
32395000 0.7804987899215445 -0.6158271919759348
32567500 0.7771444890876645 -0.6196486743547165
32740000 0.7744493527027737 -0.6234061151514945
32912500 0.7716357782927197 -0.626569415433629
33085000 0.768321085605439 -0.6303754469568724
33257500 0.7654153022094965 -0.6337942707525022
33430000 0.7622717786000022 -0.6372882120908244
33602500 0.759020501882114 -0.6409334017044179
33775000 0.7560911126040156 -0.6443363783803784
33947500 0.752860580000082 -0.6475582289666811
34120000 0.7493506648964369 -0.6511574390931487
34292500 0.7463994548588526 -0.6546083122853402
34465000 0.7431012611405199 -0.657778374028299
34637500 0.7397401224355529 -0.6613233517370987
34810000 0.7367049394706535 -0.6646803204416039
34982500 0.7334300489025314 -0.667794597178564
35155000 0.7298717096450975 -0.67109233273949
35327500 0.7267823225806557 -0.6744497822387128
35500000 0.7235293152739285 -0.67759050519913
35672500 0.7198629240899529 -0.6808888717134753
35845000 0.7166824289783018 -0.6841552500822364
36017500 0.7134292141960876 -0.6874240938830286
36190000 0.7098437643832216 -0.6903246600201183
36362500 0.7064805502937961 -0.6936722889345346
36535000 0.7033145104967445 -0.6967871387442484
36707500 0.6999393693388483 -0.6994521994275704
36880000 0.6966075424339566 -0.7025847947861925
37052500 0.6936243902178185 -0.705473610820049
37225000 0.6902307979569077 -0.7080422978108697
37397500 0.6869442145181852 -0.711363550985235
37570000 0.6837646740663688 -0.7142606933580747
37742500 0.6803489671307733 -0.7170763705972761
37915000 0.676648430042952 -0.7201707976147609
38087500 0.6733473718855882 -0.7233548908957852
38260000 0.6697617069740471 -0.7261032004411864
38432500 0.6659810570776944 -0.7292938944977414
38605000 0.6624410890063139 -0.7325304305116612
38777500 0.6590216897378823 -0.7351702491251354
38950000 0.6550613654610414 -0.7381856722045718
39122500 0.6514401607271846 -0.7413741110338923
39295000 0.6479174339433268 -0.7440921193912209
39467500 0.6438965023227333 -0.7470182385454598
39640000 0.640041854704022 -0.7498730727867834
39812500 0.6364132597095966 -0.7527721786814595
39985000 0.6324524334402595 -0.7555124993672465
40157500 0.6284328560915345 -0.7584390387816923
40330000 0.6245130836191664 -0.7610166386091393
40502500 0.6205960935030971 -0.7637522027461737
40675000 0.6164520477932177 -0.7662661715007426
40847500 0.6125512367593369 -0.7689914222144373
41020000 0.6082705725980551 -0.771371023578307
41192500 0.6042208370891337 -0.7736107349526784
41365000 0.6003306605742071 -0.7759589546696739
41537500 0.5963132259448501 -0.7782177497630764
41710000 0.5924422562664782 -0.7801291925801729
41882500 0.5890810335089763 -0.7823108568865862
42055000 0.5855084307238082 -0.7843268229461116
42227500 0.5819408629878671 -0.7864335577752566
42400000 0.5787651736831377 -0.7890293726651474
42572500 0.5754463416589878 -0.7914553913171188
42745000 0.5720870421332532 -0.7941641271121811
42917500 0.5686562499607729 -0.7970141613683994
43090000 0.5651484108915084 -0.7997078311829688
43262500 0.5611668426603647 -0.8024426272424804
43435000 0.5572459797291097 -0.8055242202603807
43607500 0.5533807676282512 -0.8083441189781877
43780000 0.5492367509754156 -0.8110369659672628
43952500 0.5450832711567989 -0.8138509782063862
44125000 0.540997684251637 -0.816616364778818
44297500 0.5365598478839547 -0.8189957565608853
44470000 0.5322248099733156 -0.8216545415533193
44642500 0.5278854838970103 -0.824242405588896
44815000 0.5234623254524403 -0.8266786939818265
44987500 0.5187757673607849 -0.8290155322896694
45160000 0.5144104031201399 -0.8314266972504433
45332500 0.5099036828760685 -0.8337728349952384
45505000 0.5052063339837094 -0.8360884896860221
45677500 0.5004865338663149 -0.8383210978853668
45850000 0.4957845400088468 -0.8403160774507205
46022500 0.49075151880394785 -0.8423928672462813
46195000 0.48580882590413305 -0.8444737699347589
46367500 0.4810847937081519 -0.8459822841725086
46540000 0.47624418117127 -0.8470306579540114
46712500 0.47244557799363196 -0.8486944854137667
46885000 0.46855628433028157 -0.8510324581303993
47057500 0.4638690920151742 -0.8537551960021341
47230000 0.45880066338422437 -0.8559565042218965
47402500 0.45376412399957844 -0.8580146878446886
47575000 0.4484784115048005 -0.8598817239085436
47747500 0.4430276735437893 -0.8618214029182127
47920000 0.438091013262903 -0.8637432614525602
48092500 0.43261642889198626 -0.8653209025461022
48265000 0.42723889042497853 -0.8671114663882181
48437500 0.422018712071296 -0.8687678043182356
48610000 0.4165075683685077 -0.8700387609656032
48782500 0.4106810682622055 -0.8714679229464998
48955000 0.40534754612328766 -0.872929713580615
49127500 0.39968972897001 -0.8741229377920187
49300000 0.39374447155009573 -0.8754079803276045
49472500 0.3880671521944261 -0.8766372243401747
49645000 0.38218241353202775 -0.8775969335314608
49817500 0.3757166620192848 -0.8784021091566547
49990000 0.36966842672618505 -0.8793209114863658
50162500 0.3635508089154419 -0.8796546609244142
50335000 0.3566392757961731 -0.8797598608687783
50507500 0.35008188929239237 -0.8801309703410907
50680000 0.343542501845445 -0.8793830637789093
50852500 0.3365783757826384 -0.8787550440926218
51025000 0.3298817464896278 -0.8777591911727477
51197500 0.3234536269846707 -0.8760144016906259
51370000 0.3175079736047476 -0.8731836665904877
51542500 0.3118931495638757 -0.8702018861266417
51715000 0.3077478622873049 -0.8671919881736635
51887500 0.3049207781332747 -0.8636866582874524
52060000 0.30303921510224335 -0.8615950917024329
52232500 0.30154851108079334 -0.861698657296104
52405000 0.2996412368224658 -0.8626732093017548
52577500 0.29593567139238486 -0.8645863017752469
52750000 0.29108881261562214 -0.8670326590750521
52922500 0.285515091589413 -0.8687022621390496
53095000 0.27901793563250515 -0.8690145844690719
53267500 0.2718885836511067 -0.8695394467153428
53440000 0.2654959585689303 -0.8691359143089069
53612500 0.2586928170982174 -0.8680833251234306
53785000 0.25159683260108545 -0.8669528137376872
53957500 0.24455477823674943 -0.8655136522637692
54130000 0.2378734000340078 -0.8635704878627427
54302500 0.23081814344946602 -0.8609555327382366
54475000 0.22352550776596034 -0.8582773075780562
54647500 0.21619512224892104 -0.8552964425895979
54820000 0.20854129137117364 -0.8508415205501123
54992500 0.20049804405947974 -0.8453689636063116
55165000 0.19344723163295363 -0.8387442606222109
55337500 0.18734052505156254 -0.830509151794604
55510000 0.18220344257360682 -0.8209348380766455
55682500 0.17919886300990354 -0.8112458541978473
55855000 0.17822342966372265 -0.8003369573055497
56027500 0.17883689780938236 -0.7895400921943663
56200000 0.1821274796152961 -0.7797068407330296
56372500 0.188561785781143 -0.7711196883333769
56545000 0.19649041991212274 -0.7642009336828877
56717500 0.2057395492539762 -0.7606769153231007
56890000 0.21602938070068578 -0.7604809158015359
57062500 0.2253468029960026 -0.7632017944947564
57235000 0.2327741852602574 -0.7692545127050124
57407500 0.23838002973214803 -0.777162571090005
57580000 0.24074144526852978 -0.7862217970405694
57752500 0.24054401099989942 -0.7959982429107183
57925000 0.2381714275278637 -0.8053937017417607
58097500 0.23369338614446025 -0.8139625604039947
58270000 0.2268101600857701 -0.8215262599577506
58442500 0.21880820294308037 -0.8281522813032219
58615000 0.21016539658523664 -0.8331456985051877
58787500 0.2001109379268657 -0.8367309113136678
58960000 0.18974829231366017 -0.839766399197116
59132500 0.1791438782338324 -0.8413744079597548
59305000 0.16761231852964528 -0.8415475738626463
59477500 0.1550383935926155 -0.8407957129526765
59650000 0.14280488472165168 -0.8388585679359889
59822500 0.12970603179260817 -0.8345177862159076
59995000 0.11624986240373071 -0.8286657916224575
60167500 0.10345728212797403 -0.8211251151202227
60340000 0.09089737997514578 -0.8113639750042198
60512500 0.0782798763158361 -0.7996692013949301
60685000 0.06670251233608841 -0.7859290358355199
60857500 0.055819486301684734 -0.7688084998846263
61030000 0.04654901792813568 -0.7488698320433692
61202500 0.039971350915429 -0.7260972603011151
61375000 0.03731626783005822 -0.6995009979309886
61547500 0.039417415992542754 -0.6700343832213486
61720000 0.048241458854262745 -0.6401354461591467
61892500 0.06530494982856679 -0.6099598562287261
62065000 0.08956624117281822 -0.5819558224039779
62237500 0.12222400994640392 -0.5589513222987936
62410000 0.15995260477760545 -0.5466965403449865
62582500 0.20123067002430992 -0.5429654872743509
62755000 0.2406725359060201 -0.5499339488861642
62927500 0.27686144570174076 -0.56553387378986
63100000 0.3058636489053262 -0.587462842636345
63272500 0.32808231623777245 -0.6130017209207509
63445000 0.3438967500901478 -0.6401553364508745
63617500 0.35498627114187375 -0.6672577519709438
63790000 0.35949324411358957 -0.6921883509339293
63962500 0.36157898357407736 -0.7162597431440667
64135000 0.36116729330018876 -0.7386634696665869
64307500 0.3583680247632541 -0.7591954002925589
64480000 0.353126660321927 -0.7781234914769067
64652500 0.34715484602746305 -0.7956405327430074
64825000 0.3399492369967435 -0.8107642278364859
64997500 0.33156195001475475 -0.8252259257482599
65170000 0.3231398152731413 -0.8373851189677209
65342500 0.314554733536313 -0.8478809180284455
65515000 0.30518372654739123 -0.8577125736286978
65687500 0.29654298675690005 -0.8670520923431179
65860000 0.28788850516311476 -0.8742934428316197
66032500 0.2791143267169359 -0.8812565018435067
66205000 0.27062784752459795 -0.8884816670737176
66377500 0.2626492240678385 -0.8944483284598109
66550000 0.2539345379024339 -0.8997333011801165
66722500 0.24561358724470406 -0.9052932939366074
66895000 0.23762362690260225 -0.9099853072407394
67067500 0.2293685637757356 -0.9142535805289863
67240000 0.22094814638558563 -0.918270856260615
67412500 0.21333704825964026 -0.9220033757505933
67585000 0.2056765860755156 -0.9249614712901789
67757500 0.1973303224607276 -0.9282896865265309
67930000 0.1899187539330473 -0.9310437597518408
68102500 0.18256126109451726 -0.9330231143519964
68275000 0.17470037444390377 -0.9354055839663166
68447500 0.1676916780390155 -0.9378946179427148
68620000 0.1607464361739722 -0.9394611009611991
68792500 0.15325702452782666 -0.9408990313520191
68965000 0.14628206957366852 -0.9427430855327289
69137500 0.13974747902245402 -0.943911908674504
69310000 0.1325966086527187 -0.945099360907008
69482500 0.12597615114474653 -0.9464123337388887
69655000 0.11960060509696203 -0.9472444928408693
69827500 0.1129614392329088 -0.947624971280687
70000000 0.10689374933244501 -0.9486160632047532
