# HZ S RI R 50
1000000 0.5332521353273147 0.07284929773697339
1047500 0.5328688754852975 0.07685423045635534
1095000 0.5330647330310759 0.08062057058154709
1142500 0.5331524327855126 0.08423296672451865
1190000 0.5334561561338127 0.08801424825616948
1237500 0.5347849459696395 0.09124798846954087
1285000 0.5356491722142046 0.095014598104099
1332500 0.5382287745230762 0.09760756587627817
1380000 0.5390301867713011 0.10110786293290858
1427500 0.5409819438407628 0.10409297359420368
1475000 0.5419592896376593 0.10780782642370071
1522500 0.5429928471996873 0.11115951290527151
1570000 0.5453118875184629 0.11377253205274987
1617500 0.5476415278205811 0.11663291185816453
1665000 0.5499961684056479 0.11931686664345315
1712500 0.5506892800069378 0.12320960439034369
1760000 0.5530548620923812 0.12590427611424032
1807500 0.5555172906051654 0.12850693676542885
1855000 0.5578298751143252 0.1313246174923026
1902500 0.561078213901787 0.13303923751659955
1950000 0.5626423628574988 0.1364596724049676
1997500 0.5651333913089577 0.13898744900514817
2045000 0.5685626581923279 0.14070916232629058
2092500 0.5718339861179668 0.14251554602441663
2140000 0.5732927047818616 0.14580543799329668
2187500 0.5763913430657791 0.14781419247008193
2235000 0.5783469725228872 0.1504903610617024
2282500 0.5807690620001645 0.15296904924615862
2330000 0.5831523203914644 0.1556672710835411
2377500 0.5868111180373068 0.15692269179524576
2425000 0.5895218173052844 0.15886049962388205
2472500 0.5912055422695378 0.16208673118781064
2520000 0.5945096104718921 0.16354249650905556
2567500 0.5968240110374213 0.16627328768196742
2615000 0.598795561242947 0.1691220080626023
2662500 0.6028176687228358 0.16964602212868818
2710000 0.6050274249028673 0.17233445175781378
2757500 0.6077188139399097 0.17464091187427286
2805000 0.6103100220984594 0.1767855958198268
2852500 0.6135734701526524 0.17783882276097746
2900000 0.6166398056183693 0.17948189868053882
2947500 0.619161519445063 0.18173349430724436
2995000 0.6222818582837774 0.1829477655734112
3042500 0.6251488711478725 0.18481622677454446
3090000 0.6280578556632617 0.18654575917816546
3137500 0.631728396149203 0.1868868422608925
3185000 0.6343417368846799 0.18894263595605204
3232500 0.6375071189554669 0.1898664084844107
3280000 0.6408507265843766 0.19088256274990756
3327500 0.6436772934950045 0.19217633583306276
3375000 0.6469614981592358 0.1926612151725526
3422500 0.6500425892656333 0.1943858248773003
3470000 0.6528671471518989 0.1957146050918761
3517500 0.6559394760237495 0.196680684273724
3565000 0.6593860318807232 0.19693403460070918
3612500 0.6623235045257833 0.19821483223591913
3660000 0.66533688795595 0.19945128796678668
3707500 0.6683466615035497 0.20058589622835604
3755000 0.6715141278009708 0.2011985258600352
3802500 0.6748521734636969 0.20145828436826377
3850000 0.6778038598072346 0.20213407793141525
3897500 0.6809130577485214 0.20282766689760082
3945000 0.6841308468393347 0.20280763568344579
3992500 0.6872349809443598 0.20313239482576373
4040000 0.6901216764409991 0.20446610078857705
4087500 0.693127671496633 0.20495406430714766
4135000 0.6961789834392766 0.2062833738005718
4182500 0.6992795931828999 0.2068580974397023
4230000 0.7022755722101864 0.20742731154635438
4277500 0.7054642824501467 0.20652868376776826
4325000 0.7086338152217733 0.20668836162092574
4372500 0.7117696875783828 0.20651103429661724
4420000 0.714666115901497 0.20638276780237888
4467500 0.7175139724842027 0.20725304805062347
4515000 0.7207212487398907 0.20750800890492005
4562500 0.7238279440196151 0.20686145827680552
4610000 0.7266669388992777 0.20642698343611618
4657500 0.7296781093516392 0.2064228261381212
4705000 0.732660491916039 0.20562729556712356
4752500 0.7355662744140858 0.20649619963877885
4800000 0.7385759789878052 0.20563879841395521
4847500 0.7414600457217917 0.2054938899183712
4895000 0.7444506538195396 0.20456937593154642
4942500 0.7472213698332628 0.2046613470716283
4990000 0.75002803146198 0.20452190277460308
5037500 0.7529402506455947 0.2033281945129639
5085000 0.7557203421522348 0.20293351636617785
5132500 0.7584040748564403 0.20236462813608394
5180000 0.760954314121925 0.20175549566567774
5227500 0.7638871294935793 0.20120987873934004
5275000 0.7666894661731263 0.2010765509477801
5322500 0.7693723028369813 0.20059402937770807
5370000 0.7721656672163489 0.2005442206121348
5417500 0.7748833068844286 0.19934646998506428
5465000 0.777691321080686 0.19868298103530221
5512500 0.7801783247295804 0.19737321499261948
5560000 0.7828445681407377 0.19671763612280746
5607500 0.7855284454370955 0.19633496993948643
5655000 0.7879333074607219 0.19564854305533452
5702500 0.790626510737469 0.19474922801588826
5750000 0.7931476493326541 0.1939871967157538
5797500 0.7954581303256125 0.19287858678365427
5845000 0.7980751444330497 0.19257917168144836
5892500 0.8006320586902629 0.1911041427838607
5940000 0.8030070785814885 0.19008849342956427
5987500 0.8051582629342288 0.18874107619510663
6035000 0.807639168697857 0.1881776369010945
6082500 0.8101299391215256 0.18669265584301692
6130000 0.8124726702786217 0.18581248665119285
6177500 0.8146631649579497 0.18470880035517195
6225000 0.8171228938723374 0.18395320275194382
6272500 0.8193963522226945 0.18271892346498134
6320000 0.8215696551280551 0.1813021657278904
6367500 0.823706921596668 0.17990465670006
6415000 0.8260771930679686 0.17909670398490715
6462500 0.828258362534676 0.17798528156909674
6510000 0.8304735592153974 0.17680331947493277
6557500 0.8328021415475959 0.1758028248671777
6605000 0.8347689869498675 0.17438193078585013
6652500 0.8369993263893342 0.17314050523661903
6700000 0.8391949883145604 0.17201671142433375
6747500 0.84123933239295 0.17063247242299537
6795000 0.8430811520922762 0.16896272691185726
6842500 0.8449581592186839 0.16780751907793465
6890000 0.847094374728877 0.1666742542023727
6937500 0.849014853427655 0.16487214215518756
6985000 0.8508020693831395 0.16318739698234322
7032500 0.8525600674238554 0.16205951417041423
7080000 0.8545750921104617 0.160646273323835
7127500 0.8564279559923056 0.15928207898366512
7175000 0.8583687493180343 0.1579950798754638
7222500 0.8601102947882205 0.15636122740064093
7270000 0.8619270213752681 0.15496525236989017
7317500 0.8635738153036759 0.15339458150894392
7365000 0.8655052672636855 0.15229773809478858
7412500 0.8672341001995215 0.1504595102329508
7460000 0.8688926031553689 0.14910344220063645
7507500 0.8705162120001118 0.1476722214249857
7555000 0.8724732510503997 0.1465314973390666
7602500 0.8740719562612881 0.14461498660260527
7650000 0.8756550330633818 0.1430290737375693
7697500 0.877142941696457 0.141494775906498
7745000 0.8788803925977317 0.14025325458795979
7792500 0.8808108623607273 0.138865735761761
7840000 0.8822749321026246 0.13735726937323994
7887500 0.8838292646266563 0.13597446771612312
7935000 0.8854025567991031 0.13425218044928414
7982500 0.8867645567572274 0.13252074984872766
8030000 0.8884008342595465 0.1310020608901471
8077500 0.8897976187735868 0.12932407278536914
8125000 0.8911610359903076 0.12762266077030776
8172500 0.8927464454862463 0.12659173116645223
8220000 0.8942665967292129 0.12495390556325958
8267500 0.8956367878621586 0.12315248922318853
8315000 0.8967355662986997 0.12133488191747666
8362500 0.8979986618694489 0.11999293954280237
8410000 0.8994291866779943 0.11853555348921294
8457500 0.9008675562270273 0.11672153368089185
8505000 0.9020585845353106 0.11491434211622552
8552500 0.9032674847885054 0.11347667294736641
8600000 0.9046889676582017 0.11191760895108063
8647500 0.9059240979647264 0.11027785184587514
8695000 0.907189349725395 0.108678893525269
8742500 0.9086207146283904 0.10717393387882113
8790000 0.9097580141724734 0.10545740360322464
8837500 0.9107907330846915 0.10382519732168759
8885000 0.9119768302863793 0.10222462125263256
8932500 0.913346603278246 0.10064239972865367
8980000 0.9143879721088568 0.09892665707295346
9027500 0.9153820780306987 0.09749028565466053
9075000 0.9165725732090445 0.09588255230602956
9122500 0.9177805578669804 0.09417256551918063
9170000 0.9188943579958193 0.09240868984326092
9217500 0.9197181260702825 0.09084817604477527
9265000 0.9208084138216289 0.08930928267287626
9312500 0.9219343253824652 0.08758134173823602
9360000 0.9228484502057162 0.08593441363605328
9407500 0.9238749010253894 0.08435965048650843
9455000 0.9248432210719089 0.08274603814679599
9502500 0.9258284579039752 0.0810664221241187
9550000 0.9267646458192732 0.07941007832533735
9597500 0.9278461548928939 0.07781940396079093
9645000 0.928675819981117 0.07602802265351974
9692500 0.9294519539402484 0.07452964366003305
9740000 0.9305102518052681 0.07310782117640585
9787500 0.931549085625295 0.07127640122792618
9835000 0.9324413815869566 0.06955466628299058
9882500 0.9330494261467379 0.0680250462403358
9930000 0.9341356033228605 0.0665578879090308
9977500 0.9350618368276011 0.06481580238363897
10025000 0.9358915829449257 0.06302277349182235
10072500 0.9366820209518739 0.061549835014568705
10120000 0.937602241050082 0.05994753902665262
10167500 0.9384936329515651 0.05830972158823333
10215000 0.9392727483804292 0.05662344222148095
10262500 0.9402471889139695 0.05521460960673057
10310000 0.9410504227625912 0.053404477192171784
10357500 0.9416606291713704 0.051760957054302136
10405000 0.9424843095433141 0.050341290084869525
10452500 0.9433609735152148 0.04872374917775479
10500000 0.9441478448462914 0.04689815954670547
10547500 0.9446822874783494 0.04534145437236016
10595000 0.9453502637489433 0.044005713721969326
10642500 0.9461147632933677 0.042190579035819714
10690000 0.9468322675317187 0.04043566909410955
10737500 0.9472804944144382 0.03888706192604981
10785000 0.9479668242406987 0.03752800845981689
10832500 0.9487630630191276 0.03581132149773195
10880000 0.9493266286308967 0.034020700780456575
10927500 0.9499118269721543 0.03237808791737907
10975000 0.9504961993237492 0.030878812132506372
11022500 0.9511358378950283 0.029366567814693406
11070000 0.9517209513812377 0.027727900170251004
11117500 0.9522668000314305 0.026189100754163242
11165000 0.9530416996468993 0.024537989786753527
11212500 0.9535167257222932 0.02292999850364399
11260000 0.953992503048697 0.0214025941067752
11307500 0.9546301211214946 0.01990209382025902
11355000 0.9553008907016546 0.018055357866061876
11402500 0.9555944297278332 0.016434318749850078
11450000 0.955974802673752 0.015202884517757748
11497500 0.9567103449344323 0.013691316786630936
11545000 0.9574124177719565 0.01184178297300597
11592500 0.9577259998145944 0.010110992454368315
11640000 0.9580944130499427 0.008776152514934183
11687500 0.9587545241620314 0.0072555532776404
11735000 0.9592363678914362 0.00559446571974877
11782500 0.9596328524797189 0.0039404339906372165
11830000 0.9600835849791852 0.002450656189573376
11877500 0.9605498038400927 0.0008712101942337288
11925000 0.9608953166861309 -0.0006831518308420366
11972500 0.9615031423134072 -0.0020923628704041285
12020000 0.9619304746502062 -0.003832970318110133
12067500 0.9622311414001227 -0.00539982493883536
12115000 0.9625010530885973 -0.006835869442112215
12162500 0.9631146591861123 -0.008169886190701386
12210000 0.963654900877634 -0.009898343846286437
12257500 0.9638691622889912 -0.011598438223913982
12305000 0.964104897984692 -0.013019100024373412
12352500 0.9645678116153263 -0.014304056371339595
12400000 0.9651383712222283 -0.01602761443801191
12447500 0.9653595203547037 -0.01781060893491563
12495000 0.9655626548158678 -0.019063573500618318
12542500 0.9661021278466814 -0.020421296813455284
12590000 0.9666154358921072 -0.022095501388939683
12637500 0.9668657038255041 -0.02370457766921659
12685000 0.9669972895791706 -0.02523054917894217
12732500 0.9674790954771031 -0.02668431132524622
12780000 0.967738623233035 -0.028211406337699085
12827500 0.9680149772573181 -0.029703597962866708
12875000 0.9683820917532573 -0.03118020941352124
12922500 0.9688285875820155 -0.032726592304087795
12970000 0.9688890434447891 -0.034118009523275934
13017500 0.9692644401645808 -0.03559980822424187
13065000 0.9697052654888468 -0.03718603450541584
13112500 0.969924107049634 -0.03890175058278
13160000 0.9699959309265371 -0.04025908459028798
13207500 0.9702147190360664 -0.04150492005086483
13255000 0.9706640716496002 -0.043024665504582706
13302500 0.97090254486963 -0.044745467093758234
13350000 0.9709714545413848 -0.046273333968274016
13397500 0.9710579533085969 -0.047417127054503086
13445000 0.9716166452672904 -0.04889959261632734
13492500 0.9718522577469704 -0.050583034727226014
13540000 0.9718390415662246 -0.05213708924229555
13587500 0.9720569867328428 -0.053363654616180915
13635000 0.9723762637588059 -0.05479439012413713
13682500 0.9726399255129791 -0.05638395351832348
13730000 0.9727029026508011 -0.057823807061274345
13777500 0.9729609806450003 -0.0593668313500504
13825000 0.9731316946010842 -0.06075669300366986
13872500 0.9732568657031342 -0.062195529224075424
13920000 0.9735113430672032 -0.06346311299179905
13967500 0.9737844176223761 -0.06508871890869708
14015000 0.9737905457769345 -0.0666947007145747
14062500 0.9738089135434749 -0.067975238176072
14110000 0.9741112308274397 -0.0692235903822443
14157500 0.9743046296506734 -0.07077170771481275
14205000 0.9743865415620874 -0.0724009070647369
14252500 0.9744026082833541 -0.07357577529833433
14300000 0.9747051539670804 -0.07485345116371783
14347500 0.9751114419633459 -0.07648985072627283
14395000 0.9751168669864122 -0.07813140974996881
14442500 0.9750497610509156 -0.07943849296081781
14490000 0.97521573655177 -0.08064346755338507
14537500 0.9754457956530586 -0.0821847512813675
14585000 0.9755750566182444 -0.08365155696724222
14632500 0.9756258678866561 -0.08512472932167876
14680000 0.975768483499621 -0.08631936555379108
14727500 0.9758640228557955 -0.08783553745997637
14775000 0.9760095223199515 -0.08921377024688201
14822500 0.9759749692237912 -0.09061100639314348
14870000 0.9761261526465425 -0.09216650764680867
14917500 0.9760071295149518 -0.09348801525448808
14965000 0.9759728558991302 -0.09475359025970741
15012500 0.9762559846873807 -0.09601947004080855
15060000 0.9764183052914048 -0.09776135935252168
15107500 0.9763273076170419 -0.09904692630569145
15155000 0.9763896973516994 -0.1003462644748225
15202500 0.976610694117084 -0.1016598779113078
15250000 0.9766861218219136 -0.10325046185807453
15297500 0.9764366010569604 -0.10474372252903086
15345000 0.9764276513222155 -0.10575369136443517
15392500 0.9766869841486183 -0.10702833540707812
15440000 0.9768573922011163 -0.10867512785665875
15487500 0.9766840558096288 -0.11009309925211036
15535000 0.9765822101659649 -0.1113434522251244
15582500 0.9767933964624885 -0.11251136203594837
15630000 0.9769351966102016 -0.11404934639730156
15677500 0.9768894144007934 -0.115505619375131
15725000 0.9765899202713844 -0.11677571397621549
15772500 0.976735443093501 -0.11795330559032703
15820000 0.9768143062793857 -0.1194184817891355
15867500 0.9767996535616926 -0.12070511881820509
15915000 0.9768223620351113 -0.12211363738370348
15962500 0.976715796989851 -0.12351325435048904
16010000 0.9766330403720244 -0.12477089816879701
16057500 0.9766904642730866 -0.12594104345119478
16105000 0.9768686023060954 -0.127406867032745
16152500 0.9766933240793656 -0.12893521517627812
16200000 0.9765383029675399 -0.13018785757317933
16247500 0.9765869807980373 -0.13122643594604894
16295000 0.9767764215425091 -0.13266978442442176
16342500 0.9765770568535168 -0.13419594607469418
16390000 0.9763098209465533 -0.1353613418803834
16437500 0.9765177037557222 -0.1364676582246767
16485000 0.9766019964047628 -0.13798897276374572
16532500 0.9765166902830976 -0.13938834847009093
16580000 0.9764007026239283 -0.14064711275658026
16627500 0.9762402488697703 -0.14194392447876794
16675000 0.9762941470576253 -0.14325838972041027
16722500 0.9761899636197892 -0.14458474860036064
16770000 0.9761819397011468 -0.14578415288062513
16817500 0.9760342771872517 -0.14709323011679845
16865000 0.9760730400972285 -0.14841369625816805
16912500 0.9759569722887329 -0.1496885947961659
16960000 0.9760653942831573 -0.15107110865127704
17007500 0.9758129278447791 -0.15254201008783178
17055000 0.9755443293923818 -0.15369941555996045
17102500 0.9755435388529861 -0.15473934951868484
17150000 0.9756049239321429 -0.15612558066449633
17197500 0.975433512774394 -0.15766033955804623
17245000 0.9751520038096351 -0.15889941882319028
17292500 0.9751856293292445 -0.15991554580244316
17340000 0.975210418072956 -0.16136119297959478
17387500 0.975092594169804 -0.16274894425375397
17435000 0.9747458250146657 -0.16394601712474677
17482500 0.974709082726332 -0.16511157718157213
17530000 0.9747373429988792 -0.16630158662861974
17577500 0.9746307272059426 -0.1676447037697299
17625000 0.9744511173280608 -0.16907213182225897
17672500 0.9743714749884728 -0.17022032575292154
17720000 0.9740551966857994 -0.17150435820236953
17767500 0.973998022081133 -0.17266265592295538
17815000 0.9740106880051678 -0.1738956489647764
17862500 0.9739300553543383 -0.17523008526697972
17910000 0.973602649135492 -0.1767205696353844
17957500 0.9734295213465348 -0.17765431597607628
18005000 0.9734065974377878 -0.1788082727810065
18052500 0.9733904871468876 -0.1803183196438816
18100000 0.9729947302540286 -0.18156950738504746
18147500 0.972693714519389 -0.18254370009956192
18195000 0.9727786777129886 -0.18364173109937743
18242500 0.9727045451730321 -0.18513237551400324
18290000 0.9724235791833844 -0.18651824992981433
18337500 0.9721647449736547 -0.18756528650882817
18385000 0.9720073020969281 -0.1887449262156862
18432500 0.9719192675798627 -0.18991701815591525
18480000 0.9717253925320022 -0.19124047012132406
18527500 0.971614381818396 -0.1922940892102764
18575000 0.971353402724353 -0.19355925120603448
18622500 0.9712249827547927 -0.19474560334220872
18670000 0.9711317401460098 -0.19588647073538096
18717500 0.9710567075299975 -0.19717840577604306
18765000 0.970740310473729 -0.19866792704410866
18812500 0.9704168372073373 -0.19957077372711893
18860000 0.9703407492594175 -0.20063310279848767
18907500 0.9703362704921092 -0.20198834740883626
18955000 0.97001868435164 -0.2034439307574104
19002500 0.9696531828450028 -0.20447073510115946
19050000 0.9695691465878596 -0.2054960196111585
19097500 0.9696339434148088 -0.20680790079013497
19145000 0.9693516511645484 -0.20827400440128302
19192500 0.9690161977285384 -0.2093694285859168
19240000 0.9686768726697985 -0.21024628769628814
19287500 0.9686850809741802 -0.21153073786995236
19335000 0.9685009268812745 -0.21285376657661786
19382500 0.968191173583 -0.21412722895280542
19430000 0.9679162988238661 -0.2151465143700418
19477500 0.9677957137281699 -0.21642661870011223
19525000 0.9676993745492126 -0.21768028018134888
19572500 0.967344906675135 -0.21880642551449717
19620000 0.9671574692451967 -0.21998232269638746
19667500 0.9668925586820853 -0.22113265476788058
19715000 0.9666824787908184 -0.2223113837667334
19762500 0.9665769535833881 -0.2233914802302712
19810000 0.9662616625168533 -0.22472525206923227
19857500 0.965937233872719 -0.2259700307562853
19905000 0.9656326056250418 -0.2268892816443539
19952500 0.9656041761456553 -0.22797979460238305
20000000 0.9655277557590017 -0.22942858608851077
