# HZ S RI R 50
1000000 0.1479441849702048 0.30990025470956867 0.8288592255790902 -0.39739308453060607 0 0 0 0
1047500 0.16063135725223637 0.31941507478910636 0.8152755536576544 -0.4097244433635931 0 0 0 0
1095000 0.17373694292819666 0.32838013685449896 0.8013626896377046 -0.421590609257485 0 0 0 0
1142500 0.187039030722565 0.3367811561407636 0.7873020407379805 -0.43263300907998264 0 0 0 0
1190000 0.2005416656962933 0.34450745242563424 0.7731532062711078 -0.4431078263499445 0 0 0 0
1237500 0.21416661217618724 0.351590263869599 0.75887314932248 -0.45296648758945035 0 0 0 0
1285000 0.22782893360954157 0.35820606615982864 0.744496162149831 -0.46225063243698655 0 0 0 0
1332500 0.24168142897748257 0.3643259242052599 0.7301422749866595 -0.47090022921474867 0 0 0 0
1380000 0.2556397331368058 0.3698822094230192 0.7158922213253459 -0.47893012476766206 0 0 0 0
1427500 0.26975065693234684 0.3747298854817432 0.7015124182006841 -0.48642689924779364 0 0 0 0
1475000 0.2837804977033171 0.3790466520849515 0.6873352342043074 -0.49333021267354543 0 0 0 0
1522500 0.29776732214374235 0.38295331483078393 0.6729607955027956 -0.49977756759663533 0 0 0 0
1570000 0.3118944812259229 0.38631900165071725 0.6589442262366242 -0.5056313358945159 0 0 0 0
1617500 0.32600081255549324 0.389232148290392 0.6449839106855574 -0.5110132330203411 0 0 0 0
1665000 0.3400231248602026 0.39149182450440395 0.631152238026487 -0.5158639459816711 0 0 0 0
1712500 0.3539062475001901 0.39322487342118034 0.617384750439253 -0.5203258499555825 0 0 0 0
1760000 0.36779291892190763 0.39462033363081045 0.6037041307543084 -0.5243366297909884 0 0 0 0
1807500 0.3816588086816302 0.39560619548021475 0.5903567742226613 -0.5278863976012936 0 0 0 0
1855000 0.3953103814915534 0.39607706274414445 0.5770922759408408 -0.5310933796236046 0 0 0 0
1902500 0.4087890951098976 0.39605539902577275 0.5640367417267391 -0.533906883443737 0 0 0 0
1950000 0.4222514845526466 0.39564057636820305 0.5511591723423558 -0.5363226635099901 0 0 0 0
1997500 0.4354436955388588 0.394899010122004 0.5385185154199169 -0.5384045484559667 0 0 0 0
2045000 0.44863864319710567 0.3937615933519596 0.5259855335171759 -0.5401692840720269 0 0 0 0
2092500 0.4616432239234245 0.39208803156904587 0.5138650170518901 -0.5416283345491248 0 0 0 0
2140000 0.47437119593553406 0.3901426818823809 0.5017864416775379 -0.5427380553087962 0 0 0 0
2187500 0.48694879334386826 0.3878565492032566 0.48992776711886393 -0.5435658664087873 0 0 0 0
2235000 0.49931462815975386 0.38536332317981314 0.4783857582552093 -0.5442078754939849 0 0 0 0
2282500 0.5115545574714568 0.3823970462051558 0.46699996614549255 -0.5445064514601498 0 0 0 0
2330000 0.5234703232645025 0.379125617200967 0.45585175347601664 -0.544584714811926 0 0 0 0
2377500 0.5352707803065954 0.37559865671196124 0.44485571045642697 -0.5444325188080316 0 0 0 0
2425000 0.5467001544312666 0.37189308039903407 0.43419300531480726 -0.5439913277920245 0 0 0 0
2472500 0.5581839922995216 0.36772045685822774 0.4237466005889119 -0.5435462589373758 0 0 0 0
2520000 0.5694006938492201 0.36338983233203404 0.41346504319189764 -0.5428126489624041 0 0 0 0
2567500 0.5802802634443724 0.35877336544236493 0.4033833508372518 -0.5419120980077283 0 0 0 0
2615000 0.5909560160576299 0.3540269652561548 0.39345904082944183 -0.5408711297854358 0 0 0 0
2662500 0.6013913498922323 0.3490726939090189 0.38394584497940853 -0.5396393892565277 0 0 0 0
2710000 0.6117661362379139 0.3437953328566934 0.37457263543605124 -0.5383112701749668 0 0 0 0
2757500 0.6218364416706026 0.33833054194795276 0.36534987592766216 -0.5367857280924757 0 0 0 0
2805000 0.6315317362179087 0.33267432913322437 0.3562708915184725 -0.5351466652331794 0 0 0 0
2852500 0.6410644453507763 0.32699046807277937 0.3475724672647256 -0.5333780797512653 0 0 0 0
2900000 0.6504154222082019 0.32110005647247775 0.33904173577539953 -0.5315089470129613 0 0 0 0
2947500 0.6596526956322392 0.3149406010625204 0.3307101645130605 -0.5296456062899437 0 0 0 0
2995000 0.6685427801338212 0.30857014100979796 0.3225013046648833 -0.5277234784824508 0 0 0 0
3042500 0.6771604464123898 0.3021800387871429 0.31438949458096177 -0.5254564032735319 0 0 0 0
3090000 0.6855936955979156 0.2958095926604534 0.306604564750128 -0.5233103143287201 0 0 0 0
3137500 0.6939246252271346 0.2891739561259987 0.2990903331042399 -0.5210526867188477 0 0 0 0
3185000 0.7020923978916204 0.28229787493208425 0.2915747737151163 -0.5187532414148426 0 0 0 0
3232500 0.7097653766723175 0.2753574262739224 0.2842849356457208 -0.5163324962256332 0 0 0 0
3280000 0.7173438077498384 0.2685282166578371 0.27712262034727736 -0.5138641424494955 0 0 0 0
3327500 0.7248612421331669 0.26157376061271015 0.2702210448250986 -0.5113608024551043 0 0 0 0
3375000 0.7321229049351013 0.25429038138497845 0.26352905239167806 -0.5087814690790001 0 0 0 0
3422500 0.739105333102354 0.24697126339654457 0.2568465955725788 -0.5063080451459147 0 0 0 0
3470000 0.7459006477331659 0.23964432331604085 0.2502899109564368 -0.5037159025192047 0 0 0 0
3517500 0.7525046890050533 0.23238707516789683 0.24406582416154182 -0.5009776485097778 0 0 0 0
3565000 0.7589554440871873 0.22491244711886973 0.2378970253173075 -0.4983374572109807 0 0 0 0
3612500 0.7652675429412893 0.21734259350687812 0.23194387550272177 -0.49571998305292125 0 0 0 0
3660000 0.7712496105243979 0.2097798648478929 0.2259389522170168 -0.49288291559421255 0 0 0 0
3707500 0.7770542477144651 0.20215113006868207 0.2202075512244837 -0.4900649211489388 0 0 0 0
3755000 0.7827382056703648 0.19462086484736554 0.21459875800257994 -0.487343628756692 0 0 0 0
3802500 0.7883415077753814 0.18687563667808202 0.2091207175086729 -0.4845894426085578 0 0 0 0
3850000 0.7936323117286607 0.17914347053495747 0.203795427889082 -0.48180293102999466 0 0 0 0
3897500 0.7987611725879631 0.17123998996758374 0.19843747077244772 -0.47895809697859576 0 0 0 0
3945000 0.803729708255964 0.16354407455502212 0.19337143484635966 -0.47617529644921797 0 0 0 0
3992500 0.8085528019480014 0.1558466795795998 0.18850025673029897 -0.47328120103456606 0 0 0 0
4040000 0.8133843313050393 0.1478313514296783 0.183594164443881 -0.4705381524205615 0 0 0 0
4087500 0.8178141664020555 0.13995619200299905 0.1787340922848237 -0.46773360497781874 0 0 0 0
4135000 0.8220206815809517 0.1319275186320254 0.1740441317452601 -0.46489858197662376 0 0 0 0
4182500 0.8262130632185399 0.12419869011142087 0.16951597909960037 -0.46200691637675156 0 0 0 0
4230000 0.8302479140122032 0.11638378300375292 0.16516660524637566 -0.45915898359763513 0 0 0 0
4277500 0.8342177254296064 0.10832513150209161 0.16079150359337607 -0.45643889511683666 0 0 0 0
4325000 0.8378521528874027 0.10039186188689189 0.15648330597609916 -0.4537014506092289 0 0 0 0
4372500 0.8414087640224598 0.09249196927840066 0.15232137177974933 -0.45080092376507125 0 0 0 0
4420000 0.8449663354107046 0.08467167658605475 0.14831085313302364 -0.44803096018526023 0 0 0 0
4467500 0.8483242167141014 0.07671531692989476 0.14434082298691944 -0.44534638848070673 0 0 0 0
4515000 0.8514357161408119 0.06866790456848948 0.14041645813734968 -0.4424992050166348 0 0 0 0
4562500 0.8543453844840235 0.0607196894874761 0.13660280583159146 -0.4397026013773123 0 0 0 0
4610000 0.8572209579185087 0.05292450802215363 0.13285681770363245 -0.4369620405304535 0 0 0 0
4657500 0.8600470607694848 0.04514774314587679 0.1292976773108474 -0.43419252875632813 0 0 0 0
4705000 0.8627408314226706 0.03716546002118652 0.12569278160763098 -0.43152668480245104 0 0 0 0
4752500 0.8652851607264096 0.02918875119750057 0.12222095677851534 -0.4288730708377153 0 0 0 0
4800000 0.8675148250272352 0.021421032137322233 0.11886298193215473 -0.4261296580017663 0 0 0 0
4847500 0.8697579105098976 0.013650919284985547 0.1155487938038094 -0.4233590294169417 0 0 0 0
4895000 0.8720439022322504 0.005807668108154004 0.11231503226780015 -0.42074456962030055 0 0 0 0
4942500 0.8740894273750378 -0.0021183062147474823 0.10914119488890701 -0.41819336703662563 0 0 0 0
4990000 0.8760190596262201 -0.009917441870801926 0.10601712097926015 -0.4154902327430329 0 0 0 0
5037500 0.8776869463185052 -0.017567955449965887 0.10297527281316989 -0.4128772738227676 0 0 0 0
5085000 0.8794432972020495 -0.025273716543531024 0.0999741707035229 -0.4103085086794634 0 0 0 0
5132500 0.8810970645869355 -0.033006270981180655 0.09715809938594258 -0.4076963132395371 0 0 0 0
5180000 0.8826510374052916 -0.04080051685150398 0.09423242553671038 -0.40519984074714627 0 0 0 0
5227500 0.8839739460283028 -0.04852752475190804 0.09142806537859237 -0.4026984754338955 0 0 0 0
5275000 0.8851656642932795 -0.05602873055459082 0.08872639425598423 -0.4000775026837797 0 0 0 0
5322500 0.8864349649271642 -0.06367074640353655 0.08603385961700302 -0.397631589483649 0 0 0 0
5370000 0.8875604582700566 -0.07137538063362958 0.08333858865858446 -0.3951069619996306 0 0 0 0
5417500 0.8884806573365572 -0.07899432269794238 0.08081745337318365 -0.39265506159868346 0 0 0 0
5465000 0.8892666557808439 -0.08645011229507678 0.07832643193046594 -0.39024660742487033 0 0 0 0
5512500 0.8900878839993946 -0.0939358968616808 0.07581893751542663 -0.38771379418707047 0 0 0 0
5560000 0.890836080985299 -0.10143585926751722 0.07343991305187658 -0.38532316934367355 0 0 0 0
5607500 0.8915419990716592 -0.109062348619796 0.07111967136256929 -0.3829814619992581 0 0 0 0
5655000 0.8919583188343772 -0.11648635081961833 0.06866313125121917 -0.38060174339661496 0 0 0 0
5702500 0.8923794835441543 -0.12370463261669119 0.06639016827396363 -0.3782594018836681 0 0 0 0
5750000 0.8928171785491471 -0.13107649844445327 0.06420521085429572 -0.37579858177676256 0 0 0 0
5797500 0.8931650022793088 -0.138467389137648 0.062067283175992666 -0.37359632731357856 0 0 0 0
5845000 0.8933317445567305 -0.14591595234976773 0.059864816635486234 -0.371300691988118 0 0 0 0
5892500 0.8933571218571774 -0.15312577255713736 0.05773159128815758 -0.3690224783946277 0 0 0 0
5940000 0.89339061668819 -0.16020352718641204 0.05565789716325914 -0.3666959756941154 0 0 0 0
5987500 0.8935214154211069 -0.16757066421752814 0.05370656980272854 -0.3644306714352845 0 0 0 0
6035000 0.893496178536659 -0.17476751099842266 0.05175335347433463 -0.3622293848025177 0 0 0 0
6082500 0.8931592083847192 -0.18199106292752268 0.049740619275547196 -0.3600208199559384 0 0 0 0
6130000 0.8928060789241004 -0.18895593300818087 0.047860915706771576 -0.35777020593716746 0 0 0 0
6177500 0.8926467076473464 -0.19602305372828346 0.046004019287517815 -0.3556192712367801 0 0 0 0
6225000 0.8923034234982736 -0.20309963080145785 0.044250795202919795 -0.35346431478305407 0 0 0 0
6272500 0.8917887768153583 -0.21022517777501823 0.04229307547300076 -0.3514177530971849 0 0 0 0
6320000 0.8911310057836513 -0.21725852695618253 0.04050073121391009 -0.34927338128229657 0 0 0 0
6367500 0.8905214822494262 -0.22404712923561446 0.03886547023147377 -0.3470746609732235 0 0 0 0
6415000 0.8899664259655322 -0.23099580098264585 0.037144023897038476 -0.34508320993092584 0 0 0 0
6462500 0.889182715943434 -0.23794270181411725 0.03551539385889627 -0.3430615907864039 0 0 0 0
6510000 0.8884165559290732 -0.2449742906808366 0.03379080654888785 -0.34096077858523643 0 0 0 0
6557500 0.8873463977865992 -0.2516404778055733 0.03218275250213245 -0.33889393590094474 0 0 0 0
6605000 0.8865535143782892 -0.2583002782713092 0.03062672544309051 -0.3368782040343729 0 0 0 0
6652500 0.8856341347424109 -0.265190778434348 0.029105140177845525 -0.3348873427965492 0 0 0 0
6700000 0.8845060300459031 -0.27192375207003167 0.027485457273406722 -0.33297429938235923 0 0 0 0
6747500 0.8833572776092312 -0.2785928829324445 0.02600637328693964 -0.3309797170519717 0 0 0 0
6795000 0.8821394013414783 -0.2849771769670679 0.02453832761541583 -0.32892108944462256 0 0 0 0
6842500 0.8811100311139723 -0.29159780251316825 0.0231691365005819 -0.3270272365112235 0 0 0 0
6890000 0.8799161527067872 -0.29826364332186645 0.021772672792689803 -0.32518517742257824 0 0 0 0
6937500 0.878428873561296 -0.30483577672674605 0.02035054995561422 -0.32330890102815407 0 0 0 0
6985000 0.876946203046643 -0.31125360883698355 0.018876530433930297 -0.32137221835607976 0 0 0 0
7032500 0.8755748242335745 -0.31756191635109215 0.017586557512385925 -0.31945095626157377 0 0 0 0
7080000 0.874226750393372 -0.32409547336061983 0.016298494740442388 -0.3177006260922515 0 0 0 0
7127500 0.8725857801488995 -0.33047902263026496 0.015042752509042037 -0.3158157573389758 0 0 0 0
7175000 0.8709434479754918 -0.33688485945602753 0.013690316691186213 -0.31413792070916796 0 0 0 0
7222500 0.869230671233778 -0.3430149296862054 0.012384711261726068 -0.31226341147536485 0 0 0 0
7270000 0.867747677695527 -0.34920531870451826 0.011279075733553447 -0.31041500313644116 0 0 0 0
7317500 0.8660531036224618 -0.3555189772616626 0.010108499646785077 -0.30865737232702906 0 0 0 0
7365000 0.864274695850874 -0.36184471486753766 0.008874792238330367 -0.30699951332397446 0 0 0 0
7412500 0.8624015213678062 -0.3679408113863389 0.007702968334422484 -0.3052096750235355 0 0 0 0
7460000 0.8605062353639098 -0.3738991342996794 0.006585341955975339 -0.3034307014443534 0 0 0 0
7507500 0.8586321619843872 -0.38009020572821495 0.005498815915642663 -0.30170079787589094 0 0 0 0
7555000 0.8567579894010127 -0.38621453534303785 0.0043336631254397694 -0.3001500131394142 0 0 0 0
7602500 0.8546872766127247 -0.3921762371485768 0.0032091662807136705 -0.29844438055083516 0 0 0 0
7650000 0.8525526896186684 -0.3980868568666262 0.0021928160728237577 -0.2967362671430524 0 0 0 0
7697500 0.8505970167768616 -0.4039592326925585 0.0010859772325234867 -0.2950570996090088 0 0 0 0
7745000 0.8485406940449032 -0.41000385670066297 0.00015040106379964426 -0.2934655758075003 0 0 0 0
7792500 0.8463322535361438 -0.41592254148659724 -0.0008946448717016983 -0.29186881954325006 0 0 0 0
7840000 0.8440659785637646 -0.42178371995680214 -0.0019292433136646088 -0.29031197613080306 0 0 0 0
7887500 0.8417335838317102 -0.4275698617054431 -0.0029319157801151676 -0.2885817252510643 0 0 0 0
7935000 0.8395326049028091 -0.43342147378250495 -0.0038500619327860213 -0.28702135549638913 0 0 0 0
7982500 0.8371766195545043 -0.43927080951794667 -0.004800487924597101 -0.2855416374993495 0 0 0 0
8030000 0.8346733149486583 -0.44510009102290626 -0.005787911948087059 -0.28398563391050063 0 0 0 0
8077500 0.8322939946490829 -0.4506687308623288 -0.006716963769702085 -0.28240517723590947 0 0 0 0
8125000 0.8297716601800728 -0.45622612786690825 -0.00766575523820959 -0.2808852642741814 0 0 0 0
8172500 0.8274553453561361 -0.4620784906412463 -0.008538294542255308 -0.2793929756375107 0 0 0 0
8220000 0.8248367998337206 -0.46755895453982155 -0.009441707338161864 -0.27789295669668046 0 0 0 0
8267500 0.822195474657781 -0.47314652353108455 -0.010314660200329347 -0.27637432003842 0 0 0 0
8315000 0.8195849212532699 -0.4785037035928072 -0.011186327245664568 -0.2748293514338103 0 0 0 0
8362500 0.817005901247843 -0.4838823762007632 -0.011994317788843464 -0.2733247933147773 0 0 0 0
8410000 0.81447320905998 -0.48940603046776215 -0.012807377698662397 -0.27184581520632806 0 0 0 0
8457500 0.8117800103786571 -0.4949416789727469 -0.01364178788621356 -0.2705310937698409 0 0 0 0
8505000 0.8089178281744323 -0.5002757197035147 -0.01450128419229971 -0.2690848247401811 0 0 0 0
8552500 0.8061479703533175 -0.5055419596171027 -0.015304934932209793 -0.2675820830225061 0 0 0 0
8600000 0.8033238403526461 -0.5108410875266338 -0.016072809789528276 -0.2661585047267041 0 0 0 0
8647500 0.8006009017572647 -0.5161941461934754 -0.016783420013101114 -0.26479560730929974 0 0 0 0
8695000 0.797714494052455 -0.5212609363559688 -0.017654672908425224 -0.26339056052462906 0 0 0 0
8742500 0.7948543737767286 -0.5264197797832909 -0.018344385771320214 -0.262077378933337 0 0 0 0
8790000 0.7919078940672658 -0.5314753249735904 -0.019070010291672285 -0.2606352559371475 0 0 0 0
8837500 0.7890689895090285 -0.5365993471021352 -0.01973881843218311 -0.259285493058459 0 0 0 0
8885000 0.7860917858195168 -0.5417829923296507 -0.020458234882033736 -0.2579538793010066 0 0 0 0
8932500 0.7831055375699398 -0.546751073238003 -0.021173147797855358 -0.2566508538339565 0 0 0 0
8980000 0.779988776004976 -0.5516500746221514 -0.021903050004317803 -0.2552971459718762 0 0 0 0
9027500 0.7769406061040406 -0.5566274302508154 -0.02260843519621854 -0.25395220318264805 0 0 0 0
9075000 0.7739332138505383 -0.5615704012752691 -0.023202182553463575 -0.2527217893712064 0 0 0 0
9122500 0.770856959648344 -0.5665352355550461 -0.02387982786399228 -0.25147212420731296 0 0 0 0
9170000 0.7677237932264774 -0.5714150626129639 -0.02463296203042016 -0.2501293112592599 0 0 0 0
9217500 0.7646428168427806 -0.5762298216112914 -0.025275267105944133 -0.2488169984916221 0 0 0 0
9265000 0.7613875384586818 -0.5809589601838099 -0.025832295488056732 -0.24762179813681356 0 0 0 0
9312500 0.7583446078559345 -0.5856007295387996 -0.026485180333625718 -0.24631744198207034 0 0 0 0
9360000 0.7550180107081591 -0.5904521238581102 -0.027156060695973854 -0.24512381431146332 0 0 0 0
9407500 0.751718021387947 -0.5951602814121929 -0.027768040739148143 -0.24388777337786138 0 0 0 0
9455000 0.7483937401519265 -0.5998622695726191 -0.028405055119472177 -0.24262217546767267 0 0 0 0
9502500 0.7451765168314377 -0.6045592651539274 -0.028953430569187075 -0.24138286609233636 0 0 0 0
9550000 0.7419146539330085 -0.6090917764020642 -0.02953553755870357 -0.24024956463106648 0 0 0 0
9597500 0.7383938957915375 -0.6137865725412757 -0.0301684953643268 -0.23904348824437194 0 0 0 0
9645000 0.7350565443487999 -0.6183373784856662 -0.030717434780555965 -0.2377713779971201 0 0 0 0
9692500 0.7317106241196424 -0.6227169315436958 -0.03128056711720679 -0.23663585340347568 0 0 0 0
9740000 0.7283424326149514 -0.6271974107306356 -0.03179919167026601 -0.23548440091900208 0 0 0 0
9787500 0.7249708448362844 -0.6317094811090185 -0.03237016194806662 -0.2344286182801254 0 0 0 0
9835000 0.7213549888981061 -0.6362881926147805 -0.03294554696673994 -0.2331657950560189 0 0 0 0
9882500 0.7178080258857251 -0.6405314724040121 -0.03348548625457657 -0.2320049207425775 0 0 0 0
9930000 0.7144410666685669 -0.6447444778704927 -0.033934029660451434 -0.23088645926512466 0 0 0 0
9977500 0.7111082395326357 -0.6491479919375113 -0.034427961369509145 -0.22981786408315208 0 0 0 0
10025000 0.7074124859902096 -0.6534914473084411 -0.034988141881324715 -0.22865901247092152 0 0 0 0
10072500 0.7036014485529768 -0.6578106224463335 -0.03557212572550054 -0.22752451241243105 0 0 0 0
10120000 0.7000871218495528 -0.6620006048461966 -0.036024076401708814 -0.22636506973695086 0 0 0 0
10167500 0.696557661957985 -0.6662042455403098 -0.0364493308638261 -0.22530518723901827 0 0 0 0
10215000 0.6929390651928268 -0.6704220443870923 -0.03696620508381752 -0.22423365140835924 0 0 0 0
10262500 0.6892478884812132 -0.6748066312648717 -0.03750103697536384 -0.22318387972883594 0 0 0 0
10310000 0.6854305084956477 -0.6788461628878956 -0.037944868659097984 -0.22204266351252272 0 0 0 0
10357500 0.6818634498093946 -0.6829019395642159 -0.03837356173577496 -0.22102574985757464 0 0 0 0
10405000 0.6781318465774333 -0.68683530551262 -0.03881204894572897 -0.21998029647776973 0 0 0 0
10452500 0.6745198861223669 -0.6909638336599799 -0.0392983867091859 -0.21899277563013686 0 0 0 0
10500000 0.6706849688116481 -0.695038732210364 -0.039785881605487405 -0.21781162851705366 0 0 0 0
10547500 0.6668060946858381 -0.6987790102487714 -0.04021098300228173 -0.21673822900773254 0 0 0 0
10595000 0.6631380351270215 -0.7028762886050666 -0.04055678604627719 -0.21576742299301466 0 0 0 0
10642500 0.6593617564188907 -0.7065768287666944 -0.04103045025005771 -0.2148439053018261 0 0 0 0
10690000 0.6553205143009129 -0.7104670113406674 -0.04152114856934517 -0.2137791687762312 0 0 0 0
10737500 0.6516523148629959 -0.7142485808869102 -0.041909398032158755 -0.2127343243297079 0 0 0 0
10785000 0.6479181954564488 -0.7179894162566813 -0.04228720959759216 -0.21175898629447565 0 0 0 0
10832500 0.6439820080075042 -0.7217422417488911 -0.04270823796924285 -0.2107933012695262 0 0 0 0
