# HZ S RI R 50
9000000 0.9938265193991971 0.09264414384660138
9008750 0.9938597989850958 0.09228976514361321
9017500 0.9939756193342756 0.09170094994154017
9026250 0.9940765114810974 0.09107140972600941
9035000 0.9941787852080266 0.09058616687065053
9043750 0.9940740757996697 0.09000484741883075
9052500 0.9940966245538949 0.08952722680868015
9061250 0.9939896141548195 0.08908070170973474
9070000 0.9940368489456346 0.0886746317630108
9078750 0.9940962750913203 0.08828041703197374
9087500 0.9941700973970748 0.08778305287569464
9096250 0.9942518573803779 0.08741345235593827
9105000 0.9944373098555429 0.08690566664219741
9113750 0.9945387184955301 0.08635160487969042
9122500 0.9945667144649047 0.08579884885816493
9131250 0.994677753373903 0.08515797079711933
9140000 0.9945358272757638 0.08467271940428571
9148750 0.9946198782597954 0.0842069742591131
9157500 0.9944570028035055 0.08386940325312374
9166250 0.9944993288718255 0.08335510235400587
9175000 0.994547014543097 0.0829881223027847
9183750 0.9946748644702741 0.0825413286525017
9192500 0.9947649667135531 0.08217736568744298
9201250 0.994807360796288 0.08160072897086258
9210000 0.9950757768782009 0.08114495680387557
9218750 0.995008689718853 0.0805193330478862
9227500 0.9950321314047267 0.07998576574115691
9236250 0.9949518637634293 0.07950766161461345
9245000 0.9950010190282864 0.0789501521394166
9253750 0.9949539844709739 0.07860418104009173
9262500 0.9949503850943329 0.07817195732643994
9271250 0.9951059860698246 0.07786519660933235
9280000 0.9951145718821679 0.07735506703993525
9288750 0.995303688579699 0.07690278780823902
9297500 0.9953541620019261 0.07636854209690287
9306250 0.9954083681539969 0.07585221021297057
9315000 0.9953053648060446 0.07533978114092273
9323750 0.9954087263929581 0.07471805520534892
9332500 0.9953601316669246 0.07429024782971756
9341250 0.9952255707892249 0.07384102220578083
9350000 0.9953097822042709 0.0735046167706322
9358750 0.9953054901933626 0.07304265703150681
9367500 0.9954370813785379 0.07272844674977745
9376250 0.995525381824904 0.07224651497043846
9385000 0.9955934722745126 0.07187640729887307
9393750 0.9957895070522621 0.07127346294783782
9402500 0.9958827395059365 0.070730388261128
9411250 0.9958022665150799 0.07026735004707449
9420000 0.9958003597589249 0.06965126508854007
9428750 0.995695788804844 0.06921885890332731
9437500 0.9956870251344655 0.06879654355925333
9446250 0.9956938852490609 0.06841701616119825
9455000 0.9956090365238127 0.06809067816602024
9463750 0.9958080179617209 0.06766455698828971
9472500 0.9959441807291319 0.06724794463106516
9481250 0.9961513155291413 0.06672231912973502
9490000 0.9961346099285027 0.06625115031281155
9498750 0.9962492650824157 0.06569545452365985
9507500 0.9961521033539434 0.06513639359014597
9516250 0.9961702189479693 0.06462606223342987
9525000 0.9959702718690447 0.06418866000176396
9533750 0.9960223205106762 0.06378123668664007
9542500 0.996086853863889 0.06340798818802272
9551250 0.9960963895957825 0.06304433803230103
9560000 0.9962642177888718 0.06268757247878727
9568750 0.996233439575448 0.06220211053433172
9577500 0.9964719985045772 0.06168541994450102
9586250 0.9964815061029956 0.061115847178568466
9595000 0.9965010688363072 0.06050707714710206
9603750 0.9964659567314977 0.06011334751139476
9612500 0.9964370077831598 0.059527684816976775
9621250 0.9963307939062818 0.05920114496907747
9630000 0.996424962946516 0.05877908125949571
9638750 0.9964275123772086 0.05846558061119324
9647500 0.9964405761919786 0.05804833400413701
9656250 0.9965762726489353 0.05770715596217137
9665000 0.9966742051552296 0.05719431699730587
9673750 0.9967826061601921 0.056620912245475864
9682500 0.9967726062281655 0.056223017595511154
9691250 0.9968626462055941 0.055642642269704945
9700000 0.9967788060517336 0.05518261473891231
9708750 0.9966948450915222 0.05459958299304132
9717500 0.9967049147426021 0.054279046339931476
9726250 0.996689411105206 0.05377176287024496
9735000 0.9966623438897552 0.053560752333090204
9743750 0.9967865848356785 0.05314757782677596
9752500 0.996951454566901 0.052767290609988
9761250 0.9969728730258689 0.05231397615209031
9770000 0.997063840715821 0.05165363843156883
9778750 0.9970842106589342 0.05118738711538759
9787500 0.9971358964916509 0.05066123929988484
9796250 0.9970380350159218 0.050168670197086186
9805000 0.9969637583305612 0.0497052047248992
9813750 0.9969341614351692 0.04935680306342896
9822500 0.9969389350578359 0.04902946348214088
9831250 0.9970263633010337 0.04871171118320712
9840000 0.9970144463053121 0.048336747210246576
9848750 0.9971568248226546 0.047869876794411056
9857500 0.9971752116283797 0.04732306775485744
9866250 0.9972324779587114 0.046815541742948
9875000 0.9972755302210397 0.04636557058233536
9883750 0.997322272760854 0.0458473689063991
9892500 0.9971913897545635 0.04535902940210239
9901250 0.9971827548425984 0.04497542439182378
9910000 0.9970684379493958 0.04459859663424348
9918750 0.9971578533525477 0.044194707850525504
9927500 0.9971764643410534 0.04385362582345496
9936250 0.9971873627510315 0.04344674594560347
9945000 0.997386728803539 0.04311812817213009
9953750 0.9973370574221474 0.04257014438987013
9962500 0.997554616479479 0.0421202296488001
9971250 0.9974984968023355 0.04162728859029203
9980000 0.9974047941498658 0.04105693599529902
9988750 0.99733811107477 0.04058915130976735
9997500 0.9973570251460029 0.04025579354896442
10006250 0.9973103926908604 0.03989164227693314
10015000 0.9972919769709487 0.039522595844282166
10023750 0.9973905273836926 0.0392431988272916
10032500 0.9974015273989578 0.03881698331655644
10041250 0.9976380882588477 0.038274588620009355
10050000 0.9976854843687832 0.0378254093550812
10058750 0.997753122606547 0.03733286477004033
10067500 0.9977846376736247 0.03689868794211988
10076250 0.9976385965699394 0.03637211256341546
10085000 0.997611222281625 0.03601064029441123
10093750 0.9976868272140772 0.035485482180900016
10102500 0.9976019064137117 0.035263255035609634
10111250 0.9975981021430412 0.034902536634725714
10120000 0.9977123711712225 0.03453872733670109
10128750 0.9977396728144403 0.03399432455960895
10137500 0.9978337835454921 0.03357873740812421
10146250 0.9978751610791714 0.03314892497224266
10155000 0.9979954002243216 0.03259102255485738
10163750 0.9978437888874343 0.03213829271905507
10172500 0.997894401554146 0.03170646190040788
10181250 0.9978035705311153 0.03127542818600986
10190000 0.9977638192756566 0.030799047755182444
10198750 0.9977754757062027 0.03056002557550839
10207500 0.9977765890899988 0.030169746576380857
10216250 0.9978172773752867 0.02975698838402659
10225000 0.9978663534384622 0.029358501056632482
10233750 0.9981029431760101 0.028992957588346892
10242500 0.99810694777051 0.028442733749354115
10251250 0.9981429569964368 0.027938852407422544
10260000 0.9980524997062031 0.02749113128197377
10268750 0.9980041811040006 0.026992095129297143
10277500 0.9978391593748368 0.026680164391016656
10286250 0.9978658510994498 0.026274109202799305
10295000 0.9979056332966153 0.025919294079912593
10303750 0.9979954446667769 0.02555068561660261
10312500 0.9980933378266401 0.025202173817276893
10321250 0.9980085009115056 0.024699075513134904
10330000 0.9981983978087902 0.024368601294634792
10338750 0.9982310405362826 0.023755004032724337
10347500 0.9982822510902875 0.02335482212741132
10356250 0.9982079144131956 0.022859654838467067
10365000 0.9981295927076194 0.02234964168050899
10373750 0.9979862119938585 0.021988563951772636
10382500 0.9980637429838921 0.02169139045502058
10391250 0.9980291414633086 0.021445565212110027
10400000 0.9981054085716908 0.021034463977648982
10408750 0.9982635404669485 0.02014373138697565
10417500 0.9982641803384872 0.020312210372075035
10426250 0.9982792131345709 0.01969517882783176
10435000 0.9984075768910063 0.019136822912453267
10443750 0.998353242294203 0.018736020775475586
10452500 0.9982945091119401 0.0182475269092924
10461250 0.9982916070141394 0.01798094618889541
10470000 0.9981064948417208 0.01750069439260711
10478750 0.9981774091723826 0.01718296458033053
10487500 0.9981780778124019 0.01677238231603604
10496250 0.9982911670060722 0.016492985872618857
10505000 0.9982979715279678 0.01607612195545415
10513750 0.9984722300063903 0.015577401935188823
10522500 0.9984292033579216 0.015214735542380637
10531250 0.9984664460368731 0.014610235214086954
10540000 0.9984176113079558 0.014195049296093375
10548750 0.9984004009965485 0.013724175108069255
10557500 0.9982247050209052 0.013372498104144028
10566250 0.9982318352949741 0.012914686292895
10575000 0.998239766649007 0.012752228216189602
10583750 0.9982530552996199 0.012323749925093807
10592500 0.9983980346931701 0.011924063945704317
10601250 0.9985265353383698 0.01151950001989911
10610000 0.9986185274803521 0.011019842286348567
10618750 0.9985758364859635 0.010551140340639024
10627500 0.9985531659212574 0.010061798886649737
10636250 0.9984661260734214 0.009666060983885848
10645000 0.9985209225191244 0.009153256346013263
10653750 0.9983474150589904 0.008822890081759897
10662500 0.998363782748424 0.008395700219597338
10671250 0.9983399842736441 0.008237951820469467
10680000 0.9983776498142631 0.00783977280538543
10688750 0.998426918184391 0.007512901628135965
10697500 0.998444285366311 0.007016131437627093
10706250 0.9985882006121743 0.006574560006327029
10715000 0.9986078676888077 0.006163814426801928
10723750 0.9986701272711984 0.005598214823016048
10732500 0.9985621126267521 0.00519820813196376
10741250 0.9984974969027727 0.004699053786432933
10750000 0.9983731608833261 0.004473509963882885
10758750 0.9984011805406493 0.004026274375532741
10767500 0.9984114891122469 0.0037038739752728064
10776250 0.9983829487253675 0.0034205997795790587
10785000 0.9985262618894333 0.0029590477890690235
10793750 0.998517452437685 0.0025941195619474523
10802500 0.9986608085919808 0.002126471173625358
10811250 0.9986432307556751 0.0016313958667486638
10820000 0.998637600344678 0.0011201865966361851
10828750 0.9985316758517808 0.0007183471504750589
10837500 0.9985509713470453 0.00037945484617522883
10846250 0.9983759457363491 8.385926655912567e-05
10855000 0.9983749969058948 -0.0004188002248289434
10863750 0.9984020343829133 -0.0006221868327261623
10872500 0.9984719644242689 -0.000956967359545787
10881250 0.998551932255948 -0.0013472067057901254
10890000 0.9985985582457317 -0.0018113436803780776
10898750 0.9987685574123025 -0.002258794303220542
10907500 0.9985988991389791 -0.002678332312770404
10916250 0.9985959518541371 -0.0032870801839359532
10925000 0.9985515021458699 -0.003623471022833222
10933750 0.9984876121072901 -0.004007433064632647
10942500 0.9983721796644313 -0.004319150061818125
10951250 0.9984718936631598 -0.004714052041722242
10960000 0.9984592169248692 -0.0049214211593961305
10968750 0.9985130033805263 -0.005272505529319549
10977500 0.9985681464998418 -0.005693522352668966
10986250 0.9985379509800387 -0.006066322286610527
10995000 0.9988130868825111 -0.006698432886578529
11003750 0.998697407519563 -0.00709420399918432
11012500 0.9986484984718866 -0.007522232753776006
11021250 0.9985726846548632 -0.007979491078552503
11030000 0.9984163374670723 -0.008401290524938902
11038750 0.9983796683091414 -0.008605128299100316
11047500 0.9984506069127812 -0.009013998910321966
11056250 0.9984541590049111 -0.009229112547546724
11065000 0.9984294985116142 -0.009673925366277841
11073750 0.9985611366580298 -0.010023154118195793
11082500 0.9985129046504144 -0.010486374356239916
11091250 0.9987388099273826 -0.01099359629724673
11100000 0.998617516556946 -0.011383757247461018
11108750 0.9986295225463608 -0.011894719805195094
11117500 0.9984383752529735 -0.012191933123700613
11126250 0.9984010776142584 -0.012712179913547693
11135000 0.9984075034725501 -0.012919185396132814
11143750 0.9983513343851852 -0.013301151605160225
11152500 0.9984079884032326 -0.013633392385261683
11161250 0.9984774527574177 -0.013965424432675639
11170000 0.9985877049584414 -0.014401796539503438
11178750 0.9985472203260667 -0.014772177696721232
11187500 0.9986318507898249 -0.015286308442791942
11196250 0.9985838741138499 -0.015655852596284617
11205000 0.9984853601107062 -0.016182922353258567
11213750 0.9983907327083352 -0.016521317277340228
11222500 0.9983933944329003 -0.0168688706498611
11231250 0.9982669777392577 -0.017142063587309738
11240000 0.998315494475803 -0.017569389448998766
11248750 0.9983104650160193 -0.017843608816355144
11257500 0.9983397755038564 -0.01825586985235405
11266250 0.9985294179395869 -0.018643398747228167
11275000 0.9985402417019679 -0.019090890289992432
11283750 0.9984780502390797 -0.019648491289199658
11292500 0.9983888848540151 -0.019981503383405097
11301250 0.9984029405997478 -0.020455692948697698
11310000 0.998252013355986 -0.020765162561771956
11318750 0.9982349247930653 -0.02115426826184287
11327500 0.9982388499546344 -0.021417566138875875
11336250 0.9981771017633375 -0.02178519605006462
11345000 0.9982393861399208 -0.022111419831274785
11353750 0.9983377792514986 -0.022450545970069676
11362500 0.9984997945627168 -0.022852363352911704
11371250 0.9984171442685905 -0.023317287811281312
11380000 0.998463073889318 -0.02389254811399418
11388750 0.998274438845051 -0.024233647869334796
11397500 0.9982204471869215 -0.02472189637427293
11406250 0.9981634284873119 -0.02501168137661097
11415000 0.9980106486204747 -0.02531791341859172
11423750 0.9981440911084687 -0.025587473888271713
11432500 0.9980788664117879 -0.02599874827386515
11441250 0.9982368538161178 -0.026226846447002322
11450000 0.9982392817260989 -0.026619377049204182
11458750 0.9983397351540424 -0.027168012323036866
11467500 0.9982790553887999 -0.027445158393726857
11476250 0.9982749674283249 -0.02806401665987287
11485000 0.9981641891971325 -0.028393450492752898
11493750 0.9981356171948413 -0.028882545526226086
11502500 0.9981067270672496 -0.029209773651217963
11511250 0.9980008707367042 -0.029541757875226525
11520000 0.998068603619119 -0.029753706664926643
11528750 0.9980044819639688 -0.030182949924961722
11537500 0.9981252147969003 -0.03049295722122456
11546250 0.9980465696977261 -0.030799442233270583
11555000 0.9983899526258804 -0.03135761694853851
11563750 0.9981439612519748 -0.03177460595858456
11572500 0.9981591904829369 -0.03222722135639296
11581250 0.9980107600119174 -0.03258288343093538
11590000 0.9979723942941923 -0.03298644515249508
11598750 0.9979013282697033 -0.03332337833918463
11607500 0.9978706053404665 -0.0336659609507069
11616250 0.997908627576904 -0.03388108471679361
11625000 0.9979180306655991 -0.034298826716779626
11633750 0.9980112563503747 -0.03458978402430442
11642500 0.9979539895540874 -0.03497058423593658
11651250 0.9981293450188986 -0.03544434168432921
11660000 0.9980488516978693 -0.035862780743617095
11668750 0.9980377639627831 -0.036338791949548345
11677500 0.9978336486316173 -0.036649396055221425
11686250 0.9977613555011685 -0.03711939109002908
11695000 0.9976944832695415 -0.037327087179419766
11703750 0.9976948296178008 -0.03768641041658139
11712500 0.9977723423785566 -0.03799936264131959
11721250 0.9977449807694092 -0.03832718697466787
11730000 0.9977893914787936 -0.038685696296258495
11738750 0.9978211847732638 -0.039116439555295035
11747500 0.9978822228438866 -0.03951290971194006
11756250 0.9978330833033288 -0.04003965249236878
11765000 0.997787399481464 -0.04049888269614393
11773750 0.9976206060169355 -0.040726336964110016
11782500 0.9976979240705335 -0.041222170475735564
11791250 0.9975306680922866 -0.04140368754011901
11800000 0.9975265940248657 -0.04176903529375359
11808750 0.9975738621576431 -0.042083565335003924
11817500 0.9977066997020148 -0.042405935554059325
11826250 0.9977049045801825 -0.042729384050344654
11835000 0.9976590288771958 -0.043209164807104815
11843750 0.9977314980388433 -0.043578704844283306
11852500 0.9977105691334962 -0.04401662935315031
11861250 0.9975714793819442 -0.044494321737999276
11870000 0.9974802613220193 -0.04483881079763284
11878750 0.9974383516510315 -0.045252438274920356
11887500 0.9972983929017181 -0.04541862966831279
11896250 0.9972565753551954 -0.04578460575916963
11905000 0.9973428896767457 -0.04609382227589132
11913750 0.9973628008856451 -0.046483750592203894
11922500 0.9974909130620923 -0.04675647281916733
11931250 0.9974526097644025 -0.047267290286574136
11940000 0.9975322319822992 -0.04771926618748884
11948750 0.9973681457642762 -0.04803121807574042
11957500 0.9973612418435142 -0.04848838610890597
11966250 0.9971808299706107 -0.04882545323682103
11975000 0.9972047344184796 -0.049223498271529484
11983750 0.9970857914080965 -0.0494988355508185
11992500 0.9971521899983417 -0.049832987907869046
12001250 0.9972740058755776 -0.050044571422408125
12010000 0.9972182278993432 -0.05057881381209363
12018750 0.9973288891764024 -0.05091297469630874
12027500 0.9972921373129525 -0.0513211669887643
12036250 0.9972819023971283 -0.05179640728490839
12045000 0.9971866055686631 -0.05204316974597496
12053750 0.9970525052300426 -0.05248627640706059
12062500 0.9970214004885666 -0.05280579030361733
12071250 0.9969719514851932 -0.053156088699445415
12080000 0.9970864186961558 -0.05337183368509496
12088750 0.9969675648465663 -0.05387281527140492
12097500 0.997057534783637 -0.05418348640386546
12106250 0.9969697577276934 -0.05452946998675319
12115000 0.9970507159569701 -0.05488890192647105
12123750 0.9968389018733663 -0.05518015225010312
12132500 0.9969539227396376 -0.05560395842586287
12141250 0.9968747497119765 -0.05591924798711583
12150000 0.996852809101864 -0.056312369951764106
12158750 0.9969295092717327 -0.05667391459681265
12167500 0.9968796784374591 -0.057136933153250434
12176250 0.9967405044136148 -0.057376807555531685
12185000 0.996733129579575 -0.05783402364759919
12193750 0.9967250353358872 -0.05804193129096671
12202500 0.9966299287229465 -0.05834284085170957
12211250 0.996705834339992 -0.058727547207928735
12220000 0.9967177091983711 -0.059001678390183804
12228750 0.9968223401131009 -0.05935435117396441
12237500 0.9968656196761895 -0.05973488145661897
12246250 0.9967715169799092 -0.06027442637033456
12255000 0.9967138527903364 -0.06062106353313993
12263750 0.9966091053170469 -0.06098929999826755
12272500 0.9965037623210348 -0.06130602843043185
12281250 0.9964924164387702 -0.06161371868274718
12290000 0.9965223115456016 -0.061896047369470734
12298750 0.9965492236379616 -0.062098973505356946
12307500 0.9966543410635018 -0.06249241402979194
12316250 0.996722475583285 -0.06280860941219603
12325000 0.9966862421078919 -0.06336940434894683
12333750 0.9966606548488204 -0.06379109000593178
12342500 0.9964713140475477 -0.06417840657153881
12351250 0.9964735782569291 -0.06453362648099574
12360000 0.9963141458217466 -0.06471074231581486
12368750 0.9963575436132487 -0.06503695009030504
12377500 0.9963214986513942 -0.06538184034913591
12386250 0.9964552029393577 -0.06558618376119607
12395000 0.9965349402514393 -0.06590450816557998
12403750 0.9964784349222413 -0.06645695546507951
12412500 0.9965319341014509 -0.06678488125236876
12421250 0.9964585138840338 -0.06724160651589285
12430000 0.9963189882046998 -0.0676513937060734
12438750 0.996331198620388 -0.06791893948514426
12447500 0.9961496329654512 -0.06822926077541966
12456250 0.9961021240794126 -0.06850193754254015
12465000 0.9962406961710132 -0.06872592185104519
12473750 0.99620690189455 -0.06916016739427702
12482500 0.9963733556790665 -0.06948306812353704
12491250 0.9963643873287569 -0.06996419189232768
12500000 0.9963123011231685 -0.0703001122325878
