# HZ S RI R 50
5000000 0.7581974595931719 0.17742035262803638
5200000 0.7706947397195211 0.18491170877652763
5400000 0.7828770574888585 0.1831211695845976
5600000 0.793427962734443 0.17805419407800135
5800000 0.8038966111469363 0.17288269945036588
6000000 0.8146157620219129 0.16770449568268772
6200000 0.8240492378860589 0.1620919189015896
6400000 0.8334618054774852 0.15569798777486263
6600000 0.8420753155354357 0.14908674173545386
6800000 0.8507027069405428 0.14238735181751636
7000000 0.858991536186192 0.13635979551136884
7200000 0.8668273713684723 0.12905587423209472
7400000 0.8740549030861382 0.12192399562805792
7600000 0.8809243115797297 0.11440670507468895
7800000 0.8877793291763295 0.10733719850173681
8000000 0.8937217316056283 0.09974726601628296
8200000 0.8995256593767156 0.09224200884558872
8400000 0.9053714772652481 0.08451191381881804
8600000 0.9113160712817864 0.0770698757633269
8800000 0.9159624707650541 0.06940793660936481
9000000 0.9208662299130443 0.06122049325500642
9200000 0.925125031903945 0.0537805631405695
9400000 0.9294948359545406 0.04553325337763878
9600000 0.9333485713384421 0.038104845386064345
9800000 0.9368065390368695 0.02965292719313293
10000000 0.9405231348142687 0.02230682629805107
10200000 0.9440266948031086 0.01452237632358932
10400000 0.9468403930866501 0.006762288367006355
10600000 0.9500867963737545 -0.0011780271247925972
10800000 0.9523555648174743 -0.008679338994430318
11000000 0.9544341631432675 -0.0164423495601325
11200000 0.9571233052736872 -0.024340072258178445
11400000 0.9589159423520327 -0.031681219589769195
11600000 0.9609927087286069 -0.03968787432295931
11800000 0.9626105478389885 -0.04682170976277536
12000000 0.9641437984997455 -0.05480304892206337
12200000 0.9656104302868999 -0.06185259378563426
12400000 0.9667045757389894 -0.06960309410537834
12600000 0.9682820956588494 -0.07668974230535557
12800000 0.9690228881816013 -0.08420040325592512
13000000 0.9703219035789867 -0.0914789563783986
13200000 0.9711828331866741 -0.09890794611639957
13400000 0.9718016475590414 -0.10590723190915466
13600000 0.9719357413094798 -0.11290858714010664
13800000 0.9726267216202169 -0.12044859080007449
14000000 0.9729336115743124 -0.1270189165728356
14200000 0.9729079801831882 -0.13446463422037913
14400000 0.9733215547705283 -0.14114953940698138
14600000 0.973015870571204 -0.14826166763256063
14800000 0.9733159609700681 -0.15496544147295713
15000000 0.9728040801661958 -0.1618292558412737
15200000 0.9729842540593471 -0.16856864856014164
15400000 0.9721561991788616 -0.17519884751984893
15600000 0.9722410067628854 -0.1821874558432669
15800000 0.9714266644541925 -0.1884070646124191
16000000 0.9734921724967421 -0.19637451712433407
16200000 0.9699420736054333 -0.20208375540281975
16400000 0.9696738578820053 -0.20835422351697241
16600000 0.968992001580563 -0.21439536411030521
16800000 0.9677176900878381 -0.22118930151399377
17000000 0.9673738304942099 -0.22735666509714736
17200000 0.9658624410603024 -0.2336581148854508
17400000 0.9653829516150796 -0.24003627155220492
17600000 0.9637055797324068 -0.2461308099488033
17800000 0.9630265821545897 -0.2526711530535508
18000000 0.9614477825161134 -0.2583367466755314
18200000 0.9603664186251282 -0.2649830106625916
18400000 0.958965544832504 -0.270449068691129
18600000 0.9574882479062945 -0.276978892439891
18800000 0.9561885966107067 -0.28251621821358364
19000000 0.9542839809198348 -0.2887531143526128
19200000 0.9531232096769268 -0.29432355240568175
19400000 0.9510708950344448 -0.30022082980605685
19600000 0.950039382964014 -0.30601474786445493
19800000 0.9479437993153491 -0.31172310343144105
20000000 0.9459771054729484 -0.3172721610435589
20200000 0.9447151418428142 -0.32374925210918953
20400000 0.9430310485558193 -0.3291683229919908
20600000 0.9409462208661497 -0.3342551953791879
20800000 0.9387034102168129 -0.34028064077521863
21000000 0.9365712166673603 -0.34581397425466404
21200000 0.9349425478938996 -0.3514790296485155
21400000 0.9333310675388888 -0.3566935988151447
21600000 0.9308295944717435 -0.3622404096224497
21800000 0.9292535806788329 -0.36765806402885354
22000000 0.9265973256254979 -0.37288152709512923
22200000 0.9245209880858223 -0.37832928860141857
22400000 0.9224019145870694 -0.3836203783681237
22600000 0.9201329087604206 -0.3886347506438374
22800000 0.9177716995837601 -0.3939306609531335
23000000 0.9154995588607054 -0.39912484153055783
23200000 0.9131846367458925 -0.4043275827843029
23400000 0.9109321551062128 -0.4092604480718814
23600000 0.9080208354040966 -0.4144710079594429
23800000 0.9060032762109126 -0.4195508253446436
24000000 0.9031674806440072 -0.42436887405108376
24200000 0.9009853587604869 -0.429611419447886
24400000 0.8980701567036695 -0.4343425919938589
24600000 0.895507725822545 -0.43931750979497014
24800000 0.8927977643450009 -0.4442148400681079
25000000 0.8902822901657824 -0.44920580955925216
