# HZ S RI R 50
1000000 0.11970861376400635 0.3201175386111543 0.8453626399292912 -0.3738699701790167 0 0 0 0
1047500 0.13032359554322925 0.3311681636245096 0.8326291380865063 -0.3859515669006397 0 0 0 0
1095000 0.14113961355929278 0.34190069274148793 0.8198979906973116 -0.39719063028215223 0 0 0 0
1142500 0.15208895202687578 0.35208774004264154 0.8069271378313012 -0.40783771111543504 0 0 0 0
1190000 0.16321493471080065 0.3617718740045953 0.7939654414619158 -0.41805211539369663 0 0 0 0
1237500 0.17455260727980956 0.37087452650073094 0.7807540695241029 -0.427585663058382 0 0 0 0
1285000 0.18583159375419447 0.3796818038275683 0.7675938742378686 -0.4367325885154874 0 0 0 0
1332500 0.19731662394359914 0.3880641563817485 0.754065327220819 -0.445205369725013 0 0 0 0
1380000 0.20909361135016216 0.3960921670501325 0.7407865067876803 -0.4530703661100717 0 0 0 0
1427500 0.22076185093837244 0.40343069901778794 0.7274923653754998 -0.4605429366340976 0 0 0 0
1475000 0.23250112148322488 0.41029768685348983 0.7141311939078656 -0.4674773639284002 0 0 0 0
1522500 0.24419324106499263 0.41693529130290846 0.700909789992651 -0.47394141300602843 0 0 0 0
1570000 0.25604140950953197 0.42316854710063523 0.687621838536453 -0.47980870883286914 0 0 0 0
1617500 0.2678220044984119 0.42886792718923533 0.6746030107763688 -0.4851958000204145 0 0 0 0
1665000 0.27969006671135177 0.43423051458084166 0.6616406830685094 -0.4902554224396856 0 0 0 0
1712500 0.2913600721661896 0.4391950182847259 0.6487523401187174 -0.4949244774209449 0 0 0 0
1760000 0.30303244281735786 0.44372391236733244 0.6358362674663347 -0.4990194569616375 0 0 0 0
1807500 0.31478490628580447 0.44801220923833107 0.6231866919012549 -0.5027100206445092 0 0 0 0
1855000 0.3262875617614424 0.45190384655779586 0.6108520218637841 -0.5060227287399184 0 0 0 0
1902500 0.33783458867574273 0.4552981409643602 0.5984827940991053 -0.5090936777935791 0 0 0 0
1950000 0.34917934024431707 0.4585375512265701 0.5863405238184788 -0.5118131059598756 0 0 0 0
1997500 0.36055680484285924 0.46143031433042836 0.5742555666980186 -0.5140012209621455 0 0 0 0
2045000 0.3717917268775514 0.46395140362119736 0.5625262905842244 -0.516053878998852 0 0 0 0
2092500 0.3828926391842648 0.4661349567992132 0.5510108031791104 -0.5176739106121927 0 0 0 0
2140000 0.3939386753381342 0.4680632545966947 0.53952788539486 -0.5192229834277646 0 0 0 0
2187500 0.40460814079270974 0.4698072462577353 0.5281891718242763 -0.5203317493978806 0 0 0 0
2235000 0.4153200093931155 0.4712439669930821 0.5171133836027723 -0.5210951512683836 0 0 0 0
2282500 0.42603872966110573 0.4723424765543538 0.5064625194459116 -0.5217424450996337 0 0 0 0
2330000 0.43649006022775066 0.4732222585610825 0.49587386249151677 -0.5222044872980663 0 0 0 0
2377500 0.4467244592504073 0.473916293524732 0.4853618950499378 -0.522337816615493 0 0 0 0
2425000 0.45686262728045635 0.4742957927187747 0.4749883590767182 -0.522285287959267 0 0 0 0
2472500 0.46697823759022844 0.4744868248019496 0.4649731285357212 -0.5220564070715877 0 0 0 0
2520000 0.4767745273217946 0.4744093369039518 0.4552864421593277 -0.5215901102241118 0 0 0 0
2567500 0.48636841513202506 0.4742795448640988 0.44574367769107653 -0.5211246239110727 0 0 0 0
2615000 0.49590704630511995 0.4739148500842089 0.4361621212273341 -0.5204521238343969 0 0 0 0
2662500 0.5053291564714273 0.47339750528214725 0.4268648431533983 -0.5195642342543958 0 0 0 0
2710000 0.5145804751926778 0.4726370035753196 0.41780951566182034 -0.5184626442397506 0 0 0 0
2757500 0.5235549746333348 0.47164536325742523 0.4089285425790037 -0.5173619318475442 0 0 0 0
2805000 0.5321482132119079 0.470830035471832 0.40001965477057816 -0.5159544452873475 0 0 0 0
2852500 0.5411464413799373 0.4700086667318568 0.3916895975923161 -0.5142116622523668 0 0 0 0
2900000 0.5499474139983525 0.46871691522121783 0.3836701490102752 -0.5125784132842186 0 0 0 0
2947500 0.5584565012255719 0.4670907967485694 0.37565764794675927 -0.510998673833747 0 0 0 0
2995000 0.5667010813118859 0.4654601409759512 0.3677852703772557 -0.5093812015392466 0 0 0 0
3042500 0.574845088528648 0.46370900943503024 0.3600513388057871 -0.5075951334008126 0 0 0 0
3090000 0.5828437762882576 0.4620023939080067 0.35248879855522475 -0.5057681592718499 0 0 0 0
3137500 0.5907648443348791 0.4600729207043442 0.34503810307811666 -0.5037935885246403 0 0 0 0
3185000 0.5983565599895664 0.45803412576032165 0.3379644452065873 -0.5017298527505082 0 0 0 0
3232500 0.605932924520606 0.45601003982040234 0.3309948311423427 -0.4996309511533989 0 0 0 0
3280000 0.6134665043280829 0.45370483640428344 0.3240139336787979 -0.4975333266247819 0 0 0 0
3327500 0.6206172324884102 0.4515034589794354 0.3171621332804617 -0.49531177243540697 0 0 0 0
3375000 0.627653800361326 0.44910425026252515 0.31071241594309107 -0.49290323790003304 0 0 0 0
3422500 0.6345160140380665 0.446739036131713 0.30433168944395883 -0.49063511680290284 0 0 0 0
3470000 0.6414532374061197 0.44426326221765844 0.2980543157214816 -0.48837772638543525 0 0 0 0
3517500 0.648225063906368 0.44170912715979 0.2918092860764711 -0.4860124362429659 0 0 0 0
3565000 0.6548006228597847 0.43909857224416865 0.2857368851141179 -0.48354348270434927 0 0 0 0
3612500 0.6611424439313899 0.4364397475951977 0.2799995783615379 -0.4810831855193449 0 0 0 0
3660000 0.667372711312336 0.433769126711052 0.27429997440472104 -0.4786619083548861 0 0 0 0
3707500 0.6736221340078802 0.43108803744903695 0.2686598194565102 -0.4762207425693031 0 0 0 0
3755000 0.6796897017342022 0.42816050513383025 0.2631993441010876 -0.47362379887204886 0 0 0 0
3802500 0.6854918339882283 0.4253801918074674 0.25780097532541035 -0.4711064718519924 0 0 0 0
3850000 0.6912895972468837 0.4224892423257323 0.2526752129033747 -0.46852033514628977 0 0 0 0
3897500 0.697004644728543 0.41961802846610197 0.24765998752369084 -0.466059173710652 0 0 0 0
3945000 0.702658686468464 0.4166621432683251 0.24253324573435495 -0.46347363352839205 0 0 0 0
3992500 0.7081303997476703 0.41369974683681654 0.23761986355719822 -0.46088334623444666 0 0 0 0
4040000 0.7133723865969116 0.4106939183069716 0.232915703164857 -0.4582556857172107 0 0 0 0
4087500 0.7186638955278096 0.40778460131848837 0.22833523600746153 -0.4556494502623843 0 0 0 0
4135000 0.7238715318736048 0.4046000501890628 0.22369926542069524 -0.4531038642074878 0 0 0 0
4182500 0.728854778989424 0.40150676914489747 0.2192431354481353 -0.4504842866110266 0 0 0 0
4230000 0.7336686839572432 0.3984888536492154 0.21490730341196274 -0.4478777827863861 0 0 0 0
4277500 0.7385517270892851 0.3955551741219986 0.21067170159228252 -0.4452655772214207 0 0 0 0
4325000 0.7432585870606432 0.3923797597983132 0.20659343259584206 -0.44273987316995755 0 0 0 0
4372500 0.7479546326536916 0.3891462452849725 0.2024746914148506 -0.4401172986764193 0 0 0 0
4420000 0.7524197322421099 0.3859562202552542 0.1984488588739957 -0.4376022097734681 0 0 0 0
4467500 0.7568321191318017 0.38282787013708053 0.19459803936569128 -0.43495640994033186 0 0 0 0
4515000 0.761222415016114 0.37980627615540785 0.19083580566756478 -0.4324058181149317 0 0 0 0
4562500 0.7654268582327448 0.3767532870236067 0.1871207272624391 -0.429867069628722 0 0 0 0
4610000 0.76971794726929 0.3733757684074489 0.18344037019275955 -0.42735185870609266 0 0 0 0
4657500 0.7736893970524209 0.3701756912763962 0.17984430926842226 -0.4247641618708472 0 0 0 0
4705000 0.7776182523320331 0.36715409577215957 0.17646289942469875 -0.4221802111799128 0 0 0 0
4752500 0.7815170949721245 0.3640548545255905 0.1731077014411127 -0.4197694292871185 0 0 0 0
4800000 0.7854560787319059 0.36088681344256485 0.16975653863321738 -0.4172942842757266 0 0 0 0
4847500 0.789209765296103 0.357635895755504 0.1663894474354141 -0.4147458562914601 0 0 0 0
4895000 0.7927995895118816 0.3543413292345479 0.16320479318406572 -0.4122722736068171 0 0 0 0
4942500 0.7964349054254783 0.35137041599041663 0.16017195377481705 -0.4098244233586107 0 0 0 0
4990000 0.7999902477081736 0.34828568753730615 0.15717929376104803 -0.40739553950258744 0 0 0 0
5037500 0.8036415896621465 0.3450798335677487 0.1541214508491877 -0.4050003474921982 0 0 0 0
5085000 0.8069760517890889 0.34174702125934003 0.15107758901875595 -0.40247868241906465 0 0 0 0
5132500 0.8101793451813274 0.33867992872212266 0.1482893559808284 -0.40002849627950526 0 0 0 0
5180000 0.8134179215015763 0.3356416240297257 0.14558566336334292 -0.3976791335369731 0 0 0 0
5227500 0.8166813393628088 0.3325606115806551 0.14285047761423988 -0.3953475854229199 0 0 0 0
5275000 0.8198880006830291 0.3292556055228821 0.1400563222320683 -0.393028533570631 0 0 0 0
5322500 0.822841572896915 0.3261454920498148 0.13741686127089475 -0.39061805123048493 0 0 0 0
5370000 0.8257151780740984 0.3231141733362845 0.13485461530166393 -0.38832338220130275 0 0 0 0
5417500 0.8287618808126415 0.3201959443434988 0.13243756400057774 -0.38602019819256433 0 0 0 0
5465000 0.8317966625468809 0.3169847695069226 0.12980467561645517 -0.3837589817310769 0 0 0 0
5512500 0.8345862778273623 0.3138547806867325 0.12744364540639486 -0.3814417700646034 0 0 0 0
5560000 0.8372623882841915 0.31087374689586655 0.12504951886953722 -0.37911300754975746 0 0 0 0
5607500 0.8400725599494873 0.30788081881149754 0.12272972691123818 -0.3769595372118638 0 0 0 0
5655000 0.8427397704072686 0.30489209166229136 0.12051165351818352 -0.37472408600567586 0 0 0 0
5702500 0.8454764885646263 0.3017338415048978 0.11819856466076974 -0.3726015880523336 0 0 0 0
5750000 0.8478946453266338 0.2985317805857172 0.11600420472734184 -0.3703386997360967 0 0 0 0
5797500 0.8503915450602926 0.2956172641908047 0.11382074894031777 -0.3680411291398621 0 0 0 0
5845000 0.8529100043162344 0.2927794037609942 0.11180923599255006 -0.36599938045145264 0 0 0 0
5892500 0.8554018856962313 0.2897708770759816 0.10974130480741284 -0.3638912101227015 0 0 0 0
5940000 0.857757936165865 0.28661158650219054 0.10759614824324816 -0.36177369721655683 0 0 0 0
5987500 0.8599925468694949 0.28362728111193214 0.10563754646786158 -0.35961091952650365 0 0 0 0
6035000 0.8622995873410959 0.2808513491895082 0.10373881126021807 -0.3575013826393854 0 0 0 0
6082500 0.864570836192528 0.277908160977483 0.10181808564281233 -0.3555025458964017 0 0 0 0
6130000 0.8668894707456919 0.2750229957358057 0.09993271739856724 -0.35351881198423907 0 0 0 0
6177500 0.8689617968554164 0.2719156198307627 0.09808204502235751 -0.3514543022121491 0 0 0 0
6225000 0.8709110698940827 0.26906596189113036 0.09625064962567287 -0.3493141449563642 0 0 0 0
6272500 0.8730472221560478 0.26626007580240557 0.0945338256171925 -0.3473938343489298 0 0 0 0
6320000 0.875256220533875 0.2634064546391941 0.09278038612123758 -0.3454333175189136 0 0 0 0
6367500 0.877224957942553 0.2604216479124475 0.0909871320472501 -0.34342109623379335 0 0 0 0
6415000 0.8790759867937697 0.25753808576403625 0.08927737127095785 -0.3414493851653382 0 0 0 0
6462500 0.8809301652772462 0.254914163776249 0.08773150209746332 -0.33953453786370774 0 0 0 0
6510000 0.8828304286323018 0.2520926660627275 0.08607814986170914 -0.3376175311009042 0 0 0 0
6557500 0.8848243742903276 0.24927361736245232 0.0845545788831915 -0.3357605395698625 0 0 0 0
6605000 0.8865687702970733 0.24634382907985777 0.08282152046617632 -0.33391141480900743 0 0 0 0
6652500 0.8883075115121143 0.24359148406768763 0.08136011597941341 -0.33200571896986825 0 0 0 0
6700000 0.8900604063062545 0.24101145725256257 0.07992596191429252 -0.33008126972741497 0 0 0 0
6747500 0.8919313307874598 0.2383033621996767 0.07848834861525948 -0.3282627594953024 0 0 0 0
6795000 0.8937176088068469 0.23537889862044664 0.07698170519411446 -0.3264689520903598 0 0 0 0
6842500 0.8952625861759825 0.2325143442211093 0.0755684096353279 -0.3247164068211059 0 0 0 0
6890000 0.8968437800166527 0.22994228289129934 0.07423052656118309 -0.322821450304342 0 0 0 0
6937500 0.8983771563010924 0.22735704858052996 0.07286007320634648 -0.32110240890262304 0 0 0 0
6985000 0.9000858784740605 0.22460756792022266 0.07152044684311484 -0.319361605409593 0 0 0 0
7032500 0.9015862592292626 0.2218223496800723 0.07010724829683512 -0.3176501842385681 0 0 0 0
7080000 0.902959614028304 0.21914309417552558 0.06880586721833547 -0.3158360751751928 0 0 0 0
7127500 0.9044323331383191 0.21671947321155047 0.06749183800850915 -0.3140983394985144 0 0 0 0
7175000 0.9060307425152212 0.21411722408278633 0.06627948535741585 -0.3123883244152631 0 0 0 0
7222500 0.9075518283725696 0.21127487447116092 0.06501615947366149 -0.3108221845411732 0 0 0 0
7270000 0.9088388462046575 0.20860339566055408 0.06381139473504001 -0.30908485790362483 0 0 0 0
7317500 0.9100709278985548 0.2061313940174045 0.06265907897327086 -0.307424566323998 0 0 0 0
7365000 0.9114911257029432 0.20360643815785837 0.0614795063527598 -0.30578551430714124 0 0 0 0
7412500 0.9128591022701611 0.20100363198282292 0.06032321925973586 -0.3042268142779589 0 0 0 0
7460000 0.9142804789952533 0.19830577230899402 0.05912054957359851 -0.30259169660750956 0 0 0 0
7507500 0.9153769351066571 0.19574918708699246 0.05799010807266229 -0.3009067164745279 0 0 0 0
7555000 0.9165938923763367 0.19330261861111048 0.05694601990343924 -0.29938386061159844 0 0 0 0
7602500 0.9178897059004543 0.19089620257923226 0.05586893218160918 -0.2978082540818683 0 0 0 0
7650000 0.9192482044579143 0.18837659176361954 0.05476724738923562 -0.29634358477622846 0 0 0 0
7697500 0.9204439921219278 0.18571600400932653 0.05366869185890584 -0.2947279401214034 0 0 0 0
7745000 0.9214657643338573 0.18331500081510702 0.05268668321316758 -0.29320965526176024 0 0 0 0
7792500 0.9225297659221849 0.18103130949126994 0.05176713883423484 -0.2916042875944947 0 0 0 0
7840000 0.9238174660600397 0.17850032110324193 0.05075136378950493 -0.2901576426283059 0 0 0 0
7887500 0.924985578193692 0.17600444545807703 0.04968545174547174 -0.28872862901772695 0 0 0 0
7935000 0.9259242399961137 0.17354143625668858 0.04867430752287204 -0.28720387171228384 0 0 0 0
7982500 0.9269164702578314 0.17127963821594336 0.047756346428068974 -0.2857299528958556 0 0 0 0
8030000 0.9280593673779323 0.16897844785196942 0.04691599020567874 -0.2842898783529288 0 0 0 0
8077500 0.9292492207182821 0.16659321862905144 0.046015641107678466 -0.28286719828477985 0 0 0 0
8125000 0.930216449693388 0.16398278109306597 0.04500007757983232 -0.2814172263074769 0 0 0 0
8172500 0.931047254286611 0.16176876936789758 0.044190502196419026 -0.2799470135838639 0 0 0 0
8220000 0.9322064193985996 0.15929823343430566 0.04331039177167881 -0.2785847625152999 0 0 0 0
8267500 0.9331461140132827 0.15695244787611062 0.042425133642515836 -0.27719429161267933 0 0 0 0
8315000 0.9341490534457998 0.15447753189350244 0.041593806489643656 -0.27580612980824076 0 0 0 0
8362500 0.9349967747459442 0.15199962318886973 0.04063092459053372 -0.2744435429423324 0 0 0 0
8410000 0.9357825052988192 0.14974986132344761 0.039897664205206906 -0.2730149060484542 0 0 0 0
8457500 0.9367143708769291 0.14763815650689216 0.03907693971625552 -0.2716894188149324 0 0 0 0
8505000 0.9376623991063116 0.1452504334337582 0.03834778804131327 -0.2703964641438225 0 0 0 0
8552500 0.9385628781543658 0.1428818568249452 0.037477459907517476 -0.26910689793897313 0 0 0 0
8600000 0.9393392072424973 0.14055706266332324 0.03665982670186285 -0.26766801387454986 0 0 0 0
8647500 0.9400429049680961 0.13836742419877926 0.03595012970049779 -0.266425349009192 0 0 0 0
8695000 0.9410170430507953 0.13623730701731837 0.035209041680428155 -0.26508633942829535 0 0 0 0
8742500 0.9419340442317485 0.133890716437927 0.03449604128229041 -0.26387979146831914 0 0 0 0
8790000 0.9426401954249587 0.13152652077615337 0.033704054521490764 -0.26256907722133344 0 0 0 0
8837500 0.9432166152070545 0.12938982761062276 0.032967863631778956 -0.2612697156402999 0 0 0 0
8885000 0.9440351044109396 0.12732581985151456 0.032295086320159205 -0.2600125361183699 0 0 0 0
8932500 0.9449410474757745 0.12524506710984204 0.031647078808439914 -0.2588393712177331 0 0 0 0
8980000 0.9456935281583727 0.1228260341476146 0.030912636266441328 -0.25765641529494665 0 0 0 0
9027500 0.9464079513956225 0.12054886204882632 0.030192585550328683 -0.2563911761725971 0 0 0 0
9075000 0.9469884907174659 0.11854867265764173 0.029524622726892345 -0.2551415330864614 0 0 0 0
9122500 0.9477055499162981 0.11648716383378409 0.028911026869852155 -0.2540023635250715 0 0 0 0
9170000 0.948541840299491 0.11432314629963675 0.028273084780134718 -0.25285556698401185 0 0 0 0
9217500 0.9492566860042047 0.11195920914868523 0.02765196151748497 -0.2516616474457938 0 0 0 0
9265000 0.9497184472513895 0.10986244127262 0.026923394562080316 -0.25045328407835876 0 0 0 0
9312500 0.9502393644289262 0.10788517002938794 0.026334101751914706 -0.24927579128085195 0 0 0 0
9360000 0.9510618248205797 0.10582330727950867 0.025815194100693356 -0.24813703438324167 0 0 0 0
9407500 0.9517493451252436 0.10354751189293449 0.02520431346518493 -0.24701371401008612 0 0 0 0
9455000 0.9522353618188627 0.10143192100299332 0.024452435621697795 -0.24592004104623208 0 0 0 0
9502500 0.9527482817886836 0.09935068998394275 0.023868514013256244 -0.24471129476710535 0 0 0 0
9550000 0.9533823938882456 0.09740673325729818 0.023409536345709078 -0.24353333924386872 0 0 0 0
9597500 0.9541658278483756 0.09536995049809995 0.022844960403740767 -0.24250006085551953 0 0 0 0
9645000 0.9547533140398489 0.09309930136145989 0.022226870266928246 -0.24146076485720233 0 0 0 0
9692500 0.9551697457674007 0.09095424168166209 0.02161383065373759 -0.24032440246043646 0 0 0 0
9740000 0.955556913454072 0.08908400456611396 0.021074758068390122 -0.23920340090510045 0 0 0 0
9787500 0.9561757816678981 0.08718158022703029 0.02065975401397432 -0.23822151639089867 0 0 0 0
9835000 0.9567968112444686 0.0850792657123586 0.02011295020698136 -0.2371455614355163 0 0 0 0
9882500 0.957244339354674 0.08287101882992959 0.019528695309417476 -0.23608571327219185 0 0 0 0
9930000 0.9574851968943343 0.08082173497821037 0.018920464628278573 -0.2350035779327526 0 0 0 0
9977500 0.9580627689238577 0.07893189861906959 0.018509140119898713 -0.23387780750547316 0 0 0 0
10025000 0.9587648380906937 0.07706668899591332 0.017990793943593073 -0.23291186419340226 0 0 0 0
10072500 0.9593013978851427 0.07493492319235638 0.017403592317316814 -0.23196461839924734 0 0 0 0
10120000 0.959588793189159 0.07281282053609195 0.01684717463003329 -0.23087984414355678 0 0 0 0
10167500 0.9598574579253295 0.07096952093900545 0.016466812318052148 -0.22976670757438888 0 0 0 0
10215000 0.9603738431106575 0.06920734258192296 0.01604505657313598 -0.22882542949415752 0 0 0 0
10262500 0.9609766038250168 0.06726105890809622 0.015485472963865373 -0.22790298976000964 0 0 0 0
10310000 0.9613700985152019 0.0652159364361428 0.015038202396153777 -0.22690727149946732 0 0 0 0
10357500 0.9616681531623559 0.06320755267149845 0.014522574296303348 -0.22585743454274324 0 0 0 0
10405000 0.9620990537420084 0.06155400965380962 0.014118984521246998 -0.22484681065716508 0 0 0 0
10452500 0.9627070109542581 0.05969931316065885 0.013715890216650001 -0.22392395487972055 0 0 0 0
10500000 0.9633067985300926 0.05766486793771279 0.013218126465727389 -0.22302949594501675 0 0 0 0
10547500 0.9636719843656534 0.05552950633294353 0.012720945192781536 -0.2220465877478941 0 0 0 0
10595000 0.963907094585427 0.05377055375271016 0.01235526034814701 -0.22108894506449447 0 0 0 0
10642500 0.9642765034886581 0.05197402803457435 0.011955329575016774 -0.22014196335355818 0 0 0 0
10690000 0.9647611430813351 0.0501208283136943 0.01156568234559463 -0.2192394156626981 0 0 0 0
10737500 0.9652346201714405 0.048140855233505815 0.011113990169185881 -0.2183648333084323 0 0 0 0
10785000 0.9654146150971316 0.04611525327593094 0.010618495960689053 -0.21741567888668387 0 0 0 0
10832500 0.965676587632124 0.0444532073143351 0.010222305296058153 -0.216487766851153 0 0 0 0
10880000 0.9660884244049567 0.04269073741710059 0.009904741481789232 -0.21558092849635657 0 0 0 0
10927500 0.9666553900778325 0.040743924980432514 0.009547082206475141 -0.2147799267117378 0 0 0 0
