# HZ S RI R 50
1000000 0.1216790878472674 0.31394192653766795 0.8491977327688264 -0.36810074642058654 0 0 0 0
1047500 0.13250411839498646 0.3246928309876515 0.836731509284657 -0.3801111290660984 0 0 0 0
1095000 0.14369204982488049 0.33512184346422214 0.8242628552127751 -0.3913417309300664 0 0 0 0
1142500 0.15498442621737654 0.3449497239250289 0.8115246215641775 -0.4020662002913588 0 0 0 0
1190000 0.16645988538787151 0.35419390094027847 0.7988112114942038 -0.4123404250492514 0 0 0 0
1237500 0.17799610534587632 0.36288695521805214 0.7858457699850943 -0.42194754669948775 0 0 0 0
1285000 0.18973225242914374 0.37133560161892676 0.7728535429241461 -0.43110381071051235 0 0 0 0
1332500 0.201540019971489 0.3792998249204832 0.7597215976639399 -0.4396761511700751 0 0 0 0
1380000 0.2135765694022857 0.38687868514131474 0.74658894938251 -0.4475800920573248 0 0 0 0
1427500 0.22566210220455585 0.39378701527721505 0.733530803115803 -0.45506163029189806 0 0 0 0
1475000 0.23774969980691948 0.40026279312826407 0.7204179481821366 -0.46217460572582814 0 0 0 0
1522500 0.24986729536905575 0.4064299060560874 0.7073636257866914 -0.46869981266576644 0 0 0 0
1570000 0.26208519314696854 0.412203781738138 0.6942459482306554 -0.4746341845920312 0 0 0 0
1617500 0.274295423179087 0.417425169574261 0.6813865495909457 -0.4801401123575502 0 0 0 0
1665000 0.2865567791063334 0.4222439860436391 0.6685749207845951 -0.4853625201851246 0 0 0 0
1712500 0.2986632251191394 0.4266070903312804 0.6558774007432405 -0.49006018086750974 0 0 0 0
1760000 0.3107118640867599 0.4306715040505902 0.6430779105886044 -0.4943474254188144 0 0 0 0
1807500 0.32289102838063616 0.4343772949092175 0.6306161241961193 -0.49813169579261796 0 0 0 0
1855000 0.3348655740781767 0.4376802124521248 0.6183770419244446 -0.5016125464709544 0 0 0 0
1902500 0.3467788066828858 0.44054525182369575 0.6061791029350456 -0.5047781521678005 0 0 0 0
1950000 0.3585459765378839 0.44319006561508395 0.5941673785688507 -0.5077013725539811 0 0 0 0
1997500 0.3703732553855131 0.4454300978285759 0.5821236612946453 -0.5100508537084716 0 0 0 0
2045000 0.38203229992779836 0.4473650935289463 0.5705284852563502 -0.5121746855970962 0 0 0 0
2092500 0.39365604220259304 0.4488591815929557 0.5590654531285895 -0.5139728051316789 0 0 0 0
2140000 0.40498635735221516 0.4501811588679809 0.5477348384299441 -0.5156048554756845 0 0 0 0
2187500 0.4161196454962898 0.45108663799813503 0.536495739365544 -0.5168908899982116 0 0 0 0
2235000 0.4273537061608086 0.4518579124305536 0.5255221197592967 -0.5178493870963303 0 0 0 0
2282500 0.4384077984600176 0.45235445049602047 0.5148656979384609 -0.5185184745026262 0 0 0 0
2330000 0.4492993128162165 0.4525206926212887 0.504329416706633 -0.5191040541828438 0 0 0 0
2377500 0.45993409003158675 0.45246824693202814 0.4938590440184007 -0.5194743486977343 0 0 0 0
2425000 0.47057049037492393 0.45209147316856035 0.48358893650120705 -0.5195280903881395 0 0 0 0
2472500 0.4810376111518119 0.4516020012215042 0.47355377414370275 -0.519403937462945 0 0 0 0
2520000 0.4913461017989493 0.45073431618879173 0.46393299727163173 -0.5191226351368489 0 0 0 0
2567500 0.5013068138641095 0.4497538312287426 0.45443824759609663 -0.5187182702335796 0 0 0 0
2615000 0.5112982684485076 0.44860841652713035 0.4449116827335612 -0.5181582658688562 0 0 0 0
2662500 0.5210839607524665 0.44729594024096014 0.43562537217080854 -0.5173378626979446 0 0 0 0
2710000 0.5307000882926415 0.44569638327751115 0.42671892115751836 -0.5164130262248511 0 0 0 0
2757500 0.5401495080265746 0.4439715783595278 0.4179511488248256 -0.5153380768260668 0 0 0 0
2805000 0.5493888478076309 0.4420702520165398 0.40932339951322283 -0.5142016434992793 0 0 0 0
2852500 0.5585950913605426 0.44009267939449925 0.4007330933614739 -0.5129938655224463 0 0 0 0
2900000 0.5675915600327307 0.43791083070536374 0.3925294308401206 -0.5113580197682178 0 0 0 0
2947500 0.5763939061227935 0.4355574331252275 0.38453229826998053 -0.5098705787709547 0 0 0 0
2995000 0.584982910355231 0.43300478128947256 0.37654729474359866 -0.508287916162196 0 0 0 0
3042500 0.593473901853793 0.43040058263168623 0.36877702808299523 -0.5066366934635319 0 0 0 0
3090000 0.6017750968189703 0.4277244083016799 0.3611623071355969 -0.5048136080860043 0 0 0 0
3137500 0.610005593644145 0.4248720621101062 0.3537736569609415 -0.5029662693062243 0 0 0 0
3185000 0.6178614322597029 0.42196371300145236 0.34666024571439996 -0.5009659588771335 0 0 0 0
3232500 0.6257125074674896 0.4190176884045861 0.3396759452747081 -0.4989931513532495 0 0 0 0
3280000 0.6335344734673152 0.4157988822708695 0.33269071192892774 -0.49701016048385743 0 0 0 0
3327500 0.641095619280023 0.41262409276273515 0.3258165843502385 -0.49487194859767464 0 0 0 0
3375000 0.6483502778952146 0.4092786493577663 0.31930567921315045 -0.49259632574247486 0 0 0 0
3422500 0.6555980776730103 0.4059771675166095 0.31291301062151283 -0.49037118786356076 0 0 0 0
3470000 0.6627340923991952 0.40245337288321115 0.3066055653054208 -0.48817265282587785 0 0 0 0
3517500 0.6697918055944874 0.398871422494798 0.3003337366869202 -0.4859578318502639 0 0 0 0
3565000 0.6765103675313142 0.39523294638322054 0.29421775974605824 -0.48346068179052243 0 0 0 0
3612500 0.6830534776626467 0.39164627507582744 0.28842061094936583 -0.4810940348841399 0 0 0 0
3660000 0.6895839225285595 0.38798581744472593 0.2827242120399251 -0.4787648983304262 0 0 0 0
3707500 0.6961166151450555 0.384213595029471 0.2770935731648754 -0.4764438965625925 0 0 0 0
3755000 0.7023718012370666 0.3803547171618444 0.27154188604929896 -0.47391548599890104 0 0 0 0
3802500 0.7084057493570419 0.37652111446300984 0.26613576296868874 -0.47138940324982026 0 0 0 0
3850000 0.7144473814124245 0.37263447904774755 0.2609470503336663 -0.46892207504396927 0 0 0 0
3897500 0.7203323317702075 0.36869034604637935 0.2559113307144652 -0.4664854363422347 0 0 0 0
3945000 0.7261274098541763 0.3647402362988018 0.2508043239205142 -0.46396232037961904 0 0 0 0
3992500 0.731661829628879 0.36063815271694544 0.2458466246301029 -0.46148968589483025 0 0 0 0
4040000 0.7370633316262574 0.3565580812879709 0.24111790849317558 -0.458871152696566 0 0 0 0
4087500 0.742405385983801 0.35272771167075373 0.2364620397350008 -0.4563768156118961 0 0 0 0
4135000 0.7478623004598774 0.34854959708927286 0.2318833687706968 -0.4537980919471581 0 0 0 0
4182500 0.7529940755069575 0.3443391976312208 0.22736767319992013 -0.4513741858716765 0 0 0 0
4230000 0.7579851386538349 0.34022222882180886 0.22296137308078628 -0.44877938746767165 0 0 0 0
4277500 0.7629429466639717 0.33615790633255244 0.21865942294761792 -0.44614767415481676 0 0 0 0
4325000 0.7677272673041585 0.3319875031872746 0.2146039082481185 -0.4437112816228907 0 0 0 0
4372500 0.772589103785083 0.32771108927263676 0.21047994007610327 -0.4411879928325391 0 0 0 0
4420000 0.7770819625638448 0.3233867914507669 0.2062894798406803 -0.4386192445996233 0 0 0 0
4467500 0.7815399090751062 0.3192947460501336 0.20244652942074898 -0.43600994004323473 0 0 0 0
4515000 0.7859618529026842 0.31513082609257176 0.19875938423125047 -0.4335020877201239 0 0 0 0
4562500 0.79033221026044 0.31102380163052556 0.1949551519244271 -0.43108025252042936 0 0 0 0
4610000 0.7946808244451026 0.30665054161516475 0.1912432566576026 -0.42859951720099 0 0 0 0
4657500 0.7987710384385568 0.3023674651751576 0.18761146746489993 -0.4260496475231951 0 0 0 0
4705000 0.8026969562845239 0.2981829848501478 0.18415336036918903 -0.42345911343650533 0 0 0 0
4752500 0.8066439064982618 0.29401650411904506 0.18078071306786458 -0.42111564810670105 0 0 0 0
4800000 0.8106842084847715 0.2897035538642369 0.17737142150426727 -0.41864701491530426 0 0 0 0
4847500 0.8143765168455793 0.28533090336313455 0.17403028791341843 -0.4161982771967157 0 0 0 0
4895000 0.8178529767210988 0.2811039795071602 0.1708030299715379 -0.4136774486929713 0 0 0 0
4942500 0.8215314637911312 0.2769698195255402 0.16770750296510967 -0.4112267592664511 0 0 0 0
4990000 0.8251502348187962 0.27284272749075555 0.1646520531375616 -0.4089190387842458 0 0 0 0
5037500 0.8287466095915363 0.2685103558074169 0.16154663241147818 -0.4065102945697689 0 0 0 0
5085000 0.8321147085212429 0.26414043741762333 0.15850523662632843 -0.4039874627644909 0 0 0 0
5132500 0.8352490103730922 0.26006595726525267 0.15568559794665401 -0.40163033587792346 0 0 0 0
5180000 0.8385235877020898 0.25591478467499185 0.15290740702785466 -0.39928687584093364 0 0 0 0
5227500 0.8418116852021243 0.25163598487437183 0.1501174757741543 -0.3970204312302291 0 0 0 0
5275000 0.844934961957571 0.247293900339419 0.14735830569175096 -0.3946834153846762 0 0 0 0
5322500 0.8477732902012379 0.24304284233002615 0.14462103296509513 -0.39227417109900103 0 0 0 0
5370000 0.8506399265373498 0.23897144236693998 0.1420261365385518 -0.39003390543603106 0 0 0 0
5417500 0.85356305860227 0.23494676444573453 0.13960200587897406 -0.3878007597164776 0 0 0 0
5465000 0.8565537351021573 0.23066493508903554 0.13695849533451632 -0.38553295820427036 0 0 0 0
5512500 0.8593311076467265 0.2263982108879144 0.1345020486988594 -0.3832364917570141 0 0 0 0
5560000 0.8619005715603334 0.2222883177120671 0.13215838380036288 -0.3808938049607273 0 0 0 0
5607500 0.8645614524629825 0.2183105801237363 0.12984737321139944 -0.37875740043506356 0 0 0 0
5655000 0.8672299974603395 0.2141724154246989 0.12750680918435833 -0.37661775220158367 0 0 0 0
5702500 0.8698283373979678 0.209882277935974 0.12514149936333274 -0.3744832187883345 0 0 0 0
5750000 0.8720347209371333 0.20569664437927224 0.12294161446507111 -0.3722264150467572 0 0 0 0
5797500 0.8744866876126602 0.2016150812964631 0.12075114668462067 -0.3699904242835269 0 0 0 0
5845000 0.876854737853744 0.1977258486104099 0.1187042123487232 -0.36793853208749855 0 0 0 0
5892500 0.879283906219937 0.1936796303857827 0.11656168981757023 -0.3658489681223442 0 0 0 0
5940000 0.8814498506832561 0.18951125534394214 0.11440185232744161 -0.363728762355115 0 0 0 0
5987500 0.8835561862418474 0.1855028141321504 0.11248283660725315 -0.36163666841598874 0 0 0 0
6035000 0.8856954566070049 0.18159580977829567 0.11050351840549881 -0.35949034782303063 0 0 0 0
6082500 0.8878411713486188 0.17745757757305236 0.10852753407152611 -0.3574851993199093 0 0 0 0
6130000 0.8900385849225447 0.17341251290730714 0.10661966805442465 -0.35550914705316905 0 0 0 0
6177500 0.8919561684004971 0.1692890300580275 0.10472128314801465 -0.3534709064121025 0 0 0 0
6225000 0.8936453316966713 0.1654057954589511 0.10287161501124045 -0.35137516154992937 0 0 0 0
6272500 0.8956467985372472 0.16157289572749584 0.10114171308477143 -0.34941075741409783 0 0 0 0
6320000 0.8977067132260463 0.1576418622801445 0.09933565492445195 -0.3475287951213912 0 0 0 0
6367500 0.8995137568341286 0.15357716378252886 0.09763042583222531 -0.34558443434851915 0 0 0 0
6415000 0.9010790755202795 0.1496331116102667 0.09580200099603166 -0.3435617122158504 0 0 0 0
6462500 0.9028127336271384 0.14587268758157126 0.09421131246693912 -0.34164727792691085 0 0 0 0
6510000 0.9045850869675632 0.14197810888954207 0.09265731262527911 -0.33975120688190485 0 0 0 0
6557500 0.9064136696454066 0.13802004014536426 0.09101328674871323 -0.33790794188341033 0 0 0 0
6605000 0.9079288450321278 0.13399575813391051 0.0892896133785266 -0.3360261854929593 0 0 0 0
6652500 0.9093208856691766 0.13018588371448828 0.0877930006481966 -0.33410730214878076 0 0 0 0
6700000 0.9108638838775027 0.12652155593678927 0.08636413479129065 -0.33221421714994237 0 0 0 0
6747500 0.9124812606980297 0.12278103198645439 0.08486520212888328 -0.3304302811458278 0 0 0 0
6795000 0.9139821158253694 0.11891466112476888 0.08333598109829826 -0.32872053527100775 0 0 0 0
6842500 0.915331668808722 0.11498152908167178 0.08189803547862509 -0.32693498636248763 0 0 0 0
6890000 0.9166304808388325 0.11129523835728419 0.0805425260138818 -0.3250148965403017 0 0 0 0
6937500 0.9180737041749472 0.10762305607375557 0.07914283477379068 -0.32335870952841905 0 0 0 0
6985000 0.9195396164407804 0.10379061836406082 0.07772695101313597 -0.3216410295890832 0 0 0 0
7032500 0.9207352003578413 0.09990584710474282 0.07633894061345237 -0.31990655386151234 0 0 0 0
7080000 0.9217948060598256 0.09626065591520876 0.07497609387415138 -0.31805310289819805 0 0 0 0
7127500 0.922987922389565 0.09271426222326201 0.07365860758126697 -0.31636806680663626 0 0 0 0
7175000 0.9243024660323773 0.08911247861012614 0.072434911567479 -0.3146465553086556 0 0 0 0
7222500 0.9255125026426562 0.08531440276550946 0.0711521483348615 -0.3130814231620357 0 0 0 0
7270000 0.9265804912749379 0.08156338906816908 0.06991477666008732 -0.3114071593327216 0 0 0 0
7317500 0.9275853943245334 0.07803241191733822 0.06880409678017144 -0.3097051927503204 0 0 0 0
7365000 0.9287768835131196 0.0745692870896313 0.06758702367307039 -0.30802774821534384 0 0 0 0
7412500 0.9299098549153261 0.0707688550349449 0.06640392894132385 -0.30645436295739187 0 0 0 0
7460000 0.9309010510030061 0.06710852860754493 0.06513896113849406 -0.3049050132864947 0 0 0 0
7507500 0.9317045031387505 0.06343462481912543 0.06400916697155495 -0.3032397212294251 0 0 0 0
7555000 0.9325614598973393 0.05997692268880351 0.06297077191950172 -0.30166727424840856 0 0 0 0
7602500 0.9335846721987785 0.05658244733744789 0.06189875554318078 -0.30010503960491164 0 0 0 0
7650000 0.934619142201028 0.05299269822975029 0.06076661167405952 -0.2986979640277236 0 0 0 0
7697500 0.9354888400170179 0.04932074026757704 0.05963909727179097 -0.2970475188581493 0 0 0 0
7745000 0.9361670274281426 0.045849666653838425 0.058589312825647485 -0.29551332516650014 0 0 0 0
7792500 0.9371025588200429 0.04250118441725179 0.05762538984437825 -0.2939712328729133 0 0 0 0
7840000 0.9379967516647448 0.03895633257376096 0.05658390469982952 -0.29251103290586894 0 0 0 0
7887500 0.9388256247128337 0.03524301274892219 0.05555274339756847 -0.2911096930441283 0 0 0 0
7935000 0.9393893127410583 0.03181074515966997 0.05452614473315502 -0.28949854844928724 0 0 0 0
7982500 0.9400017397777661 0.028549600538775574 0.053592142235681275 -0.28815118217483854 0 0 0 0
8030000 0.9407892586325203 0.02524955964510157 0.052712187558437706 -0.2866379252046594 0 0 0 0
8077500 0.9416554372672707 0.021767628056145412 0.05178944975400461 -0.2852295076654404 0 0 0 0
8125000 0.9422281398799036 0.018199292129245172 0.050761247587107705 -0.28378336989375125 0 0 0 0
8172500 0.942683817987165 0.014987989413316272 0.04993605730455182 -0.28229783887690046 0 0 0 0
8220000 0.9434001595469383 0.011539086668847488 0.049030962179623876 -0.2809410629181928 0 0 0 0
8267500 0.944061557239701 0.008235289326095125 0.04815541864984791 -0.27957455295955824 0 0 0 0
8315000 0.9446877133153565 0.004743744336111833 0.04729435150719354 -0.2782253929240847 0 0 0 0
8362500 0.9451085546637424 0.0012803538903545034 0.04635126508634879 -0.2768607952662114 0 0 0 0
8410000 0.9455263775319619 -0.0019755733981371717 0.04546256393082031 -0.2753678952348123 0 0 0 0
8457500 0.946121855117285 -0.005101887600896464 0.04470965134388459 -0.2740904456594415 0 0 0 0
8505000 0.946740533427276 -0.008501548233364895 0.043949839387201955 -0.2728640614896396 0 0 0 0
8552500 0.9472548881614283 -0.011894765981078456 0.043111275393232285 -0.27150276934354906 0 0 0 0
8600000 0.9474684551603505 -0.01520644660141122 0.04225429161026583 -0.27007143998968924 0 0 0 0
8647500 0.9479019410618292 -0.01835922626941578 0.04158694717929705 -0.26881662670080314 0 0 0 0
8695000 0.9483958063537596 -0.021392778734351095 0.0407993967790869 -0.267491076062738 0 0 0 0
8742500 0.9489165714303042 -0.02475788099052351 0.04003490796826678 -0.26629049421016715 0 0 0 0
8790000 0.9492598421493051 -0.028163168908717645 0.03923791331076729 -0.26500972484998964 0 0 0 0
8837500 0.94950609197361 -0.031329687138767055 0.03853612294716161 -0.26372355909374084 0 0 0 0
8885000 0.9499205642555052 -0.03435373939409677 0.03779669985188733 -0.2625056010503917 0 0 0 0
8932500 0.9504279787808353 -0.03753862926468469 0.037120740454513516 -0.2613372650732829 0 0 0 0
8980000 0.9507087092347616 -0.040998429179910575 0.036376016280161155 -0.26009614930039104 0 0 0 0
9027500 0.9509373346324249 -0.044235218267658194 0.03562388930016995 -0.2588478179603405 0 0 0 0
9075000 0.9510056729022638 -0.047120596846593844 0.034940599384573445 -0.25754842377974735 0 0 0 0
9122500 0.9512298665961535 -0.05013706755777965 0.03431692916855949 -0.2563711557137011 0 0 0 0
9170000 0.9517234060189695 -0.0532740182489613 0.03369940921811442 -0.25526327961014283 0 0 0 0
9217500 0.9519535944267306 -0.0567529353183807 0.03298925003586197 -0.25410499699768313 0 0 0 0
9265000 0.9521176729641029 -0.05968438042930543 0.032289032245355946 -0.2529153319984422 0 0 0 0
9312500 0.9521758011693902 -0.06276076472555742 0.031691848554226756 -0.2517242748802463 0 0 0 0
9360000 0.9526156481141972 -0.06580045135923776 0.031128298171566128 -0.250627516991229 0 0 0 0
9407500 0.9528575630576369 -0.06901728469911529 0.030470686847929425 -0.249457424482477 0 0 0 0
9455000 0.952894561590646 -0.07228065920162763 0.029782421337699483 -0.24835673680921036 0 0 0 0
9502500 0.9528230209097864 -0.0751922358067208 0.029161760613215106 -0.24719022594553028 0 0 0 0
9550000 0.9529956935907989 -0.07805477192736995 0.02865506065120984 -0.24599253319883133 0 0 0 0
9597500 0.9533675290854654 -0.08098745389326584 0.028163423314465558 -0.24497594404973358 0 0 0 0
9645000 0.9534830076738635 -0.08428679354179767 0.027477801545848266 -0.24390109810588517 0 0 0 0
9692500 0.9533539594445928 -0.08731765153892763 0.026860858109167145 -0.24278215019809765 0 0 0 0
9740000 0.9533720260782128 -0.09016026555644206 0.026341049124679314 -0.24162743358235456 0 0 0 0
9787500 0.9536429212177302 -0.09308453698182742 0.025864326885435687 -0.24065217999061014 0 0 0 0
9835000 0.9537417168745825 -0.09623771573649918 0.025307942130753987 -0.2395590365246475 0 0 0 0
9882500 0.953679276589131 -0.09929330902193638 0.024680645286577152 -0.23852206878911422 0 0 0 0
9930000 0.953361301848912 -0.102338565959279 0.024138947654493224 -0.23738643774554555 0 0 0 0
9977500 0.9534859158311585 -0.10499001691366408 0.023629404341629055 -0.23635624497624896 0 0 0 0
10025000 0.9536732307825785 -0.10792248656816655 0.023120675257454867 -0.23536885306757319 0 0 0 0
10072500 0.9537517231323639 -0.11102388286125447 0.022544579275712375 -0.23443250891790876 0 0 0 0
10120000 0.9535356717036475 -0.11403944391156062 0.022066806930617987 -0.23335379710516843 0 0 0 0
10167500 0.9533628774263039 -0.11673775297335247 0.02159612086185341 -0.23229514233938894 0 0 0 0
10215000 0.953471862323183 -0.11952073475360855 0.021156417726350074 -0.2312815335500319 0 0 0 0
10262500 0.953638325818472 -0.12256244104702461 0.020638727751125227 -0.2304023022188355 0 0 0 0
10310000 0.9534476445673519 -0.125595234213457 0.0201126983224783 -0.22943861240465782 0 0 0 0
10357500 0.9530694706306487 -0.12847585007031845 0.019635855623976642 -0.22840252037811076 0 0 0 0
10405000 0.9529648294843986 -0.13104592424623682 0.019212859894787854 -0.22733864810707308 0 0 0 0
10452500 0.9530768060984427 -0.13390658066132705 0.018832195686270047 -0.22645240588682577 0 0 0 0
10500000 0.953062551690684 -0.13687133254742964 0.01829722225280345 -0.22553718939931222 0 0 0 0
10547500 0.952789606287766 -0.1398702420610635 0.01776970370295248 -0.22460597101154336 0 0 0 0
10595000 0.9526141950916801 -0.1425434708196769 0.017402806209171288 -0.22354504756210392 0 0 0 0
10642500 0.9524930388608341 -0.14525828183537268 0.016998907390224565 -0.2226880767288384 0 0 0 0
10690000 0.9524333061279896 -0.1481413312861801 0.01659551831061317 -0.2217735933072647 0 0 0 0
10737500 0.9523086085690291 -0.15112568488465417 0.016091431973381004 -0.2209177195660993 0 0 0 0
10785000 0.9518683595437593 -0.1539780557685369 0.015633479043734577 -0.21992060940237088 0 0 0 0
10832500 0.9515925592077447 -0.15658229258472048 0.015180016782672452 -0.21895864151287184 0 0 0 0
10880000 0.9515035605953904 -0.159172291006932 0.014858597668386726 -0.21810892835118037 0 0 0 0
