# HZ S RI R 50
1000000 -0.2697539198271516 0.9356090135493337
1172500 -0.1162876634074406 0.966951886185519
1345000 0.023636238027141324 0.9742239829535578
1517500 0.147854278042521 0.9638111875002324
1690000 0.25680789473416143 0.9419981262547614
1862500 0.35133680612391877 0.9128028010723572
2035000 0.4330729191931045 0.8782621905460869
2207500 0.5042727063647585 0.8413492794194436
2380000 0.5652884160309357 0.8035823652706584
2552500 0.6179639944014488 0.7651164899635877
2725000 0.6640844236837097 0.7269845440930114
2897500 0.7042535449631447 0.6903088719136862
3070000 0.7389028910802684 0.6547221653595949
3242500 0.7693292393107534 0.6196333865984279
3415000 0.7964810718535819 0.5865541156412768
3587500 0.8196979271646984 0.5548248512019154
3760000 0.8403707740413611 0.5236889403309546
3932500 0.8591849895360926 0.494453924265295
4105000 0.8753163646044506 0.4665028237964214
4277500 0.8894683064135686 0.43923929559489944
4450000 0.9027221536570122 0.41311474125382935
4622500 0.9143632931259464 0.3885571410273376
4795000 0.9240118047001222 0.36454567070620275
4967500 0.9334847038052387 0.3411141716401712
5140000 0.9418866951575434 0.31929783720562205
5312500 0.9486171994257351 0.2979390612388534
5485000 0.9553716223936777 0.2767292204107372
5657500 0.9615526330868792 0.2571919087660778
5830000 0.9663399563158045 0.23809635756075498
6002500 0.970879775195324 0.21876244464287548
6175000 0.9753789547363159 0.20090359362807522
6347500 0.978660837234715 0.18365593201382147
6520000 0.9816688977245214 0.16611389361546022
6692500 0.9849784088700937 0.1495992082894906
6865000 0.9873521678884812 0.1336988248223145
7037500 0.9890497407237332 0.11766184171902908
7210000 0.9912490411867949 0.10230210691477562
7382500 0.9928930027917152 0.08777544789570356
7555000 0.9939416683259259 0.07286723030806642
7727500 0.9949587909442744 0.05859473515952465
7900000 0.9956930780209154 0.04470967819379072
8072500 0.9962347627793449 0.030811362581198404
8245000 0.996676246338187 0.01766979568570939
8417500 0.9969708435772303 0.004431957036677978
8590000 0.9967646160722754 -0.008447743808322396
8762500 0.9967868479084793 -0.02096406134810857
8935000 0.9964124308892423 -0.033323987954274055
9107500 0.9959020172316627 -0.04548098130163432
9280000 0.9954297870768166 -0.05740960399721872
9452500 0.9946759165436908 -0.06921554262380943
9625000 0.9937418273074674 -0.08075312013882281
9797500 0.9928954021747436 -0.09213061726518433
9970000 0.9917999264201867 -0.10337086070349658
10142500 0.9903937170141397 -0.11430319596447049
10315000 0.9892610596658375 -0.1250098195527479
10487500 0.9878502744577913 -0.13575827706924276
10660000 0.9861970786301951 -0.14630830971700798
10832500 0.9847165621875148 -0.15677653104080352
11005000 0.982879829801484 -0.16699063573114173
11177500 0.9811553156077085 -0.17711329081951194
11350000 0.9793496809390209 -0.18714695956190724
11522500 0.9774682468123375 -0.19697059744205786
11695000 0.9753099901019838 -0.20659551946398544
11867500 0.9732470426502711 -0.21637223706184672
12040000 0.9710554440244603 -0.22591383838164622
12212500 0.9687432813074544 -0.23520489020602742
12385000 0.966452674243967 -0.2446147198326613
12557500 0.964109645922223 -0.25396052931547014
12730000 0.9615954789735753 -0.2627615257851656
12902500 0.9589895421204178 -0.2718780292266193
13075000 0.9564301864244552 -0.2809184304340807
13247500 0.9538259997083695 -0.28949145811643756
13420000 0.9510599314571576 -0.2982780401702171
13592500 0.9483030365126851 -0.3069578577834225
13765000 0.945381003148202 -0.3153740919432298
13937500 0.9424865078962946 -0.32392093238184494
14110000 0.9394794629226491 -0.33229129791285034
14282500 0.9364861906410417 -0.3405186567829367
14455000 0.9334642161538342 -0.3487267834520611
14627500 0.9303842384542031 -0.35698488443991366
14800000 0.9272098222768936 -0.3648859758550512
14972500 0.923976801025253 -0.37299826649451434
15145000 0.9206469895597861 -0.3809760922085632
15317500 0.917353825278515 -0.38873014290776015
15490000 0.9140059363728967 -0.3966598931813796
15662500 0.9104808300857581 -0.4041925131839693
15835000 0.9070647558264566 -0.4118400004478072
16007500 0.9035951851479815 -0.41947540296550684
16180000 0.8999139733684287 -0.4268837701619788
16352500 0.8963704843584527 -0.43436275571304567
16525000 0.8926891194249109 -0.44177651143888674
16697500 0.8888705198045185 -0.44906788227792527
16870000 0.8851962088921873 -0.45639221749651054
17042500 0.8813312934303763 -0.4636608404014036
17215000 0.8774620527281205 -0.4706568359711465
17387500 0.8735115833801074 -0.47787917852975154
17560000 0.8696362289883749 -0.48497683330980823
17732500 0.865473446947909 -0.49189391198296223
17905000 0.8615356610690558 -0.4988210875587249
18077500 0.8573735413311937 -0.5056801387822953
18250000 0.8533615909394452 -0.5123528524053408
18422500 0.8493617224766631 -0.5191823480190503
18595000 0.8451427761009349 -0.5259516290711964
18767500 0.840891713762991 -0.5322916138869759
18940000 0.83667022178914 -0.5390366675310908
19112500 0.832295633534116 -0.5456626370635811
19285000 0.8279999297052545 -0.5518609739065388
19457500 0.8236314341142262 -0.5584124598668767
19630000 0.8192193889629135 -0.5648503275046718
19802500 0.8147340571693823 -0.571020055345575
19975000 0.810156383226382 -0.5773500321226842
20147500 0.8057178044428348 -0.5836245730335391
20320000 0.8012207762555352 -0.5897360252903054
20492500 0.7963567028872307 -0.5958227938359678
20665000 0.7917848133887003 -0.6019641491065786
20837500 0.7869396961866397 -0.6077957434263925
21010000 0.7821458136813733 -0.6142230177594546
21182500 0.7776438113956995 -0.6198330313830117
21355000 0.772535425499082 -0.6254961324224545
21527500 0.767602558723609 -0.631638554379729
21700000 0.7631566596637815 -0.6373147876295234
21872500 0.7580386184447162 -0.6427536421205939
22045000 0.7528504341009609 -0.6487662077927578
22217500 0.7483422181285506 -0.6543167688837792
22390000 0.7432672927527615 -0.6596223986431221
22562500 0.7378470907493623 -0.665465389964584
22735000 0.7332515955777457 -0.6711531774617754
22907500 0.7281418109820217 -0.6761966270405451
23080000 0.7226369694558024 -0.6817021892402015
23252500 0.7176526633350218 -0.687304502404088
23425000 0.7126266315252039 -0.6922820559597518
23597500 0.7070866083730645 -0.6975978012495981
23770000 0.7018383097879446 -0.7031502617314599
23942500 0.6970067662684726 -0.7076731903231579
24115000 0.691560593014824 -0.7126290488752536
24287500 0.6862137822734421 -0.7180779524912836
24460000 0.6812277044299058 -0.7232173244303197
24632500 0.6753175603008471 -0.7278139265254446
24805000 0.669901921303155 -0.733011163543281
24977500 0.6647734283354605 -0.7377509287828424
25150000 0.6590203288985033 -0.7423277130627252
25322500 0.653239664436341 -0.7473920848270803
25495000 0.6480986206216289 -0.7523820589970557
25667500 0.6424519557087008 -0.7565908828021042
25840000 0.6365254500769563 -0.7613099856370017
26012500 0.6309951456696393 -0.7661594051849958
26185000 0.6254028426316848 -0.7702042537766074
26357500 0.6194719829034224 -0.7746598307097512
26530000 0.6139691913723374 -0.7794565577063053
26702500 0.6085484792755058 -0.7835433945983484
26875000 0.6023648852361738 -0.7877430338479469
27047500 0.5965923710053548 -0.7924461186887943
27220000 0.5911452357270063 -0.7964159606619549
27392500 0.5849940277678983 -0.8005499403765168
27565000 0.5789319987847704 -0.8051249531304102
27737500 0.5733725176782144 -0.8090869294908172
27910000 0.5672196931682402 -0.8128579906258218
28082500 0.5611846193847729 -0.8172038382145063
28255000 0.5555192465948817 -0.821158680105457
28427500 0.5493889952622101 -0.824733968368924
28600000 0.5430692890664041 -0.8289508882965271
28772500 0.5373980606549736 -0.8329523283729205
28945000 0.5313101932621744 -0.8364488533754191
29117500 0.5247582469477626 -0.8402064913479236
29290000 0.5188175302144903 -0.8441276137784622
29462500 0.5127727747335287 -0.8475089426845517
29635000 0.5062018876818519 -0.851165322098828
29807500 0.500192815549598 -0.8548946631866685
29980000 0.4942680140623196 -0.8582311772047955
30152500 0.48754273178607355 -0.861574899539458
30325000 0.48130762406707217 -0.865224460214988
30497500 0.47535026122384794 -0.8683974112497419
30670000 0.46876657963068125 -0.8714809866063457
30842500 0.46239139766809934 -0.8749427618757452
31015000 0.4564311404497356 -0.8781419317862298
31187500 0.4496700534692227 -0.881057346420754
31360000 0.443811548024011 -0.884271213956844
31532500 0.43734309714311465 -0.8872523614944972
31705000 0.4310001804921105 -0.8903968609673396
31877500 0.42461126001789357 -0.8934139289368362
32050000 0.4183471576939353 -0.8962141709725365
32222500 0.41170462309513156 -0.8991436680395679
32395000 0.4054590878765643 -0.9021382832489984
32567500 0.3990277324891161 -0.9047941871143135
32740000 0.3924794110758681 -0.9074473510453315
32912500 0.3862162634085644 -0.9103272200167954
33085000 0.379770606537776 -0.9128979369009145
33257500 0.3732487137812171 -0.9152941025799088
33430000 0.3663421341539336 -0.9179013831117783
33602500 0.3600797447273066 -0.9207343275413913
33775000 0.3535606405707192 -0.9228651711695972
33947500 0.34664653222385894 -0.9252672430143764
34120000 0.33991656117614694 -0.9280006845696809
34292500 0.33351807390461796 -0.9301922566554283
34465000 0.3264437217888791 -0.9323203781333245
34637500 0.3197393684288291 -0.9349773748034527
34810000 0.313303522142081 -0.9370953693843249
34982500 0.3062310966506853 -0.9390131306618866
35155000 0.29949072031864693 -0.9413985886302834
35327500 0.2930361162627924 -0.9431976959973583
35500000 0.2860054741974454 -0.9448493196561748
35672500 0.2787272838487875 -0.9470482579942372
35845000 0.2723058930006352 -0.9487124522600893
36017500 0.26571201017503215 -0.9502577589517973
36190000 0.25890464568548777 -0.9522183022151242
36362500 0.25239472341252966 -0.9542270412401832
36535000 0.245484150437955 -0.95576012845678
36707500 0.23850128508672883 -0.9573969021520299
36880000 0.23173497872292909 -0.9591386567827812
37052500 0.2250774851304799 -0.9604102618090616
37225000 0.21800137308899326 -0.9617332186447066
37397500 0.21107169824792843 -0.9637319166742108
37570000 0.2045350552539562 -0.9647767184268032
37742500 0.19728576673233061 -0.9659016592197573
37915000 0.19026426965095738 -0.9672113710458078
38087500 0.18391035349996526 -0.9682786514966465
38260000 0.1767942625782127 -0.9695031394052278
38432500 0.16956619049754612 -0.970831732718043
38605000 0.1629463459880116 -0.9718527675001208
38777500 0.15594620090699543 -0.9725063100832414
38950000 0.14887886854649157 -0.9734981244892852
39122500 0.14213741465940266 -0.9745289847064759
39295000 0.13525826801045102 -0.9750763076096663
39467500 0.12787954324601108 -0.9761379808121153
39640000 0.12127807627158925 -0.9769037748990912
39812500 0.11435762995776629 -0.977254958055033
39985000 0.1070567265225671 -0.9780385203231811
40157500 0.10044166427209654 -0.9787481088894785
40330000 0.0933993662955511 -0.9788674837488006
40502500 0.08608477305772845 -0.9794990951882417
40675000 0.07935721350175691 -0.9801569235935047
40847500 0.07255998516421082 -0.9801930436757605
41020000 0.06508433607727696 -0.9804937627031641
41192500 0.05835482847164157 -0.9810083046098956
41365000 0.05157827085961211 -0.980951563553194
41537500 0.04413169364842351 -0.9810620406786454
41710000 0.03719323887370943 -0.9815586098236673
41882500 0.03052641060106947 -0.9815646148523101
42055000 0.02305290201293085 -0.9812469613883398
42227500 0.015932887219455696 -0.9814998893403097
42400000 0.00923119455520486 -0.9814012651057505
42572500 0.001825548976146946 -0.9807263259564731
42745000 -0.005497284907675126 -0.9808541937943608
42917500 -0.012464506777372068 -0.9803493203959427
43090000 -0.019516741189427096 -0.9796603896227272
43262500 -0.026840677386085622 -0.9787882085036804
43435000 -0.03369690172954319 -0.9777553790028529
43607500 -0.03983407757156422 -0.9765731674058366
43780000 -0.04574812632867346 -0.9756918046623276
43952500 -0.05175786339238838 -0.9758629266013343
44125000 -0.05821849006304747 -0.9765127284959038
44297500 -0.06548013832485858 -0.976524929023839
44470000 -0.07300337792791316 -0.9762258496340877
44642500 -0.08013689306053677 -0.975797150463899
44815000 -0.08745749353583795 -0.9750248913733846
44987500 -0.0948990679273257 -0.9741580275448715
45160000 -0.1019049265238842 -0.9735536264122192
45332500 -0.1092392551398311 -0.9723327347616392
45505000 -0.11647608143558075 -0.9714291973411806
45677500 -0.12357251322338465 -0.9702733600410185
45850000 -0.13062500709337407 -0.9688598875883697
46022500 -0.13792440019276506 -0.9675602177168492
46195000 -0.14521899162817137 -0.9664852710231826
46367500 -0.15219689494419664 -0.9649539263309187
46540000 -0.1594355194977845 -0.9632473849602418
46712500 -0.16654108177051188 -0.9617635539977611
46885000 -0.17355812202718274 -0.9598040953026724
47057500 -0.18054400393395634 -0.95799799596329
47230000 -0.18746241418106116 -0.9560430936600778
47402500 -0.19437050002058487 -0.954054435755824
47575000 -0.20113563166751824 -0.951923027117392
47747500 -0.20804526416590557 -0.9499354733306971
47920000 -0.21462608923886858 -0.9479192039491675
48092500 -0.22127298020983846 -0.9453499590038444
48265000 -0.22787743391992638 -0.9430668656706244
48437500 -0.2343107945652852 -0.9407124238107294
48610000 -0.24040064122860635 -0.9380885872075023
48782500 -0.2466231413098525 -0.9355403246041367
48955000 -0.25250200401692835 -0.9336241364223002
49127500 -0.2583745834899816 -0.9312117392146865
49300000 -0.2646715900842374 -0.9291266734198169
49472500 -0.2707250288865822 -0.9270622247856566
49645000 -0.27659642387962036 -0.9244453996427108
49817500 -0.28263926228206515 -0.9221542449411899
49990000 -0.28835699251382135 -0.9202826374153967
50162500 -0.2937875668532427 -0.9182940653628058
50335000 -0.2996734241706906 -0.9162126946345542
50507500 -0.3063714942886759 -0.9146108055824974
50680000 -0.31237453000660936 -0.9130308334150842
50852500 -0.31898454315759195 -0.9108219485451851
51025000 -0.3260885327987899 -0.9086645595536306
51197500 -0.33275159093878565 -0.9065133522791124
51370000 -0.33918967552492535 -0.903726240517977
51542500 -0.3456802708824807 -0.9008562481198252
51715000 -0.3524042386223224 -0.8977571161621184
51887500 -0.3587112701601057 -0.8945202838536831
52060000 -0.36434760302929775 -0.8914645295174902
52232500 -0.3703350142125122 -0.8882600834511588
52405000 -0.3760778489002775 -0.88542644448237
52577500 -0.38172781570777764 -0.8826439739797176
52750000 -0.387621103547871 -0.8797647934920575
52922500 -0.3938298553179246 -0.8770640852074738
53095000 -0.399738841203549 -0.8743300979055176
53267500 -0.40583795383198307 -0.8709673789502209
53440000 -0.4121254903139244 -0.8676405374217373
53612500 -0.4177364537822213 -0.8645526702629692
53785000 -0.4231728647930783 -0.8608246463385556
53957500 -0.4289038135442912 -0.857179049842419
54130000 -0.4339141210604732 -0.8542303796136803
54302500 -0.43875742159035763 -0.8511422864329327
54475000 -0.44429713411669786 -0.84799873345909
54647500 -0.4497240159155215 -0.8457441100223488
54820000 -0.45494976899756473 -0.8430518459790298
54992500 -0.46085770372936014 -0.8400656715265405
55165000 -0.4668853142203791 -0.8377924401173041
55337500 -0.4725488527553964 -0.8351385537994457
55510000 -0.4788088104532652 -0.8317251087384349
55682500 -0.4853563384070754 -0.8292149951940372
55855000 -0.4912821013274107 -0.8260992403813978
56027500 -0.4976463583745814 -0.8221592083668308
56200000 -0.5043464732936139 -0.81880352704555
56372500 -0.5104844436918767 -0.8154510159374087
56545000 -0.516547365249588 -0.8110359159942999
56717500 -0.5229361025662858 -0.8071373378184734
56890000 -0.5288319682592544 -0.8035469709325669
57062500 -0.5343513931677614 -0.7992771498479776
57235000 -0.5404228167851066 -0.7952485592688114
57407500 -0.5462552085489104 -0.7917377272553312
57580000 -0.5517288859691788 -0.7875636298450259
57752500 -0.5580429168099198 -0.7833563733966725
57925000 -0.5640759552963759 -0.7796906112009363
58097500 -0.5697501786302446 -0.7755713239572306
58270000 -0.5757790570079251 -0.7709589038044928
58442500 -0.5817919245555349 -0.7665139151503703
58615000 -0.5872264040319843 -0.7621839836378247
58787500 -0.5928999384683207 -0.7573054139476697
58960000 -0.5988522859675763 -0.7527991568005538
59132500 -0.6040225307631945 -0.7483127179024383
59305000 -0.6094703091864745 -0.743493402386067
59477500 -0.615109066203743 -0.738567787334375
59650000 -0.62043413308928 -0.7342385735809539
59822500 -0.6254599118948151 -0.729220344208086
59995000 -0.6309710190756782 -0.7242363864930653
60167500 -0.6362773279031377 -0.7198437329794486
60340000 -0.6413935118598519 -0.7148196458306229
60512500 -0.6468079761566816 -0.7097177312592434
60685000 -0.6522394034647355 -0.7050103646025846
60857500 -0.6573933467284049 -0.6999940511204987
61030000 -0.6622962114266395 -0.6948250682549318
61202500 -0.6680547297047998 -0.6895167655834321
61375000 -0.6733114235249793 -0.6844668869415371
61547500 -0.6782367517003526 -0.6790871624015805
61720000 -0.6834282936470482 -0.6734916488024609
61892500 -0.6884455640947341 -0.668406025108318
62065000 -0.6934891058639125 -0.6626630685077493
62237500 -0.6986834644154288 -0.6568694061669068
62410000 -0.7037810303401625 -0.6512856186690437
62582500 -0.7083550201304186 -0.6456520980012279
62755000 -0.7132929604799091 -0.6396163780976212
62927500 -0.7182783075067046 -0.6337402417958926
63100000 -0.7228022480787158 -0.6279812588831281
63272500 -0.7274349695557568 -0.6219370097165268
63445000 -0.7321182367683597 -0.6158872382366332
63617500 -0.7367443474361007 -0.6099268640171578
63790000 -0.7411439287655294 -0.6037017341663113
63962500 -0.7456235459742351 -0.5974187589734808
64135000 -0.7501367038205651 -0.5913227903124755
64307500 -0.7542611022327744 -0.585042863353177
64480000 -0.7585070243641348 -0.5780898592776541
64652500 -0.7630341516901376 -0.5719771584654499
64825000 -0.766857118033598 -0.5657708749000545
64997500 -0.7707877350479829 -0.5590083615859449
65170000 -0.7751572774249326 -0.5526104265324586
65342500 -0.7790425478621557 -0.546407562042965
65515000 -0.7828054631016103 -0.5396399898650055
65687500 -0.7873643457350877 -0.5330193146093725
65860000 -0.7912795248634039 -0.5266897955747794
66032500 -0.795156813408012 -0.5196765015206187
66205000 -0.7997048186599118 -0.5126802190753995
66377500 -0.8040721442235649 -0.5059532342524384
66550000 -0.8078835876930656 -0.49861313290273396
66722500 -0.8123332367792617 -0.4908696061378793
66895000 -0.8167073058590634 -0.48337106542737407
67067500 -0.8204344438810038 -0.4755426178556864
67240000 -0.8246408726538624 -0.46713788479432844
67412500 -0.82891073737328 -0.45890981980993856
67585000 -0.8325955078527859 -0.4505781547498692
67757500 -0.8363997501006256 -0.4412775409410581
67930000 -0.8404720599974334 -0.43208961705084
68102500 -0.8439328417097233 -0.4227865813533701
68275000 -0.847302417865256 -0.4126696575396576
68447500 -0.8507118709270793 -0.4024013156361573
68620000 -0.8540701743678337 -0.3917865163806574
68792500 -0.857012876880691 -0.3804432220607439
68965000 -0.8597465409621208 -0.3687202027322979
69137500 -0.8622336394439886 -0.3563880912178543
69310000 -0.8646639753502879 -0.3433196687689269
69482500 -0.8664103128272372 -0.3294371824398895
69655000 -0.8677484656755341 -0.31442777872938377
69827500 -0.8686364997915693 -0.29811978030577546
70000000 -0.8684309204346878 -0.2801622911082954
