# HZ S RI R 50
1000000 0.9908317672448382 -0.10948940369349444
1047500 0.9894180300506601 -0.11535540774278132
1095000 0.9886239901622459 -0.12047806423495046
1142500 0.9879715269096441 -0.12582640291931124
1190000 0.9875401598145264 -0.13118793801488024
1237500 0.9869913608507251 -0.13665293512547674
1285000 0.9863711457333381 -0.1421113731911549
1332500 0.9855564691520105 -0.14789060319698036
1380000 0.9847017007721798 -0.15362682190456345
1427500 0.9835797022264567 -0.15933788532644755
1475000 0.9823921511740699 -0.16513127317858534
1522500 0.9812429003766437 -0.17125805336325883
1570000 0.9794387113507597 -0.17749291221828817
1617500 0.9777155296271818 -0.18343604389524754
1665000 0.9760557041413599 -0.1895690411615411
1712500 0.9741743620074246 -0.19616462183441258
1760000 0.9719200051289643 -0.20253820781497814
1807500 0.9699268622888947 -0.208547210560164
1855000 0.968553932603524 -0.21444610672613684
1902500 0.9674118605495331 -0.2208247327641393
1950000 0.9662434947897374 -0.22723587568365855
1997500 0.9651453914572308 -0.23359719661659936
2045000 0.9640240435914642 -0.24031053596255644
2092500 0.9626709274495429 -0.24704967516990967
2140000 0.9612671427766195 -0.2540524909793382
2187500 0.9595887772026285 -0.2613208590675837
2235000 0.957732200898888 -0.26852745553898766
2282500 0.9557375218113593 -0.27584137156672334
2330000 0.9537970846751067 -0.28339688310345323
2377500 0.9515927521638957 -0.29133009890285694
2425000 0.9489257559661662 -0.2992836646480532
2472500 0.9464391679814266 -0.30701826072894073
2520000 0.9438786709636884 -0.31521093526205063
2567500 0.9412167166846528 -0.323808267057724
2615000 0.9378994332876517 -0.3325108135058414
2662500 0.9345546477952718 -0.34087404579258235
2710000 0.9313682296416395 -0.349627622015013
2757500 0.927746539241051 -0.35876819142852995
2805000 0.9238154790695807 -0.3680732492634456
2852500 0.9196516338253831 -0.3772658489014636
2900000 0.9153555430945078 -0.38665764714623313
2947500 0.9110642987414455 -0.39618764223467223
2995000 0.9063405744964091 -0.4060892926077987
3042500 0.9014747435337724 -0.4161762761076647
3090000 0.89634640194105 -0.4265375384481679
3137500 0.8906815324889352 -0.43715200958458245
3185000 0.8851042037846782 -0.4479483984823903
3232500 0.8790897160961083 -0.4593029146463117
3280000 0.8723913941137231 -0.4709116759461239
3327500 0.8653845033780239 -0.4827040091959654
3375000 0.858236601992546 -0.4945040059922712
3422500 0.8507839109455414 -0.5072617969805655
3470000 0.8424408558916411 -0.5202372408386678
3517500 0.8335441496490055 -0.5332310861610339
3565000 0.8244079286466235 -0.5465562341152702
3612500 0.8147254641517562 -0.5607252742591237
3660000 0.8038156439340765 -0.5751746682557184
3707500 0.7923094273909271 -0.5898103544464514
3755000 0.7803007419975753 -0.6046812344384657
3802500 0.7674791887040047 -0.6203476424278644
3850000 0.753558112573906 -0.6364153889971319
3897500 0.7383558095235785 -0.652849008674089
3945000 0.7224562502412829 -0.6694762838885345
3992500 0.7051198439126762 -0.6866335982502753
4040000 0.6863773289932606 -0.7041278596424668
4087500 0.6665803693228121 -0.7221919842599784
4135000 0.6448838315146718 -0.7409306742624345
4182500 0.6212433553118698 -0.7595100233223097
4230000 0.5958698204594138 -0.7782109995073372
4277500 0.5687392633138969 -0.7972843227663773
4325000 0.5387786624209527 -0.8166890301736769
4372500 0.5063126262514894 -0.8357406098529464
4420000 0.4714155864515156 -0.8544643998372791
4467500 0.43365847457048085 -0.8730649339284124
4515000 0.39232213782153386 -0.8911622628952525
4562500 0.34725233818580725 -0.9081314792323569
4610000 0.2986202841563384 -0.9237523786277223
4657500 0.24598044637107308 -0.9374587310493108
4705000 0.18910382540046705 -0.9492937357057498
4752500 0.12754852958050805 -0.9579566484812535
4800000 0.06126357414458527 -0.963023025069559
4847500 -0.010079009747245803 -0.9635629560694345
4895000 -0.08588400901426603 -0.9580519335393043
4942500 -0.16620520945719672 -0.9458652801184136
4990000 -0.25063842124820207 -0.9255401461801548
5037500 -0.33834598132940846 -0.8953248244729334
5085000 -0.4276071929021831 -0.8539317988141226
5132500 -0.5174545241437889 -0.8006160098774001
5180000 -0.6054366027846791 -0.7338065942626011
5227500 -0.6888516853119446 -0.6529961982884384
5275000 -0.7650169697700302 -0.5584051620713141
5322500 -0.8308950541908543 -0.45052179123096314
5370000 -0.8833912299609215 -0.3311449877562993
5417500 -0.9199887465422117 -0.2029742522466616
5465000 -0.9389495552862169 -0.069149801604843
5512500 -0.9388432751374993 0.06646813834314798
5560000 -0.9201507770397341 0.1998283124439418
5607500 -0.8838563533494002 0.3274423627588617
5655000 -0.831890378012921 0.44590781354976644
5702500 -0.7669895735138385 0.5526486578958082
5750000 -0.692501485891341 0.6465122947023566
5797500 -0.6109833728017241 0.7266214603267185
5845000 -0.5250749913913667 0.7931672691243159
5892500 -0.4377890595800544 0.8465687983184318
5940000 -0.3507734242980953 0.8879530024639002
5987500 -0.2656748378069599 0.9189925724175658
6035000 -0.18359883188724352 0.940448090893896
6082500 -0.1051236859394156 0.9541533779831555
6130000 -0.030666833668934603 0.960624030467902
6177500 0.0388500702910562 0.9613985047217747
6225000 0.10371444913543168 0.9578723457454315
6272500 0.1641637609122208 0.9508016695816527
6320000 0.22049919393488443 0.940574228900573
6367500 0.2723289528324018 0.927978047790127
6415000 0.3201225194254048 0.9138174943257635
6462500 0.3645380246451826 0.8983046268318602
6510000 0.4052000578285429 0.8817124708449549
6557500 0.4427878649812719 0.8645489152111685
6605000 0.47760981145888026 0.8471646664135232
6652500 0.5096648277646442 0.8292873044458202
6700000 0.5392455108602704 0.8116533219671773
6747500 0.5666032737720091 0.7940372572573635
6795000 0.5920867608898458 0.7763184519622369
6842500 0.6152708010685441 0.7588112524702395
6890000 0.6370436981642323 0.7419572312785033
6937500 0.6573487597031905 0.7251274972692463
6985000 0.6761289509298678 0.7084994616910664
7032500 0.6934929862336353 0.6923832316968702
7080000 0.7099428742974054 0.6766703080706336
7127500 0.7250398522438087 0.6612121920026618
7175000 0.7391407055779268 0.6462665846816914
7222500 0.752336923994982 0.631789021640346
7270000 0.7647104370337936 0.6175389778662275
7317500 0.7764322727788648 0.6037868836637729
7365000 0.7871739594434788 0.5903999383498849
7412500 0.7975452403879243 0.5774056531685159
7460000 0.8070721732934194 0.5647575688714244
7507500 0.8160057977516919 0.5524233800868027
7555000 0.8244935570203683 0.5404443990228376
7602500 0.8325297391286443 0.5286793981849268
7650000 0.8399822897572006 0.5172587624745602
7697500 0.8470880266509728 0.5064013382851882
7745000 0.8539341592532388 0.4956339508324157
7792500 0.8604542400717433 0.48502881477099913
7840000 0.8661807999188971 0.47483546155161627
7887500 0.8719291647327138 0.46513242454449627
7935000 0.8775030419415383 0.4554189346360517
7982500 0.8825191179962988 0.4458103463210762
8030000 0.8873666748703767 0.436694472545719
8077500 0.8920281741505203 0.4279265547831134
8125000 0.896533846287745 0.41912864678883843
8172500 0.9006951037584987 0.41067484199728665
8220000 0.904598989712733 0.4023416277986314
8267500 0.9085075228057556 0.39402451903333185
8315000 0.9119244468329076 0.3860660275283319
8362500 0.9152868108551748 0.37849387741312
8410000 0.91879078359527 0.3709538784817663
8457500 0.92201262658522 0.3633563830420689
8505000 0.9248592421749094 0.35604197241007324
8552500 0.9276779299969157 0.3492154019919322
8600000 0.9305651669259821 0.3421918105987122
8647500 0.9331615961807465 0.3352791341390536
8695000 0.9354624033692504 0.3286844396430494
8742500 0.9378982947891115 0.3224152748609014
8790000 0.9403148752615073 0.31606282406104846
8837500 0.9424618373532653 0.30965386935785355
8885000 0.9445906393969574 0.303744652511718
8932500 0.9467192178692716 0.2977979340159044
8980000 0.9485874443839477 0.29189574856876993
9027500 0.9503601844676716 0.2862126490731401
9075000 0.9523106518771669 0.28049305189841506
9122500 0.9540928593901764 0.27488813393954
9170000 0.9555625076530766 0.2693386843834938
9217500 0.9570298833307531 0.2641763715523938
9265000 0.9587287695789491 0.2589817108792145
9312500 0.9603125067554951 0.25371243306246577
9360000 0.9615533719218465 0.24861262906330897
9407500 0.9627948821461241 0.2438653692131114
9455000 0.9643428219321922 0.2389949988300541
9502500 0.9655420948827586 0.23397553080622854
9550000 0.9667226582031756 0.22934196355369488
9597500 0.9678390396939232 0.22479048032614327
9645000 0.9689226014988522 0.2201025908879249
9692500 0.9699073596521154 0.21561650546837582
9740000 0.9711073423671949 0.21130644385507757
9787500 0.9722096221580242 0.20677684963970422
9835000 0.9729885246607175 0.20248977155895329
9882500 0.9738799002441819 0.19842940335042486
9930000 0.974965857641626 0.19425098627721926
9977500 0.9758875140855312 0.18994444924146506
10025000 0.9765578409119079 0.18583156024283085
10072500 0.9772232101548476 0.18200096915157724
10120000 0.9782357446158605 0.1781234954071229
10167500 0.9790330605189911 0.1740428485635029
10215000 0.9795035474244113 0.17011554018765354
10262500 0.980076848846551 0.16656918715427071
10310000 0.9809353178947501 0.16286336628734965
10357500 0.9815820788434017 0.1591463219230943
10405000 0.982081455325684 0.1555306923104664
10452500 0.982775743523614 0.15200621477079748
10500000 0.9833615607266374 0.14845334082918438
10547500 0.9838936175260562 0.14500338106317004
10595000 0.9844044997443462 0.14174185907533357
10642500 0.9850079729673573 0.13811828205068974
10690000 0.9855229454875101 0.1347159393136351
10737500 0.9857905423757204 0.13156924782064625
10785000 0.9865343420659531 0.12843765948117858
10832500 0.9871634287947832 0.12502177754152116
10880000 0.9874888617882819 0.12165730750401008
10927500 0.9877017894734403 0.11859033145695397
10975000 0.9882273832012725 0.11560320613884856
11022500 0.9887353982691232 0.11232254578201986
11070000 0.9889505716407663 0.10919755128014011
11117500 0.989121374040609 0.10618292996452298
11165000 0.9896707394787558 0.10326196728686224
11212500 0.9900950961363401 0.10031100499845971
11260000 0.990387161334385 0.09728063286475938
11307500 0.990635805058966 0.0944253772871958
11355000 0.9908901023766805 0.0913816634000582
11402500 0.9911257787388534 0.08855880697713207
11450000 0.9913767557922872 0.08594625131131238
11497500 0.9918609367472686 0.08305603464007826
11545000 0.9920741916868518 0.07998082591572965
11592500 0.992074378708558 0.07728116034720152
11640000 0.9923820862123599 0.07478053558855725
11687500 0.9928200450041016 0.07196107204630117
11735000 0.9929799183831163 0.0690715666887137
11782500 0.9929699289316295 0.06644066065730646
11830000 0.9931447895372834 0.06411057502931904
11877500 0.9936056686416003 0.061482893116720776
11925000 0.9936584497090933 0.05861467900591616
11972500 0.9938133988051453 0.05618181636363694
12020000 0.9939467170688128 0.05374932410200641
12067500 0.9941031549989705 0.05114977184309612
12115000 0.9941606209139846 0.048695586241904724
12162500 0.9943233678345917 0.04625438825636901
12210000 0.9945438935932193 0.04369079483026821
12257500 0.9945454828264215 0.04119192239677388
12305000 0.9946390145048605 0.03900460143593696
12352500 0.994850107430826 0.03656568410505472
12400000 0.9950319215930379 0.033974895056434286
12447500 0.9948776164755286 0.031561929150955445
12495000 0.9948734538515778 0.029490215212896416
12542500 0.9951458015664164 0.027301328050223412
12590000 0.9953205999059255 0.024726989712983184
12637500 0.9952029585055991 0.022370658915296777
12685000 0.9950610744482181 0.02019477536338365
12732500 0.9953164205710239 0.018167544391039313
12780000 0.9954562569431965 0.01573787341166317
12827500 0.9954554750455192 0.01349633709546839
12875000 0.9954395406133162 0.011388570428707256
12922500 0.9955748063976894 0.009285970099743005
12970000 0.9955314277422667 0.007072118542503587
13017500 0.9956038230253759 0.00485388606929532
13065000 0.9957308836717274 0.0026005464274666784
13112500 0.9956895242444476 0.00041357635132720173
13160000 0.9956147916020968 -0.0015567315739869524
13207500 0.9956578974716771 -0.003566318370968858
13255000 0.9957317230446101 -0.005815829675767267
13302500 0.9956780939642078 -0.008144555520055158
13350000 0.9954942859786494 -0.010087517799326463
13397500 0.995441963550012 -0.01195390775084226
13445000 0.9956876797229186 -0.014158499337786018
13492500 0.9956090716563646 -0.0163667627807326
13540000 0.9952635012473221 -0.018262132964340184
13587500 0.9952863614302363 -0.019978474196299934
13635000 0.995478255460036 -0.022042769190788115
13682500 0.99543103567792 -0.02424490231013004
13730000 0.9952086673008432 -0.02613755108434819
13777500 0.9952580093699994 -0.0279897914250608
13825000 0.9952968993486069 -0.029969738113454766
13872500 0.9952074218383078 -0.032036932660616795
13920000 0.9950858964484847 -0.03388106472167639
13967500 0.9951448180483898 -0.035865394865731134
14015000 0.9949646279706305 -0.03778529262199398
14062500 0.9949261740158462 -0.039636285389992545
14110000 0.9948990613234354 -0.04143402563017482
14157500 0.9948889368190146 -0.04345488258562075
14205000 0.9945986098662909 -0.045385557194074805
14252500 0.9944632610559183 -0.04701991809044818
14300000 0.9946217104122812 -0.048851551617408034
14347500 0.9946642322323582 -0.05088199042790399
14395000 0.9943215406683088 -0.05291729731300988
14442500 0.994118793682406 -0.054495335205005754
14490000 0.9942083320942432 -0.056216112809550134
14537500 0.9941620127483968 -0.05819910736221634
14585000 0.9939076903466403 -0.060165094374857314
14632500 0.9937174890980862 -0.061791676534063714
14680000 0.9936578643748747 -0.06339415735446771
14727500 0.9936737869081826 -0.06536817112790465
14775000 0.9935007987971782 -0.06724222714164758
14822500 0.9932615070814215 -0.06890275267400585
14870000 0.9931198859327838 -0.07059648447649126
14917500 0.9929175082712306 -0.0723317372045809
14965000 0.9928086047571234 -0.07399331460555252
15012500 0.9927655357228123 -0.0755691761592577
15060000 0.9927518039672966 -0.07747014926539936
15107500 0.9923910296196308 -0.07907425032722733
15155000 0.9922582106252951 -0.08067608740595675
15202500 0.992321212467266 -0.08237811605197577
15250000 0.99209001322852 -0.08430829087822592
15297500 0.9918426246314409 -0.08601808005208118
15345000 0.9915620359438491 -0.08741077906580293
15392500 0.9916317842796777 -0.08895759546721432
15440000 0.991625440161012 -0.09087585326699377
15487500 0.9912755163347609 -0.09268520579407069
15535000 0.9909895149482059 -0.0941954621066509
15582500 0.9909998846159979 -0.09570029951108881
15630000 0.9909691141737634 -0.09749423565729712
15677500 0.9906178405916893 -0.09929488645412683
15725000 0.9902039954372198 -0.10086760751958938
15772500 0.9901708855145411 -0.1022912801238448
15820000 0.9899920233688532 -0.10405174271279959
15867500 0.9896768416495502 -0.10568912392652911
15915000 0.9894815520119502 -0.10726606156535524
15962500 0.9892179170604299 -0.10885300892536401
16010000 0.989041320075359 -0.11039841019986661
16057500 0.9888681076190814 -0.1119010699400395
16105000 0.9888385277560378 -0.11352671233515069
16152500 0.9885223221058359 -0.11520618166618027
16200000 0.9882113879461605 -0.11659334073315876
16247500 0.9880955221424114 -0.11783739491308637
16295000 0.9881195690504206 -0.11953243616195208
16342500 0.9878381247922033 -0.12131384504924601
16390000 0.987497105233947 -0.12253062548357585
16437500 0.9874832324283448 -0.12388065419724517
16485000 0.9875199725637039 -0.1255921742825559
16532500 0.9873209531965342 -0.12717299601859525
16580000 0.986964441110987 -0.1286237299592602
16627500 0.9867834949581484 -0.1300965977945461
16675000 0.9867131308570692 -0.13165799341488602
16722500 0.986366055299304 -0.13319551647633787
16770000 0.9862604237713244 -0.13458469379631843
16817500 0.9860511419514939 -0.13625710019550252
16865000 0.9858342397574391 -0.13767899092619412
16912500 0.9856691477135056 -0.13911210461944004
16960000 0.9856328949770932 -0.1406129704098416
17007500 0.9853506764630262 -0.14243195695396968
17055000 0.9848615288316784 -0.14380382490457858
17102500 0.98463860822037 -0.1449760123039935
17150000 0.9846188912426312 -0.1465279421314534
17197500 0.9843862681179947 -0.14825593321692712
17245000 0.983879502120419 -0.1497540300184103
17292500 0.9836899471956873 -0.15094341864044208
17340000 0.9835703486853213 -0.15248289561045597
17387500 0.9833851999996915 -0.15404228506661963
17435000 0.9829338495230219 -0.15547536251279057
17482500 0.9827499976226045 -0.15681325629068063
17530000 0.9824892775987986 -0.15812424709633993
17577500 0.9823528270654167 -0.15982078853162085
17625000 0.982022613607234 -0.16117867388795626
17672500 0.9818016581398697 -0.1626794411798252
17720000 0.9813855220822244 -0.164126460746881
17767500 0.981027206660074 -0.16541504275936553
17815000 0.980926266803252 -0.16674892728627938
17862500 0.9808061715098116 -0.16835479931098707
17910000 0.9803133223210093 -0.16998591373990557
17957500 0.9798575777173273 -0.1711325868923819
18005000 0.9797483068817576 -0.17242793249483143
18052500 0.9796268146559814 -0.1741003955619233
18100000 0.9790650630333784 -0.1754372437743687
18147500 0.9786517406486828 -0.1765075926017734
18195000 0.9785237541146766 -0.17783432060346815
18242500 0.9782757302835416 -0.17948477298008833
18290000 0.9778132627303899 -0.18096159543992277
18337500 0.977400663090442 -0.18218488566011354
18385000 0.9771134738467592 -0.18343034576321354
18432500 0.9768925333384387 -0.18488905187079815
18480000 0.976509773659067 -0.18622705317591212
18527500 0.9761471567125726 -0.18747702455694784
18575000 0.9757495707061529 -0.18885995259709418
18622500 0.9755055052327598 -0.19020452654484346
18670000 0.9750476213176711 -0.19147928303588826
18717500 0.9748249615685115 -0.19289103018468082
18765000 0.9742497246434532 -0.19430978713280542
18812500 0.9737607336190741 -0.19528842372767558
18860000 0.9735120990060546 -0.19629325681518806
18907500 0.9733281291639713 -0.1977447074026491
18955000 0.9727979266877198 -0.1991309819397398
19002500 0.972254719398836 -0.20020137167052932
19050000 0.9719730605839779 -0.201205821852668
19097500 0.97184160035986 -0.20246213453356368
19145000 0.9713528935893118 -0.20396633017843854
19192500 0.9706574339525367 -0.20510099014189656
19240000 0.9704267116121874 -0.20583427458281292
19287500 0.9702515232646995 -0.20702758617839676
19335000 0.9699004753843399 -0.20832366517054984
19382500 0.9695289704235273 -0.20938099189820011
19430000 0.9692389643626291 -0.2104465517886224
19477500 0.9689323313270282 -0.21151005674881126
19525000 0.9687886069514808 -0.21271710000054164
19572500 0.9685643360415344 -0.2137113406500676
19620000 0.9683973987985326 -0.2148919437580972
19667500 0.9681293095138 -0.2160754398519787
19715000 0.967890034479558 -0.2170442731618822
19762500 0.9679639463811193 -0.21808797797591228
19810000 0.9676907387662348 -0.2194306721531888
19857500 0.9673876634571504 -0.22066820126450604
19905000 0.9670752392860151 -0.22161403363700372
19952500 0.967212484062431 -0.22261261820483697
20000000 0.9672482153264134 -0.22402397078638303
