# HZ S RI R 50
1000000 0.12154813147578225 0.32138923131848474 0.8309783353703372 -0.39885892532977885 0 0 0 0
1047500 0.13209416814174696 0.3325117103975669 0.817471494829244 -0.4116551030244347 0 0 0 0
1095000 0.14297631926262672 0.3431145219676361 0.8036291163813807 -0.4236962810653801 0 0 0 0
1142500 0.15400459632674407 0.3533442905798653 0.7897027829063523 -0.4350679018377643 0 0 0 0
1190000 0.1652635990999145 0.36298458853259513 0.7754959056462898 -0.4458745207831699 0 0 0 0
1237500 0.17661774063143643 0.37216707277648103 0.7612886113668063 -0.456114335286159 0 0 0 0
1285000 0.18797544924642332 0.38091307775491284 0.7468142171002212 -0.4657112407580682 0 0 0 0
1332500 0.1994785900564083 0.3893194857726831 0.7325520208561525 -0.4748032258558142 0 0 0 0
1380000 0.2111740166982902 0.39725396128807955 0.7182631867650535 -0.4832227976915999 0 0 0 0
1427500 0.22295815606198485 0.4046127740680025 0.7038359123692091 -0.49100753570170375 0 0 0 0
1475000 0.23470791034870894 0.4114801900681568 0.6895001737274775 -0.4983181922036925 0 0 0 0
1522500 0.24653285867960031 0.4181346835892189 0.6751080220632255 -0.5050361581997506 0 0 0 0
1570000 0.2583023239484305 0.4243374349491133 0.6609730781979183 -0.5112436448832989 0 0 0 0
1617500 0.2701485131837645 0.4301623850027796 0.6468445082661349 -0.5169815156116379 0 0 0 0
1665000 0.28203608765748134 0.4353841815348325 0.6327599074135919 -0.5222108143039769 0 0 0 0
1712500 0.2936949310757053 0.44032019701384256 0.6188235654439711 -0.5270987786624646 0 0 0 0
1760000 0.3054538362146541 0.44489812934608153 0.6050508357586275 -0.5313620548259016 0 0 0 0
1807500 0.3171874612253427 0.44921334505744637 0.5915456937385762 -0.5352753783603712 0 0 0 0
1855000 0.3288647778789632 0.45307286525856505 0.5780259092917015 -0.5387983906602707 0 0 0 0
1902500 0.34035594907835426 0.45649351599837185 0.5647685679549118 -0.5419087053147054 0 0 0 0
1950000 0.35173235546033993 0.45957122320496224 0.5515978456182142 -0.5445996448304282 0 0 0 0
1997500 0.3630555014853353 0.4625212836874341 0.5387183016457914 -0.5468736765168397 0 0 0 0
2045000 0.3744201146939311 0.46508990662539546 0.5260633126891077 -0.5488465986907775 0 0 0 0
2092500 0.38560188921055766 0.46730330213180593 0.5135483488532038 -0.5506637585252312 0 0 0 0
2140000 0.39637806455751634 0.46916314377973584 0.501163844837744 -0.5520888939255936 0 0 0 0
2187500 0.4073707550319173 0.4708651820287939 0.4890423141365632 -0.5530215631524105 0 0 0 0
2235000 0.4180877088673952 0.47231457084193373 0.4771987618458619 -0.5538482163468588 0 0 0 0
2282500 0.4287487856515196 0.47347578911248345 0.4656187608730389 -0.5543790896444377 0 0 0 0
2330000 0.43918631653165174 0.47430223106108044 0.45411539559263436 -0.5547161561196348 0 0 0 0
2377500 0.4493717960029255 0.47495742301789184 0.44279518086448677 -0.5547294653956236 0 0 0 0
2425000 0.45954793346718487 0.4753864177542131 0.4318127619117297 -0.5545126275572446 0 0 0 0
2472500 0.46965346565014915 0.4757120539056836 0.4210038093506376 -0.554093677460802 0 0 0 0
2520000 0.4795931095669691 0.4755704010214202 0.41043372985430904 -0.5535319863791099 0 0 0 0
2567500 0.4892405372669087 0.4753993899314105 0.4000588408463063 -0.5527693101168529 0 0 0 0
2615000 0.498763296375295 0.4750974187944006 0.3898829413574529 -0.5518823505302464 0 0 0 0
2662500 0.5081269185612082 0.47458910154303086 0.3798819864829343 -0.5506832285275897 0 0 0 0
2710000 0.5175000892583654 0.47380512614288245 0.3701462469801698 -0.5493764843988216 0 0 0 0
2757500 0.5265680055629441 0.47294352051832267 0.3607808550793089 -0.5480345580696534 0 0 0 0
2805000 0.5354697219560993 0.4718664622166456 0.3513025537036511 -0.5464927583081195 0 0 0 0
2852500 0.5441927290701353 0.4708100594118059 0.34216857591660654 -0.5448322678071158 0 0 0 0
2900000 0.5528584612945608 0.46947100968162936 0.3333666234244971 -0.5429485075074676 0 0 0 0
2947500 0.561421140921809 0.4680124604686568 0.3246693139689784 -0.5410511842385299 0 0 0 0
2995000 0.5696354229208503 0.4663275300400543 0.31617935099244776 -0.5391631669732045 0 0 0 0
3042500 0.5777418990941285 0.4646900615261092 0.3077874221054997 -0.537012438876283 0 0 0 0
3090000 0.5857075450528456 0.46300522771034097 0.29964702893052386 -0.534844255341318 0 0 0 0
3137500 0.5936723252185047 0.46108122154469466 0.2917597273565157 -0.5324762152293886 0 0 0 0
3185000 0.6014526275632786 0.45899818411799415 0.28396217543247804 -0.530211626898221 0 0 0 0
3232500 0.6088865702535738 0.45684206634076063 0.2763604115523659 -0.5278140177253519 0 0 0 0
3280000 0.6162527200355539 0.4548127215308165 0.26884747745008536 -0.5252917641831724 0 0 0 0
3327500 0.6236270156097858 0.4526021143833578 0.2616049451118168 -0.5227219943763273 0 0 0 0
3375000 0.6307252415892936 0.4501864190109162 0.2546175545761324 -0.5201212828485948 0 0 0 0
3422500 0.6376814819378336 0.447633928646136 0.24765007932045485 -0.5175705866454362 0 0 0 0
3470000 0.6445272825502992 0.4452955858811738 0.24083386128754708 -0.514899691780213 0 0 0 0
3517500 0.6512085853447365 0.4427983351466985 0.23422412915383267 -0.5120854431909687 0 0 0 0
3565000 0.6577954526352102 0.440208504991679 0.22779697782295968 -0.5093439399972599 0 0 0 0
3612500 0.6643395782228205 0.4375133612372942 0.22153043366627884 -0.5066050893638655 0 0 0 0
3660000 0.670510029150772 0.4348318378761907 0.2153175895053111 -0.5037814962194094 0 0 0 0
3707500 0.676717723098702 0.4320384076953657 0.20930721067083705 -0.5008640742619489 0 0 0 0
3755000 0.6827987349192303 0.4292990285194178 0.20335691863685265 -0.49799937280631945 0 0 0 0
3802500 0.688909173967959 0.4265018483914552 0.19765245679458748 -0.4951300650707213 0 0 0 0
3850000 0.6945752290882619 0.42350237041149763 0.19209487605628547 -0.49223440759867093 0 0 0 0
3897500 0.7002145027002687 0.4206484803419522 0.18654557902918506 -0.48939449780136646 0 0 0 0
3945000 0.705807385251095 0.4177034285101393 0.18115573078902844 -0.4864629723314193 0 0 0 0
3992500 0.7113371289050591 0.41482768936667574 0.17599309155769546 -0.4834097318372573 0 0 0 0
4040000 0.7166836675292848 0.4117923757122552 0.17094081704201453 -0.4805002824984803 0 0 0 0
4087500 0.7219891736181477 0.40875859311212204 0.1658485315404654 -0.477588998440101 0 0 0 0
4135000 0.7270363287110019 0.40562812293361883 0.16092227747463841 -0.4746620402160905 0 0 0 0
4182500 0.7321371525737834 0.4026645061152216 0.15615678425880672 -0.4716761647066787 0 0 0 0
4230000 0.7369564127911957 0.3995843838083384 0.15160234609187617 -0.46860587556347905 0 0 0 0
4277500 0.741818410489127 0.39649462661386947 0.14703838647638368 -0.46570886233377745 0 0 0 0
4325000 0.7464956065477493 0.393363786109864 0.14254323331265528 -0.46287564257881725 0 0 0 0
4372500 0.7511469547346445 0.3902245506742127 0.13810640509924768 -0.4598509861478922 0 0 0 0
4420000 0.7557852585898281 0.38719703844893205 0.13388614369513419 -0.4569298189777054 0 0 0 0
4467500 0.7602435917033616 0.38405568791029393 0.12972544199370137 -0.4540073954632676 0 0 0 0
4515000 0.7645460921055814 0.38085134954590283 0.1257660380833473 -0.4510472970160063 0 0 0 0
4562500 0.7688094850074793 0.3776269450654638 0.12165959555843134 -0.44817849393848425 0 0 0 0
4610000 0.7729865708244356 0.3746356153717449 0.11776242143077677 -0.4452700553795355 0 0 0 0
4657500 0.7770864850111328 0.371535370488633 0.11398834901677261 -0.44231175143509527 0 0 0 0
4705000 0.7811056551227944 0.3682829482060197 0.11027469658646029 -0.4394496433994819 0 0 0 0
4752500 0.7851436094639314 0.3650914306294177 0.10666401016625346 -0.43666025366732625 0 0 0 0
4800000 0.7888288119274149 0.3619788712214454 0.10307413894664182 -0.4337059789002765 0 0 0 0
4847500 0.7925994084207796 0.3588587507045917 0.09955687232014776 -0.43076453009348303 0 0 0 0
4895000 0.796398181234901 0.3557152669469413 0.09620714523923803 -0.427943198168996 0 0 0 0
4942500 0.8000445745143383 0.35253394392238047 0.09290026041876459 -0.42519306380000843 0 0 0 0
4990000 0.80357302112256 0.34942363011434285 0.0896074891119772 -0.4223712038168936 0 0 0 0
5037500 0.8070478718519262 0.346275417991423 0.08639885247233359 -0.41953252495804316 0 0 0 0
5085000 0.8104441490030757 0.34310818184003633 0.08327879762886581 -0.41669550517910164 0 0 0 0
5132500 0.813889512125251 0.3400256713618695 0.0802931840055191 -0.41394911867483264 0 0 0 0
5180000 0.8170961449072174 0.33680854632076845 0.07727984030701571 -0.4113060693143286 0 0 0 0
5227500 0.8202799883843908 0.3337186951934597 0.0743225282513268 -0.40855173984391085 0 0 0 0
5275000 0.8233452233986535 0.33063235032664395 0.07152153168245183 -0.40580857594295955 0 0 0 0
5322500 0.8265450000802641 0.3275726945391383 0.0686969179308675 -0.4031717427526916 0 0 0 0
5370000 0.8296364145063455 0.3243577769703458 0.06594071235316962 -0.4004613763609304 0 0 0 0
5417500 0.8326474965935166 0.3212403821333807 0.06327259013779896 -0.39780174302318044 0 0 0 0
5465000 0.8353669445851595 0.31822250734962737 0.06068052848844779 -0.39518746557239215 0 0 0 0
5512500 0.8382998610083473 0.3152101277888072 0.058014905117334634 -0.3924709504450099 0 0 0 0
5560000 0.8410402228376632 0.3121038886934428 0.055597135786291337 -0.38987763811803733 0 0 0 0
5607500 0.8438455383327219 0.309008623073148 0.05314077628924387 -0.3873678096610162 0 0 0 0
5655000 0.846591874655798 0.3059948460245214 0.05064490417363222 -0.3848581918505264 0 0 0 0
5702500 0.8491209203640785 0.30296087638696945 0.048207973367754973 -0.3822596504724517 0 0 0 0
5750000 0.8517561484134026 0.300027498667833 0.045962947439760767 -0.37964832432289003 0 0 0 0
5797500 0.8543237556838609 0.2969706532747348 0.04373706347274895 -0.37725275338754266 0 0 0 0
5845000 0.856805049864207 0.2939057748273975 0.04145751707916286 -0.3747341211483266 0 0 0 0
5892500 0.8591675453077474 0.29094998179449727 0.03922763047655981 -0.37230597675929983 0 0 0 0
5940000 0.8614974288031761 0.2880751576027295 0.03708833176483049 -0.3697617308167335 0 0 0 0
5987500 0.863979005752159 0.2850678824578605 0.035118825146493664 -0.36737278926360994 0 0 0 0
6035000 0.8662411620140557 0.28204963305020686 0.03307863128570108 -0.3649906857481628 0 0 0 0
6082500 0.8684451525699738 0.27915217925123603 0.03099339488610611 -0.3625528248301545 0 0 0 0
6130000 0.8706223251460404 0.2762584732315661 0.029055690379235073 -0.3602312786345406 0 0 0 0
6177500 0.8727827548465305 0.27343768868082363 0.027165949774615256 -0.35785798498815596 0 0 0 0
6225000 0.8750586089159565 0.2705381989500806 0.025309689566348156 -0.3555418090827982 0 0 0 0
6272500 0.8771969157019841 0.26754591142302575 0.023355967094589633 -0.3532641417364916 0 0 0 0
6320000 0.8791976142418065 0.26466742184467956 0.021456855339082592 -0.35097771514358067 0 0 0 0
6367500 0.8810666089167449 0.2618843499161959 0.019774157373913873 -0.3485634462260001 0 0 0 0
6415000 0.8831735281772465 0.2590562625389563 0.01804473504953743 -0.3464210798604173 0 0 0 0
6462500 0.8850431031461965 0.25615447520618095 0.016323120617553803 -0.3441847886588351 0 0 0 0
6510000 0.8869411932672495 0.2532829857308892 0.01460795893540621 -0.3419662831848704 0 0 0 0
6557500 0.8887173249573564 0.25048692433929737 0.012926132278804368 -0.3397115195339458 0 0 0 0
6605000 0.8905708350878284 0.2478192650482489 0.01133465988599946 -0.33748727043273474 0 0 0 0
6652500 0.8923589610709707 0.24494161409848964 0.009744708189797141 -0.33533763480039797 0 0 0 0
6700000 0.8941918235363446 0.2421348945376086 0.008170485221902375 -0.3331800124479646 0 0 0 0
6747500 0.8958412987096734 0.23941969583772926 0.006615778629109145 -0.3310422747353748 0 0 0 0
6795000 0.8975224363132102 0.23677024209168757 0.005031608928005302 -0.3288634246701172 0 0 0 0
6842500 0.8991765580478803 0.23407376713204758 0.00368321462113797 -0.32672592072473094 0 0 0 0
6890000 0.9008887990344625 0.23128334679665652 0.0022686931894349135 -0.3247087767913715 0 0 0 0
6937500 0.9024633477773919 0.22849915130360196 0.0008439396751362603 -0.3226212996953216 0 0 0 0
6985000 0.9039436780025051 0.22584433119379257 -0.0006010107398167004 -0.3205444897584535 0 0 0 0
7032500 0.9055426887973811 0.22342393670942884 -0.0019392515111512822 -0.3184514418851649 0 0 0 0
7080000 0.9071716053370188 0.2206264873516751 -0.003253699903210833 -0.31648979709646663 0 0 0 0
7127500 0.9087420794692899 0.21790434504906797 -0.00453360277294934 -0.3144133113833456 0 0 0 0
7175000 0.9101383221711818 0.21522806028322725 -0.00585906589011624 -0.31253335884775724 0 0 0 0
7222500 0.911498091924693 0.21273978731119914 -0.0072135107725209285 -0.31054411596861026 0 0 0 0
7270000 0.9130661146938246 0.2101211572797681 -0.008342798198014973 -0.3085005982580584 0 0 0 0
7317500 0.9143897850127627 0.20753676809723956 -0.009533560155543904 -0.3065620969765185 0 0 0 0
7365000 0.9158281729922633 0.20490603894084047 -0.010737914941340342 -0.30471709599712066 0 0 0 0
7412500 0.9171327724522295 0.20232622129970895 -0.011897132545359701 -0.3027700055684452 0 0 0 0
7460000 0.9183778761053885 0.19979977503775587 -0.013040920077769197 -0.30085410254348066 0 0 0 0
7507500 0.9197137053570785 0.1972370088898873 -0.014215418811141698 -0.2989086348583277 0 0 0 0
7555000 0.9209785138876788 0.19471975444422412 -0.015308482767062065 -0.29714280615029165 0 0 0 0
7602500 0.9221589128778628 0.1922009354069204 -0.016361821293793762 -0.2953546955751884 0 0 0 0
7650000 0.9233837292914356 0.18956320126646142 -0.017431581444555103 -0.29342647288539864 0 0 0 0
7697500 0.9246672632855455 0.18725935053665124 -0.018537679006903753 -0.2915794624085013 0 0 0 0
7745000 0.9257909290772467 0.18473624576316244 -0.019471933581152706 -0.28981147406948937 0 0 0 0
7792500 0.9270514649828396 0.18222334062971313 -0.020508091798340077 -0.28805544582250614 0 0 0 0
7840000 0.9281387797219615 0.17988198658093968 -0.02156004530402445 -0.2863968264224289 0 0 0 0
7887500 0.9291391116176 0.17741251869633184 -0.0225318690824192 -0.2844798800777213 0 0 0 0
7935000 0.930377307054895 0.17494282692521693 -0.02347269402733123 -0.2828183654810842 0 0 0 0
7982500 0.9314747693667782 0.172507246000829 -0.024302814676867256 -0.2811428373443951 0 0 0 0
8030000 0.9324173873325632 0.1700034248970187 -0.02533165652742557 -0.27940841263091604 0 0 0 0
8077500 0.9334957135031515 0.16766680123345412 -0.02625322796070654 -0.2777020673958158 0 0 0 0
8125000 0.9344849273395355 0.1653785787502638 -0.027162218808863693 -0.27602395164256277 0 0 0 0
8172500 0.9355953241235212 0.16288676028325555 -0.02797513094356593 -0.2743794123341485 0 0 0 0
8220000 0.9366477249861412 0.1605323678172487 -0.028825423092811907 -0.272730907711775 0 0 0 0
8267500 0.9374164476976381 0.15811588998326545 -0.029670716898188336 -0.271024889007983 0 0 0 0
8315000 0.9383542675739406 0.15593560265738066 -0.03057881211990599 -0.26940531780139854 0 0 0 0
8362500 0.9393721731466268 0.15354662119904466 -0.031313299528121924 -0.2677234895387934 0 0 0 0
8410000 0.9403501574070704 0.1511994001661774 -0.03215032123314153 -0.2661108770741788 0 0 0 0
8457500 0.9411391684564404 0.14884185648499423 -0.032911025998043124 -0.26456035693055246 0 0 0 0
8505000 0.9420361815892898 0.14651789289527464 -0.033726876964065566 -0.26289876254716693 0 0 0 0
8552500 0.9429020327341694 0.14422837040927006 -0.03447727896412339 -0.26133557311933403 0 0 0 0
8600000 0.9437962345034113 0.1418734224990551 -0.035271218729764534 -0.25977845949473793 0 0 0 0
8647500 0.9446706736465521 0.13971764155625446 -0.035943958639084686 -0.2582851174873049 0 0 0 0
8695000 0.9454640958023444 0.13738562561571394 -0.03676459412325866 -0.256675323981238 0 0 0 0
8742500 0.946139587123787 0.1351947441516121 -0.03742137739621148 -0.2551880848860504 0 0 0 0
8790000 0.9470271717480956 0.1330466021749441 -0.03810229500041019 -0.2536623192250554 0 0 0 0
8837500 0.947802057576201 0.1307099675945298 -0.038736122697286386 -0.2521111201665153 0 0 0 0
8885000 0.9485880158500074 0.1285483179523477 -0.039404863339707136 -0.2507031575176765 0 0 0 0
8932500 0.9492362395349254 0.1262745781219582 -0.04009393661526563 -0.24921538769788454 0 0 0 0
8980000 0.9499593525746968 0.12421658949777853 -0.040761654113770106 -0.24773848573959747 0 0 0 0
9027500 0.9507784180000374 0.12202674195297858 -0.041390815432412534 -0.2462265273621565 0 0 0 0
9075000 0.9515282296496446 0.11982548629355542 -0.041958069103053074 -0.24480788431857547 0 0 0 0
9122500 0.9522184588769786 0.11759749887316728 -0.04264082094064821 -0.2435233980677741 0 0 0 0
9170000 0.9528485008777886 0.11545050560216856 -0.043285899291394835 -0.24198129839396643 0 0 0 0
9217500 0.9536293555004466 0.11342017424365139 -0.04387121962730589 -0.24053668864389272 0 0 0 0
9265000 0.9542643611302478 0.11126131314306355 -0.04438722462381611 -0.2391963178130138 0 0 0 0
9312500 0.9548192881242764 0.1090534903870769 -0.04501037536830317 -0.23778575447142436 0 0 0 0
9360000 0.9554332432057862 0.1070654529546311 -0.04560593224376578 -0.23646021450465943 0 0 0 0
9407500 0.9561495801884962 0.10494746434718022 -0.04616458143341263 -0.2350667493507423 0 0 0 0
9455000 0.9566508539871905 0.10284990740382491 -0.04668241195081267 -0.23375830126033018 0 0 0 0
9502500 0.9574202186925622 0.10079091874019759 -0.0472475217723631 -0.23239913339996549 0 0 0 0
9550000 0.9579942972507347 0.09863530095211209 -0.04778148531339677 -0.23106101027930642 0 0 0 0
9597500 0.9584942380456972 0.09651758181256387 -0.04833256517484122 -0.2297501228988342 0 0 0 0
9645000 0.9590529617437201 0.09452050453827367 -0.04881772875490343 -0.22835956931007476 0 0 0 0
9692500 0.9596749945057732 0.0923918300032045 -0.04929191920863635 -0.22713099813857862 0 0 0 0
9740000 0.9602285726392229 0.09041602344116206 -0.0497796629127917 -0.2257972515327064 0 0 0 0
9787500 0.9607762428653489 0.08834428212766676 -0.05026139742211014 -0.22457555798005457 0 0 0 0
9835000 0.9613199506821243 0.08621807306102668 -0.0508118896325073 -0.22323822254387052 0 0 0 0
9882500 0.9618022351153136 0.08422389629324932 -0.05128090780686619 -0.2219587342215523 0 0 0 0
9930000 0.9621821131674059 0.08224319357776438 -0.051719767641494295 -0.22068522647579758 0 0 0 0
9977500 0.9627375106001272 0.08030022553977918 -0.0520916095156628 -0.21953685047839777 0 0 0 0
10025000 0.9632628953360219 0.07829530294920233 -0.05257861973774976 -0.21826297481132165 0 0 0 0
10072500 0.9637283167247428 0.07616065237507573 -0.05307675451428484 -0.21702968668652867 0 0 0 0
10120000 0.9642256593100554 0.07416375814345046 -0.053517661970856605 -0.21572792649793177 0 0 0 0
10167500 0.9646290386617841 0.07224313485529664 -0.05384845044542594 -0.21456634839665215 0 0 0 0
10215000 0.9649573185044987 0.07032277215209093 -0.05429503868159379 -0.2133207069783866 0 0 0 0
10262500 0.965579372294582 0.0683844666553855 -0.05476668172551538 -0.21212216171772322 0 0 0 0
10310000 0.9659059501252019 0.06639285305188058 -0.055173205942003964 -0.2109203073138036 0 0 0 0
10357500 0.966365485010852 0.06451471516418249 -0.055507868844791114 -0.2097638930434182 0 0 0 0
10405000 0.9667465637649141 0.06257749486714723 -0.055874261609453905 -0.20856680376216918 0 0 0 0
10452500 0.9672576155205878 0.06070703355188008 -0.056267089380146865 -0.20747226970208635 0 0 0 0
10500000 0.9676918965600584 0.05880554093797802 -0.05670959918006658 -0.20620174160192553 0 0 0 0
10547500 0.9680835862797317 0.05679965292633871 -0.05705017997572365 -0.20507817975658715 0 0 0 0
10595000 0.9685170719531276 0.0549274808507242 -0.057331795659535584 -0.20397539768765022 0 0 0 0
10642500 0.9688933457356835 0.05314422808855397 -0.05767968604419791 -0.2028710965009555 0 0 0 0
10690000 0.9692628449850665 0.05125246718732539 -0.05813416703159235 -0.20175941031556194 0 0 0 0
10737500 0.9696218636697159 0.049326743540270106 -0.058464095298007036 -0.20062452856044655 0 0 0 0
10785000 0.970092996452303 0.04749280391909345 -0.05873381435543745 -0.19953463905184374 0 0 0 0
10832500 0.9703359490814065 0.04562883389925299 -0.059050628919025905 -0.19836978683635836 0 0 0 0
10880000 0.9707455036904588 0.04377106102133011 -0.05941584218180606 -0.19735620807836662 0 0 0 0
