# HZ S RI R 50
1000000 0.1248261410321968 0.3176654387947718 0.8457308606238063 -0.3724334221204273 0 0 0 0
1047500 0.13593949722217796 0.3285117872894164 0.8328423043575611 -0.38457610498513073 0 0 0 0
1095000 0.14731194913597892 0.33880426445908135 0.8201000195919449 -0.3956599585484072 0 0 0 0
1142500 0.15869399701968698 0.3487086441972092 0.8071903567727727 -0.40631793902930996 0 0 0 0
1190000 0.17041699314255 0.3579712946028978 0.7942597315314183 -0.4164238473789937 0 0 0 0
1237500 0.18220791001061656 0.36673263868927336 0.7811264321200688 -0.4260124958228437 0 0 0 0
1285000 0.1940952271719191 0.3749810498972624 0.7679499902023195 -0.4351761733275494 0 0 0 0
1332500 0.2061623732552241 0.3829328069835059 0.7543649290184774 -0.4435307407973901 0 0 0 0
1380000 0.21847479574170317 0.3904653949116997 0.7410653702297989 -0.4512792808986225 0 0 0 0
1427500 0.23067229117950008 0.3973201965565863 0.727945855113309 -0.4586825947003878 0 0 0 0
1475000 0.243015271398858 0.4036979893352743 0.7146564027363677 -0.4656575487942876 0 0 0 0
1522500 0.25523118378392096 0.4097899530056558 0.7013747934138584 -0.472017589108816 0 0 0 0
1570000 0.26760855800212074 0.4154073839908151 0.6880564987329126 -0.4778758523425418 0 0 0 0
1617500 0.27993157763736776 0.4205994913145009 0.6751226018875358 -0.4831765913636342 0 0 0 0
1665000 0.29236447901907797 0.4252877350176098 0.6621629358962979 -0.4881872538420967 0 0 0 0
1712500 0.3045602109615304 0.42956567358144415 0.6493297002085735 -0.4927854822348859 0 0 0 0
1760000 0.31673883990068674 0.43353346362406475 0.6364927318123115 -0.49687973637901794 0 0 0 0
1807500 0.3290491071754876 0.4370442488532614 0.6237958500673545 -0.500516792454368 0 0 0 0
1855000 0.3410579191147459 0.44022841843910615 0.6115384453127378 -0.5037524344522569 0 0 0 0
1902500 0.35313024507505647 0.44301053459865475 0.5993125067828226 -0.5067546059066058 0 0 0 0
1950000 0.3650087331246989 0.4454307271923455 0.5871963518823193 -0.5095064904805879 0 0 0 0
1997500 0.3769003892601092 0.4476082035620319 0.5751303887497862 -0.5117085067013512 0 0 0 0
2045000 0.3886094285322683 0.44938184390920966 0.5634302715207117 -0.5135510876432462 0 0 0 0
2092500 0.4002257342703451 0.45080241920379727 0.5519004550894367 -0.5151546271106019 0 0 0 0
2140000 0.4116162306156504 0.45191829013215923 0.5406310933428503 -0.5166874346004351 0 0 0 0
2187500 0.4228943523628741 0.45280736957776896 0.529413837375526 -0.5178660878234758 0 0 0 0
2235000 0.4341273217744296 0.45336938862904674 0.5182942586720127 -0.5186039673785368 0 0 0 0
2282500 0.4451574429633899 0.4537078522903574 0.5076032149256542 -0.51919540580753 0 0 0 0
2330000 0.4560900914332313 0.4537373352273119 0.4971690313695455 -0.519523238481656 0 0 0 0
2377500 0.46684260572273306 0.4535463670263363 0.4867145882847182 -0.5197180720738688 0 0 0 0
2425000 0.47740463035313 0.4530050403094927 0.4764088675120772 -0.5197332468190153 0 0 0 0
2472500 0.4878441456182004 0.45235771907917927 0.4664053896912163 -0.519379419951533 0 0 0 0
2520000 0.4981278123067741 0.4513568633378694 0.4567802048093667 -0.5188784113913568 0 0 0 0
2567500 0.5081258628914401 0.45032431971854214 0.44735454491667864 -0.5183319917583358 0 0 0 0
2615000 0.5180787006154493 0.4490460264134234 0.4378563485479422 -0.5176794697367876 0 0 0 0
2662500 0.5278846879761568 0.4475424944171059 0.4286408060817923 -0.516751364464813 0 0 0 0
2710000 0.5374975180268886 0.4458887547609187 0.4196589012619182 -0.5155994965355872 0 0 0 0
2757500 0.5468467785334719 0.4439835308421475 0.41083743614550133 -0.5144169599545443 0 0 0 0
2805000 0.5560164702403008 0.4420209072424325 0.40222950292350385 -0.5132017005694283 0 0 0 0
2852500 0.5651522355051991 0.4400384151547566 0.39371128555078855 -0.5117666473218268 0 0 0 0
2900000 0.5741169167058052 0.4378684471251048 0.3856097022288047 -0.509970718287518 0 0 0 0
2947500 0.5829349605369457 0.4353753111536973 0.3776774055654988 -0.5083456940745387 0 0 0 0
2995000 0.5915061407101426 0.4327215870013875 0.36989253197846805 -0.5066727957699091 0 0 0 0
3042500 0.6000322950869929 0.4300040045842815 0.3621478195644503 -0.5049223999820023 0 0 0 0
3090000 0.6082602913951413 0.42724244895232033 0.35454630629699035 -0.5030927488702488 0 0 0 0
3137500 0.6164676067961026 0.42429937190871087 0.34716172301202985 -0.5010844006170672 0 0 0 0
3185000 0.6243017247663781 0.4213465504674333 0.34021329953602375 -0.49894697881564537 0 0 0 0
3232500 0.6320846608331834 0.41824243779700987 0.33326798365156013 -0.4969401762808698 0 0 0 0
3280000 0.6398503298840088 0.41497496178532045 0.3263058683776269 -0.49481139988808803 0 0 0 0
3327500 0.647256948837732 0.4116260200592768 0.3195699998019256 -0.492631230727475 0 0 0 0
3375000 0.6544694101042766 0.4082157733713199 0.3131049466723741 -0.4902360921533073 0 0 0 0
3422500 0.6616460048502524 0.4048563704318999 0.30680124221203714 -0.4879162976329089 0 0 0 0
3470000 0.6687289779621678 0.4013663378271971 0.3006409136293222 -0.48576685242370143 0 0 0 0
3517500 0.6756681553139182 0.3977577134385963 0.2944052364810732 -0.4833944899072559 0 0 0 0
3565000 0.682321077414035 0.3940764420257242 0.2883349079212364 -0.4808287444208913 0 0 0 0
3612500 0.688894283673347 0.39041815599073126 0.28266327523312207 -0.4784015425633481 0 0 0 0
3660000 0.6953376658833262 0.3866604482363397 0.2770461634303449 -0.4760086121862038 0 0 0 0
3707500 0.7017035288261209 0.3828983668693807 0.27140905782695957 -0.47365665530336093 0 0 0 0
3755000 0.7078932553430501 0.37891452250643026 0.2659436382841829 -0.47104284100186267 0 0 0 0
3802500 0.7138651254498266 0.3750753907709006 0.26066189579711474 -0.4684082566658016 0 0 0 0
3850000 0.719728481740046 0.37114367655482927 0.25562928629605325 -0.46592288460872117 0 0 0 0
3897500 0.7255948336226442 0.3671846984366953 0.2506284742392643 -0.46350621118259416 0 0 0 0
3945000 0.7313454640839873 0.3631823680492393 0.24555691091641718 -0.46094832772548 0 0 0 0
3992500 0.7369026430733598 0.35908221281604125 0.24071917973683274 -0.4583808756515357 0 0 0 0
4040000 0.7421903121492119 0.35507240184188127 0.23603404367292005 -0.45574817756144753 0 0 0 0
4087500 0.7474123299962058 0.3510951497314586 0.23152419975440428 -0.45317652221867577 0 0 0 0
4135000 0.7528756403785558 0.3469210176545892 0.22696572495848977 -0.4507188296855491 0 0 0 0
4182500 0.7579352427775762 0.34266532961497287 0.2225325247926878 -0.4480906637496045 0 0 0 0
4230000 0.7627204266692933 0.33857245026098726 0.21819935073333196 -0.44543129793267316 0 0 0 0
4277500 0.7676498913187677 0.33450897165673865 0.21402409083787619 -0.44282171651492747 0 0 0 0
4325000 0.7723669566444966 0.33035229769289676 0.210006408034981 -0.4403410956792258 0 0 0 0
4372500 0.7770404486017755 0.32608905216468337 0.20590554510599673 -0.4378175698474834 0 0 0 0
4420000 0.7815736955176267 0.3218390443288682 0.20187310947804438 -0.4352844556126171 0 0 0 0
4467500 0.7859190981278311 0.31765622641312197 0.19807838646375645 -0.43266218559716146 0 0 0 0
4515000 0.7902908583231723 0.3136083440760834 0.19439745157610722 -0.43012835347723205 0 0 0 0
4562500 0.794615128376622 0.30937470262407074 0.19070137409532514 -0.4276676700577854 0 0 0 0
4610000 0.7988196522122522 0.3049395198980564 0.18711984746196603 -0.4251140312035861 0 0 0 0
4657500 0.8028162434149856 0.3006843526002185 0.18347146230794045 -0.42256419113980875 0 0 0 0
4705000 0.806739110389102 0.2965621462108221 0.1801388368540557 -0.41997503470928216 0 0 0 0
4752500 0.8105817150709745 0.2924641260678555 0.1767899621874946 -0.41760631007895505 0 0 0 0
4800000 0.814532764065578 0.28814158054139616 0.17346174799425207 -0.4151569304544101 0 0 0 0
4847500 0.8181716210694944 0.2838341314423382 0.17017839991604772 -0.41265358296789495 0 0 0 0
4895000 0.8216680936626525 0.27955371848802324 0.16694115767057693 -0.4101769233057221 0 0 0 0
4942500 0.8252100931909487 0.27545393428879233 0.1639957071226762 -0.40774952913403223 0 0 0 0
4990000 0.8287794687096365 0.2713097036094105 0.161046503000793 -0.4053648951815391 0 0 0 0
5037500 0.8323700069244762 0.26701393892823055 0.1580158972583221 -0.4029959691668006 0 0 0 0
5085000 0.8355800985426576 0.2626191942712029 0.15496239615665303 -0.40047111777096245 0 0 0 0
5132500 0.8386624137296388 0.25847775639786713 0.1522362017377747 -0.3980533931900188 0 0 0 0
5180000 0.8418393652318442 0.2544646228681423 0.14954690586738698 -0.3957290113794577 0 0 0 0
5227500 0.845048900443348 0.250232874138175 0.14681685662793656 -0.3934767462145936 0 0 0 0
5275000 0.8481593917754199 0.2458950234859086 0.14404756353732762 -0.3911647574276639 0 0 0 0
5322500 0.8510109691840574 0.24166062849015285 0.14138587680230827 -0.388781161261363 0 0 0 0
5370000 0.8538022194063543 0.2377108854393576 0.13888911781616364 -0.38642649622466707 0 0 0 0
5417500 0.8567806408982926 0.23360913820538065 0.13649780823301064 -0.3842214312842744 0 0 0 0
5465000 0.8596217015909042 0.22935077038872448 0.13389769757679199 -0.38197076505032806 0 0 0 0
5512500 0.8623054395741067 0.225097555229942 0.13148434386760594 -0.37968857279905854 0 0 0 0
5560000 0.8647945304405645 0.2211046654023369 0.12918814885134886 -0.3772812551428171 0 0 0 0
5607500 0.8673974347708995 0.2170407206419264 0.12691885322160332 -0.37518623161749415 0 0 0 0
5655000 0.869940218187752 0.2130390277943085 0.12470699445237912 -0.37301017543255577 0 0 0 0
5702500 0.8725255806317096 0.20885941731083058 0.12236527567164686 -0.3709336293767088 0 0 0 0
5750000 0.8747995221403891 0.20465507218164217 0.12019064311882013 -0.3687120822349623 0 0 0 0
5797500 0.8771690012047749 0.2006592136947201 0.1180663721740485 -0.3663904481811483 0 0 0 0
5845000 0.8794117245543223 0.19674180295667476 0.11605485072312205 -0.3644118587010825 0 0 0 0
5892500 0.8818348499695902 0.1927016957385632 0.11395980270914786 -0.3623773031742087 0 0 0 0
5940000 0.8839983417327736 0.18848788467846653 0.11186406134324295 -0.3602094559085346 0 0 0 0
5987500 0.8860404691746143 0.18453567643173527 0.10996111830050141 -0.3580902014907931 0 0 0 0
6035000 0.8880468453277004 0.1806741088551576 0.10809423171238079 -0.35596168657427 0 0 0 0
6082500 0.890222786814874 0.17672400965427018 0.10613041756485074 -0.3539842520480282 0 0 0 0
6130000 0.8923973378895104 0.17266690432590515 0.10427055179376951 -0.3520902433133538 0 0 0 0
6177500 0.8941996846879735 0.16852313697143464 0.1024110249258767 -0.3500285283087295 0 0 0 0
6225000 0.8958760558056164 0.1647392397798961 0.10066566638152581 -0.3479458673564704 0 0 0 0
6272500 0.897869769856833 0.1610005382441885 0.09893596038353403 -0.3459826405623833 0 0 0 0
6320000 0.8998402230031908 0.1570542132402083 0.09722911523992651 -0.34408458852711793 0 0 0 0
6367500 0.9016462706111797 0.15300188948160792 0.09550949372152001 -0.3421599780271374 0 0 0 0
6415000 0.9032596645161557 0.14905690429857535 0.09370042103611617 -0.34019078057119767 0 0 0 0
6462500 0.9048117481812786 0.14536614711821724 0.09220476544001822 -0.3382452369504028 0 0 0 0
6510000 0.9065972220144817 0.14168072882238808 0.0906338004687247 -0.3364046531628418 0 0 0 0
6557500 0.9083165604208554 0.13771203791950828 0.08908588147576255 -0.33460467672063554 0 0 0 0
6605000 0.909786144122256 0.1337798452261204 0.08741363859847119 -0.33275770458526693 0 0 0 0
6652500 0.9112311390988508 0.1300017301186673 0.08591535273800793 -0.33082335623382236 0 0 0 0
6700000 0.9127183788403623 0.1263791398399467 0.08450676640270606 -0.3289705677489247 0 0 0 0
6747500 0.9143019301219978 0.1226783925209443 0.08308031591675831 -0.3272040701117899 0 0 0 0
6795000 0.9158489401134002 0.11871408055748295 0.08161198739687126 -0.325504176281748 0 0 0 0
6842500 0.9171058919960083 0.11489714656848501 0.08020722016115289 -0.3237380449494609 0 0 0 0
6890000 0.918344931597995 0.11130612138233735 0.07882199694781798 -0.32180615786126593 0 0 0 0
6937500 0.9197214520720246 0.10770129219634861 0.07757650851955396 -0.3201527441584792 0 0 0 0
6985000 0.9211153123855982 0.10395054922067258 0.07617997499901419 -0.31846444210251584 0 0 0 0
7032500 0.9224149679984931 0.10010985476590949 0.0748190251965172 -0.3168010712118285 0 0 0 0
7080000 0.9233848618043663 0.0964721476775818 0.07348173905095885 -0.3149543118774316 0 0 0 0
7127500 0.9245906942441066 0.09299068794234924 0.07219421186415739 -0.31330232761293925 0 0 0 0
7175000 0.9259149771324776 0.08943610939070795 0.07101239373072729 -0.31160476160741807 0 0 0 0
7222500 0.9271071403435838 0.08563255592982666 0.06971782577592843 -0.3100291998269281 0 0 0 0
7270000 0.9281020113552356 0.08192072239627786 0.06850053371749738 -0.30834625494153095 0 0 0 0
7317500 0.9290324582204164 0.07847495028060823 0.06737050832817822 -0.3066648500753089 0 0 0 0
7365000 0.9301388620910043 0.07504222267624468 0.06625276799511277 -0.30502508219921937 0 0 0 0
7412500 0.9312452842363174 0.0714865143569894 0.06510007698022323 -0.30353976551128575 0 0 0 0
7460000 0.9323369819124251 0.06769282752068854 0.06385971419551217 -0.3019621790383395 0 0 0 0
7507500 0.9331630860090672 0.06411605715565845 0.06273712925313836 -0.3002789480754842 0 0 0 0
7555000 0.9340034955519335 0.06074848416912095 0.06176896112837144 -0.29870345214749877 0 0 0 0
7602500 0.9350046495119773 0.057352953164220594 0.060693341977582076 -0.2972036672309846 0 0 0 0
7650000 0.9359785083834904 0.05377808175398165 0.059607096846396514 -0.2957693331984732 0 0 0 0
7697500 0.9368850712387647 0.05003139262982961 0.05846586047060051 -0.29416333995864535 0 0 0 0
7745000 0.9374897507753577 0.04666558875985618 0.05744907760922239 -0.29265294791217555 0 0 0 0
7792500 0.9383370522238141 0.04344291307952361 0.05657805929036976 -0.29107733402026703 0 0 0 0
7840000 0.9392121035414821 0.0399448761752861 0.05553080711412348 -0.2896728183509135 0 0 0 0
7887500 0.9401013988428469 0.03634239550315994 0.054571517979479914 -0.28830526269193857 0 0 0 0
7935000 0.9406626850814463 0.03286490761103824 0.0534994335176299 -0.28671407437965624 0 0 0 0
7982500 0.941276717933619 0.029705600351064107 0.05258895307236943 -0.2852818064910216 0 0 0 0
8030000 0.9420654153662819 0.02648624332671611 0.05176779815490135 -0.2837934132067526 0 0 0 0
8077500 0.9429161419369836 0.02306054868151964 0.05086148554794196 -0.2825055374395713 0 0 0 0
8125000 0.9434853444362817 0.019457309850433275 0.04988698842048577 -0.28108082476109186 0 0 0 0
8172500 0.9439075539101415 0.01643806265899581 0.049042629390220555 -0.2796081137912324 0 0 0 0
8220000 0.9446055894530299 0.013002438427169085 0.04812598319258314 -0.2782264800016326 0 0 0 0
8267500 0.9452729750826222 0.009774067430210436 0.04733913392134552 -0.27691503604594225 0 0 0 0
8315000 0.9459768904296965 0.0063060292971445385 0.04647324978251712 -0.2755631528812201 0 0 0 0
8362500 0.9462798461559478 0.0028468883621771556 0.04548175824420869 -0.2742340692081457 0 0 0 0
8410000 0.9466974545142043 -0.0003739708163727996 0.044739628632911754 -0.2728169148331934 0 0 0 0
8457500 0.9472434609785064 -0.0034431002737803297 0.04398495742504529 -0.2714992242989078 0 0 0 0
8505000 0.9479196703447171 -0.0067653965322303075 0.043255668131991824 -0.27024758671085725 0 0 0 0
8552500 0.9484023239616209 -0.010059093815092441 0.04241443214480693 -0.26898544773349004 0 0 0 0
8600000 0.9486287146632726 -0.013338636625772143 0.041569891990719136 -0.26758477430978606 0 0 0 0
8647500 0.9489796340948043 -0.01640605616451573 0.04085612841117368 -0.2663413716414038 0 0 0 0
8695000 0.9495887248675916 -0.019453623950696098 0.040216655321511745 -0.2650402876974266 0 0 0 0
8742500 0.9501478584142473 -0.022810790052649018 0.03943891894213865 -0.2638765504032004 0 0 0 0
8790000 0.950351069488691 -0.026179520562640436 0.03859003279758953 -0.26260857918834146 0 0 0 0
8837500 0.9506058449584729 -0.02932932392748582 0.03790414665704873 -0.261308891336281 0 0 0 0
8885000 0.9509773247349019 -0.03223596164877529 0.037257266208651066 -0.260053426848545 0 0 0 0
8932500 0.9514577202210491 -0.03533676811257859 0.03661981292943676 -0.25890767253035685 0 0 0 0
8980000 0.9517726213050516 -0.03865735729385078 0.035844598017640325 -0.25777429807369384 0 0 0 0
9027500 0.9519573943849151 -0.041885833127549926 0.035118075856223 -0.25651867747954255 0 0 0 0
9075000 0.9521400800837183 -0.0447583541915583 0.0344638452855322 -0.2552458344943167 0 0 0 0
9122500 0.9524045698360248 -0.047693444206254675 0.03387019309870964 -0.2540780762419658 0 0 0 0
9170000 0.9527906768337229 -0.05088445266614548 0.033264372861028034 -0.2530590372292174 0 0 0 0
9217500 0.9531774949182659 -0.05421734156816606 0.03255319777525425 -0.2518821160686762 0 0 0 0
9265000 0.9531412649911241 -0.05718443109274918 0.03190411155094066 -0.25069491777696123 0 0 0 0
9312500 0.9532399447291499 -0.06013914661880223 0.03127554631940428 -0.24954057699798024 0 0 0 0
9360000 0.9536519416047583 -0.06306152166145801 0.030790167286619406 -0.24842217491140112 0 0 0 0
9407500 0.9538632071623878 -0.0662910154497873 0.03016962786999309 -0.2473860588786812 0 0 0 0
9455000 0.9538336423758742 -0.06942326729290847 0.029432052242833788 -0.24629290132187184 0 0 0 0
9502500 0.9539000765659197 -0.07237520068442806 0.028833759200305835 -0.2450689156752009 0 0 0 0
9550000 0.9541111543610055 -0.07512606026874168 0.028366877107754637 -0.24389649510216843 0 0 0 0
9597500 0.954540091483456 -0.07807759166151289 0.02781877333399892 -0.2429152155555815 0 0 0 0
9645000 0.9545627575954503 -0.08135095399584008 0.02721191757160244 -0.2418877869342928 0 0 0 0
9692500 0.9545057867599502 -0.08432542444645087 0.026526834177329046 -0.2407919422911069 0 0 0 0
9740000 0.954432078802946 -0.08708479483602183 0.026076254157984164 -0.23964885785431922 0 0 0 0
9787500 0.9546982708647362 -0.08996941223723282 0.02562056783893723 -0.238655871956983 0 0 0 0
9835000 0.9548529855747986 -0.0929375673172226 0.02510148364787278 -0.23762349956494166 0 0 0 0
9882500 0.9547913207128124 -0.09608682718471048 0.02449922047033771 -0.23660967856774648 0 0 0 0
9930000 0.9545011917686441 -0.09901044665527074 0.023915758994773054 -0.23550949523224718 0 0 0 0
9977500 0.954627976080732 -0.10164976130086839 0.02347258139032429 -0.23444785644918462 0 0 0 0
10025000 0.9548620607619337 -0.10451816641724908 0.022960180255422968 -0.23348331179733303 0 0 0 0
10072500 0.9549613302093951 -0.10763874597011253 0.022391546275424157 -0.23256386397036746 0 0 0 0
10120000 0.9547346404811029 -0.11064289177102547 0.021878234152631622 -0.2315311970738813 0 0 0 0
10167500 0.9545182213701202 -0.11326957542584802 0.02144214414752685 -0.23040260705401483 0 0 0 0
10215000 0.9546020284215821 -0.11602016387385933 0.021037401432119032 -0.22942473568410351 0 0 0 0
10262500 0.9547430317147335 -0.11893376493217261 0.020497962244518827 -0.2285892207396487 0 0 0 0
10310000 0.9546178341934302 -0.1219965824499705 0.020018140402615837 -0.2276676628928628 0 0 0 0
10357500 0.9543394313414681 -0.12474826938210362 0.01948163001149939 -0.22655166032674232 0 0 0 0
10405000 0.9542445653289905 -0.12729714583490145 0.019064452979866895 -0.22555404200699053 0 0 0 0
10452500 0.954312306345293 -0.13004698040490917 0.018701234082722715 -0.2246586582006404 0 0 0 0
10500000 0.9543582810912137 -0.13307061314461419 0.01823132255396296 -0.2237909878003088 0 0 0 0
10547500 0.9540798304441485 -0.13605158225620617 0.017706722257076046 -0.22289046927875136 0 0 0 0
10595000 0.9538678117125902 -0.13869895354369294 0.01734321660702545 -0.22186897078640047 0 0 0 0
10642500 0.9536752507728946 -0.1412738056049323 0.016945834489806248 -0.22098281001205888 0 0 0 0
10690000 0.9537224449628328 -0.14395757647944452 0.016593041721158535 -0.2201000020212206 0 0 0 0
10737500 0.9536790861341381 -0.1469667665728323 0.01613554761878381 -0.21927378570211822 0 0 0 0
10785000 0.9532233603487658 -0.14977758104223268 0.015552092573419425 -0.21830936489498554 0 0 0 0
10832500 0.9529146700435952 -0.15243318572470024 0.015202948989050231 -0.21742867468275276 0 0 0 0
10880000 0.9529144956540978 -0.15488783436750864 0.014887092336364028 -0.21650294893948116 0 0 0 0
10927500 0.9528281116034658 -0.1577560681026895 0.014523693360884405 -0.21575686616958203 0 0 0 0
