# HZ S RI R 50
1000000 -0.2577165079329838 0.8861877330896664
1047500 -0.2171219107694139 0.898632943137814
1095000 -0.17769771568537682 0.9090763125533794
1142500 -0.13873120282649146 0.917422620586781
1190000 -0.10078353810284119 0.9240339164663618
1237500 -0.06394616533830699 0.928728158796714
1285000 -0.02806589493166806 0.9323564646891462
1332500 0.007033199968841408 0.9341719500724666
1380000 0.04096221025862583 0.9347251056459444
1427500 0.0737719153678946 0.934338319698037
1475000 0.10575769043653412 0.9329208945211109
1522500 0.13653728993674324 0.9303962732747165
1570000 0.16629039375285526 0.927001434430369
1617500 0.19474793861461723 0.9227864832022373
1665000 0.22255385550722817 0.9181135553770738
1712500 0.24933686420251516 0.9126943447658381
1760000 0.27503986394842805 0.9065435024726641
1807500 0.299645734552825 0.9001929273081759
1855000 0.32347774212239544 0.8932698505842352
1902500 0.3466620821306724 0.8860014086390563
1950000 0.3685109882392489 0.8783681374496938
1997500 0.38963643652215546 0.8706022845794503
2045000 0.4102005978568299 0.8625267985369245
2092500 0.4300064347453655 0.853974779950648
2140000 0.4488186766762486 0.8454554773786751
2187500 0.4669430654174829 0.8369095980429772
2235000 0.48449674353041366 0.8281856615328671
2282500 0.5013420650854086 0.8192920270194812
2330000 0.5174336647879778 0.8103328141104329
2377500 0.5331160373615216 0.8013856909385949
2425000 0.5481123545483526 0.7923251331090465
2472500 0.5626201312071709 0.7832294691157421
2520000 0.5763115636515116 0.7741841068778886
2567500 0.5896698077950261 0.7652440992699194
2615000 0.6028159906214327 0.7561810033964119
2662500 0.6151423693965403 0.7470238516035699
2710000 0.6270026634542352 0.738258236751665
2757500 0.63847336101512 0.7292732212357751
2805000 0.6495821772198038 0.720398325320336
2852500 0.6600859216471644 0.7116358453184423
2900000 0.6705418255065988 0.7030474216992456
2947500 0.6806344331742438 0.6942993415055837
2995000 0.6901759155829398 0.6856930570940217
3042500 0.6992698857528943 0.6771278824027414
3090000 0.7083151042036235 0.6689021037190392
3137500 0.7170556146924565 0.6603931780147186
3185000 0.7251081772859198 0.6520638872143533
3232500 0.7331514598120049 0.6439208401459979
3280000 0.7410756558609439 0.6358598554256764
3327500 0.748493555080034 0.627789301619043
3375000 0.7557127589819895 0.6198590365571773
3422500 0.7627466739390023 0.6121653150415095
3470000 0.7694997455028199 0.6042739376912254
3517500 0.77608361208837 0.5966122508916405
3565000 0.7823134624356385 0.5891198416282954
3612500 0.7885289228162499 0.5816621333289943
3660000 0.7945807559444884 0.5740914846583752
3707500 0.8002506704301156 0.5667168164371466
3755000 0.8057521891557358 0.5596163168126168
3802500 0.8112982189489719 0.5525452685662564
3850000 0.8164124993444788 0.5454389342988261
3897500 0.8213924043549837 0.5384001211325294
3945000 0.8263321146354996 0.5317809940713023
3992500 0.8312755197226478 0.5248821255052356
4040000 0.8358546413947183 0.5179943609704987
4087500 0.8400597868298397 0.5114667089848421
4135000 0.8444034893836423 0.505157857207324
4182500 0.8487473459315822 0.49851703349760984
4230000 0.8528610542839095 0.4922454929510107
4277500 0.8566856758069117 0.48583865694125067
4325000 0.8606015583934506 0.47972540077528725
4372500 0.8644081078080466 0.4733937634773709
4420000 0.867965571139581 0.46721303213180637
4467500 0.8713886174568009 0.4612747824849929
4515000 0.874836057656165 0.4554313874808984
4562500 0.8782427450012099 0.44949743562871264
4610000 0.881364725373727 0.44376454621934386
4657500 0.8846731840128657 0.4379801223875225
4705000 0.8876276242708974 0.432269080989411
4752500 0.8905454249101193 0.42671088806516544
4800000 0.893367693346057 0.4210988756616859
4847500 0.8962498773543732 0.41579834065278176
4895000 0.8990489419877846 0.4102300009563818
4942500 0.9016246040026556 0.4048728403542434
4990000 0.9041011272840231 0.3996916626382501
5037500 0.9068116739398271 0.39446804427263893
5085000 0.909248114105404 0.38903854312026703
5132500 0.9114683731935197 0.383985324327483
5180000 0.9136771878071193 0.3791096236875517
5227500 0.9160736221146988 0.37417480328777053
5275000 0.9184201504553393 0.3690737253951972
5322500 0.9202975429196573 0.36414964748749057
5370000 0.922488862326789 0.3594702309937464
5417500 0.9245873605968561 0.35467802408255655
5465000 0.9266177533591179 0.34982419686201427
5512500 0.9283441178698161 0.3451645956804929
5560000 0.9303204269921572 0.3406966513516816
5607500 0.9322790313159347 0.3359337475787493
5655000 0.9339325150716351 0.33136756528317474
5702500 0.9357539784099275 0.32690131353594737
5750000 0.9373950186113265 0.3223562549983481
5797500 0.938869882877059 0.3179104773735373
5845000 0.9404189822847943 0.3137641342657373
5892500 0.9421811196237139 0.3093738542069164
5940000 0.943755557111978 0.3049239880941957
5987500 0.9450662065949701 0.30076332192257227
6035000 0.9465687927472707 0.2967661187466521
6082500 0.9482369587888803 0.29236748935942974
6130000 0.9494412368426611 0.2881241409056798
6177500 0.950627979345405 0.2842134103575518
6225000 0.9521620499604184 0.2802721735075553
6272500 0.9534900350763569 0.27617404711085447
6320000 0.9546653269745996 0.27209012886765804
6367500 0.9557934548308971 0.26826939121434784
6415000 0.9571015530696618 0.26436214759143234
6462500 0.958193104017409 0.2604573230739649
6510000 0.9592172761417995 0.2566633022742761
6557500 0.960414783033814 0.2529268054928787
6605000 0.9615226045346382 0.24905073823125354
6652500 0.9625379732508065 0.24546339302465434
6700000 0.963660888170399 0.24186527482417072
6747500 0.9646987076698036 0.23801971054927465
6795000 0.9655794137572591 0.23419735066485192
6842500 0.9663284312734215 0.23083322317364227
6890000 0.9674876455161615 0.2273820416972439
6937500 0.9686067075219784 0.22360619908213833
6985000 0.9692406820562706 0.21998162155796652
7032500 0.9700180093421759 0.21661666797633286
7080000 0.9710402128860162 0.21315992708612325
7127500 0.9717452905887872 0.20973841492895176
7175000 0.9725330426863035 0.2062742546555267
7222500 0.9734104150092401 0.20300216974895263
7270000 0.9741380373658398 0.1995314211455383
7317500 0.9748700684721615 0.19620431662667007
7365000 0.9756353185820755 0.19301946628719974
7412500 0.9765376904228953 0.18959454007168025
7460000 0.9770754756645708 0.18639449088279597
7507500 0.9776315406070077 0.1833080286274775
7555000 0.9784019662299026 0.1801998610103631
7602500 0.9791319873566092 0.17672117435447332
7650000 0.979560844612087 0.1735348439996789
7697500 0.9802050037196773 0.17066553031487242
7745000 0.9809952233518074 0.16747564184186467
7792500 0.9816221281012942 0.16411648360938713
7840000 0.981907165692103 0.16110873173608642
7887500 0.9824679924453749 0.1583325786164288
7935000 0.98320360273791 0.1552858792882266
7982500 0.9836863285593987 0.15209253608899942
8030000 0.9840766220137092 0.14918167417209116
8077500 0.9846289091018151 0.14632569768846024
8125000 0.985188912709215 0.14332861871891076
8172500 0.9855639945003248 0.1403642214941312
8220000 0.9860455055603603 0.13754991053259313
8267500 0.9865478509003447 0.13453611194610204
8315000 0.9867379703773427 0.13165185183580486
8362500 0.9873009370630123 0.12894656741691257
8410000 0.9878083015763984 0.12600524446040023
8457500 0.9880705251420047 0.12300949091265168
8505000 0.9883482124427498 0.12039262312761513
8552500 0.9889181992374451 0.11783230992030229
8600000 0.9893762658770825 0.11482414654142588
8647500 0.9895962562886972 0.11209183274974131
8695000 0.9898387428486405 0.10952430735042397
8742500 0.990442892583859 0.10697869781112798
8790000 0.9908706155500939 0.10397628999676875
8837500 0.9909676187156348 0.10120648248204961
8885000 0.9912109400220495 0.09868487800461366
8932500 0.9917004617853503 0.0962527187638396
8980000 0.9919929484738486 0.09342110894007305
9027500 0.9921688790852695 0.09076336241669666
9075000 0.9923721103559706 0.08815554409194695
9122500 0.9927724749217597 0.08568895462901574
9170000 0.9930563714168102 0.08297110504349879
9217500 0.9932285182788728 0.08040003244333445
9265000 0.9934020863800836 0.07777816853799435
9312500 0.9936500590795296 0.07524323760954398
9360000 0.9938519900658768 0.07280684046551403
9407500 0.9941171121491924 0.07036935912882229
9455000 0.9942770958811489 0.06782051109561871
9502500 0.9943726826872543 0.06514600484358415
9550000 0.9945870464618305 0.06293815530682809
9597500 0.9950388500078483 0.06055296920039731
9645000 0.9951809687312977 0.05777302580078338
9692500 0.9950603998548115 0.055351204843370076
9740000 0.9952848719636658 0.05322280319366093
9787500 0.9956663415832067 0.05075138266255505
9835000 0.9956604240547534 0.04813329168467022
9882500 0.9956473543370555 0.04583997159260869
9930000 0.9958159693996012 0.04362843611659762
9977500 0.9961353618030366 0.04126674595872118
10025000 0.996196860479082 0.0388236442005585
10072500 0.9962741346734235 0.03649835737052198
10120000 0.9964129685725166 0.034287709004971634
10167500 0.9964773484943342 0.031906891861475925
10215000 0.9965490869621988 0.029669931104831772
10262500 0.9966992422749897 0.027462382770421182
10310000 0.996753691724953 0.02497915620723715
10357500 0.9967994210191164 0.022790143173056374
10405000 0.9968784196262555 0.020671201405593413
10452500 0.9971379345210495 0.01836255015693619
10500000 0.997230659727645 0.01588992470553811
10547500 0.9970714544173067 0.013704715724070353
10595000 0.9971113566293336 0.01184221506681959
10642500 0.997281393561648 0.009475603036321716
10690000 0.9973385135503187 0.007055743203027201
10737500 0.9972155415030417 0.004860083281885264
10785000 0.9972712423567879 0.0030498253404075406
10832500 0.9975475987586675 0.0007574911411137135
10880000 0.9975783329971524 -0.0015771044160423965
10927500 0.997411678688599 -0.0037098401679583823
10975000 0.9973438348332883 -0.005774966392843825
11022500 0.9974668713295798 -0.007862159005044733
11070000 0.9973872684635557 -0.010057747685353809
11117500 0.9972950943756308 -0.01213851937635773
11165000 0.9974069722180094 -0.014259995890504319
11212500 0.9974024221034977 -0.016382997387743212
11260000 0.9972902856969091 -0.01841231620907383
11307500 0.9974033599696519 -0.020468028123957854
11355000 0.9973195028242483 -0.022768807841975627
11402500 0.9971783418897512 -0.024919485165378855
11450000 0.9970295557975197 -0.02665215273717588
11497500 0.9971262652681319 -0.028658978715108155
11545000 0.9972551454454037 -0.031077606997986847
11592500 0.9969075333855467 -0.03306709738645967
11640000 0.9968425690535456 -0.03482158436642756
11687500 0.9969714674471513 -0.03688693057767843
11735000 0.996923406492562 -0.039125586137059944
11782500 0.99673252923952 -0.04109225976861333
11830000 0.9966389133322557 -0.042923769601676355
11877500 0.9967816367445168 -0.04492639014515224
11925000 0.9965456145288375 -0.04702704918586864
11972500 0.9964830736051158 -0.049031043804400626
12020000 0.99636376540212 -0.05087855780946717
12067500 0.9962804122335728 -0.05285228325230799
12115000 0.9961788497615525 -0.054807626340456064
12162500 0.9960992156217325 -0.05669066013234473
12210000 0.9959877234118483 -0.05872122034495942
12257500 0.9957591104214468 -0.06060111715876384
12305000 0.9957922573492477 -0.06233008734646049
12352500 0.9957496481817008 -0.06430030077487907
12400000 0.9957300757733706 -0.06639945871606086
12447500 0.9954605253374772 -0.06822691490610591
12495000 0.9953257166546491 -0.06996340999169356
12542500 0.9955257181651939 -0.07190130164668666
12590000 0.9954386851849035 -0.07402372816141459
12637500 0.9950945325231142 -0.07594281310072035
12685000 0.9949417853779363 -0.07763430184624368
12732500 0.9949979149927665 -0.07944653512459476
12780000 0.9947766069702705 -0.08159952812281537
12827500 0.994446577403462 -0.08338925665126713
12875000 0.9943136584874344 -0.08510376922036512
12922500 0.9944113114064084 -0.08692783463633244
12970000 0.9940795472215271 -0.0888837745618326
13017500 0.9938306260618845 -0.09081664337365632
13065000 0.9937377967839688 -0.0926606148785904
13112500 0.9935922104360537 -0.09440150134399256
13160000 0.9934389401857292 -0.09622553678202128
13207500 0.9932298107724449 -0.09799513376281671
13255000 0.9930351539711613 -0.09978355254600764
13302500 0.9927962862281031 -0.10163360934661915
13350000 0.992698517028494 -0.10341133610475936
13397500 0.9924687774135581 -0.10514855293878694
13445000 0.9924037171873321 -0.10712203844454928
13492500 0.9920753261827848 -0.10890369990934141
13540000 0.9917616606685987 -0.11050792534820747
13587500 0.9917665294857956 -0.11222852175791222
13635000 0.9916949414310171 -0.1140890222627504
13682500 0.9912909094865077 -0.11606816236213026
13730000 0.9909923594670403 -0.11753941862699799
13777500 0.9910232058131179 -0.11926468455597067
13825000 0.990891699979938 -0.12130792094046874
13872500 0.9904360148611907 -0.12307874530854304
13920000 0.9901538408583125 -0.12455383019690598
13967500 0.9902172763766773 -0.12615954669796822
14015000 0.9900275446976373 -0.12813752182085758
14062500 0.9897354404456721 -0.12998207357601552
14110000 0.9894431705503014 -0.13162495901690707
14157500 0.9893024283479209 -0.13325173236952234
14205000 0.9891001310334014 -0.1349830438656504
14252500 0.9888805143940963 -0.13666189644160076
14300000 0.9886273384302364 -0.13843152343008153
14347500 0.9884799490938855 -0.14020733734264249
14395000 0.9881402976884722 -0.14186533416274624
14442500 0.9879864903563375 -0.14342755818489022
14490000 0.9877907308016624 -0.1451737273842706
14537500 0.9874762296677332 -0.14701024756498116
14585000 0.9870154385091667 -0.14857839353042537
14632500 0.9870310137867577 -0.15015934993228458
14680000 0.9869062317345865 -0.15191068846190325
14727500 0.9865715648420325 -0.153841362986968
14775000 0.9860627808996536 -0.15533550492880213
14822500 0.9857593182345374 -0.15682125401605945
14870000 0.9857376751390606 -0.15860210862723467
14917500 0.9853262245111798 -0.16046154658299902
14965000 0.9848064940994674 -0.16190177200036793
15012500 0.9848342783660727 -0.16331290610510305
15060000 0.984698661519922 -0.16528027556067929
15107500 0.9841561886296055 -0.16703927354770212
15155000 0.9838091520899094 -0.16840225476848156
15202500 0.983723661941627 -0.16995165815182284
15250000 0.9835279214124136 -0.17181619182855717
15297500 0.982879249787463 -0.17354395254159571
15345000 0.9826034858856979 -0.17483720805795347
15392500 0.982488529840938 -0.17640945946320297
15440000 0.9821301739081321 -0.1783581648243057
15487500 0.9816035417036955 -0.17989027017901613
15535000 0.9813443246727652 -0.18129393987883774
15582500 0.9811372899635409 -0.18286243237386182
15630000 0.9807595896282442 -0.18473484880139715
15677500 0.9802363834063206 -0.18604726348172068
15725000 0.9800992492071408 -0.1874217392452437
15772500 0.9800370868557721 -0.1891229972550269
15820000 0.9795305826008279 -0.19091321918521711
15867500 0.9791102686476626 -0.19220889007005804
15915000 0.9790160435646611 -0.19361049066050606
15962500 0.9788805515937877 -0.19545900644099667
16010000 0.9783390013903371 -0.19705826238085444
16057500 0.977963305986239 -0.19828547437715677
16105000 0.978025853877604 -0.1998757219368135
16152500 0.977687827690263 -0.20178656885179044
16200000 0.9771636045806807 -0.2032188884203432
16247500 0.9769441306257725 -0.20446440877556632
16295000 0.9768632179327459 -0.20616173211625125
16342500 0.9762863503756173 -0.20801219378840982
16390000 0.9758812886140601 -0.20926004251324584
16437500 0.9757998467157161 -0.2106121957878175
16485000 0.9756570407121621 -0.21246867944722428
16532500 0.9750950018809394 -0.21410570181426605
16580000 0.9746581860599858 -0.2153638146599475
16627500 0.9744635020623866 -0.21682635179516102
16675000 0.9743052099004014 -0.2186123423120401
16722500 0.9736387777957366 -0.22009083874502677
16770000 0.9734346861219223 -0.22130891023567592
16817500 0.9732830721565418 -0.22288629942623375
16865000 0.9730225542769885 -0.2246985141125616
16912500 0.9723881398168753 -0.22620847449703868
16960000 0.9721734852764687 -0.22748672604372358
17007500 0.9719740944176685 -0.22909630119396324
17055000 0.9715080982614248 -0.23070898573246307
17102500 0.9710298731987594 -0.23203436853759454
17150000 0.9708033661374502 -0.23351303888162667
17197500 0.970540518476753 -0.2350895517459806
17245000 0.9701359917076797 -0.2367256454060442
17292500 0.9696764353233243 -0.2381764518592968
17340000 0.9692250006191993 -0.23967790598820635
17387500 0.9689233775409591 -0.24113865318414837
17435000 0.968473651822387 -0.24253993754298023
17482500 0.9681291449035692 -0.24406207109184955
17530000 0.9678813463083626 -0.24543925988664286
17577500 0.9675691448057864 -0.24692817373713774
17625000 0.9671125197533567 -0.24846658576739722
17672500 0.9666404782444576 -0.25001681717690044
17720000 0.9661914663766651 -0.25136819511449754
17767500 0.9657521858539466 -0.25266082940231543
17815000 0.9654946113612666 -0.25423307156560876
17862500 0.9652384258001486 -0.25574607123607845
17910000 0.9646566876328962 -0.25716366049808675
17957500 0.9643753820025429 -0.2586007115732865
18005000 0.96390686272182 -0.26015767072166207
18052500 0.9635280198522164 -0.2615583863753979
18100000 0.9629412467087727 -0.26289745968570843
18147500 0.9626461436787533 -0.26414314700724795
18195000 0.9623292764438037 -0.2657838625703288
18242500 0.9617372633585356 -0.267280647541738
18290000 0.9613790493485308 -0.2685480822001321
18337500 0.9611387281836492 -0.26993556697373916
18385000 0.9606293025808262 -0.2715937873318691
18432500 0.9600506698206146 -0.27291633895120215
18480000 0.9596222105207429 -0.27409082812672303
18527500 0.9595440802518765 -0.27547297624202577
18575000 0.9590391174416861 -0.27715364217058375
18622500 0.9584455259545334 -0.27849406873505506
18670000 0.9580680084166057 -0.27958097953233146
18717500 0.957956857123965 -0.28104426030485485
18765000 0.9574412333590321 -0.282790976748414
18812500 0.9567017233667742 -0.284022426926377
18860000 0.9564108110974241 -0.28515564813091243
18907500 0.9561820606346799 -0.28674741880597016
18955000 0.9556187916727251 -0.2883442128208669
19002500 0.954977085837158 -0.28960204177949606
19050000 0.9547641006197941 -0.29077920205586316
19097500 0.9545320627445918 -0.29232946571070034
19145000 0.9539320072965093 -0.29395392246681334
19192500 0.9532785482891019 -0.29522665622930433
19240000 0.9529873345717006 -0.2962348485717185
19287500 0.952769447436931 -0.29771779826440786
19335000 0.9522874317751845 -0.2994671968641864
19382500 0.9515739418401121 -0.3005689135725557
19430000 0.9513056371478135 -0.30182353823589386
19477500 0.9509504838575149 -0.30347095697675186
19525000 0.9504009245264344 -0.3048862806137471
19572500 0.9497768419917789 -0.306073591684342
19620000 0.9495386540313576 -0.3072547329309375
19667500 0.9491789276569199 -0.3087240749624017
19715000 0.9486133866892418 -0.31021837702775373
19762500 0.9481379205434949 -0.31145530374173136
19810000 0.9477726185496609 -0.3126027139265615
19857500 0.9474082575087257 -0.3141545781716935
19905000 0.9467980383098628 -0.3154843915240476
19952500 0.9463122946669394 -0.31674246165952397
20000000 0.9460558065486102 -0.3179929845609833
