# HZ S RI R 50
12400000 0.889529281897502 0.2294309422089764
12401000 0.8897109890589785 0.2283275622698898
12402000 0.8898163776060777 0.227180535844424
12403000 0.889854462479716 0.22585674762946834
12404000 0.8902128479774682 0.22459697205699203
12405000 0.8903214819818336 0.22352322987194653
12406000 0.8903369338279062 0.22223767331431726
12407000 0.8906314163038553 0.2211256250401571
12408000 0.8907536052166266 0.22008610650859187
12409000 0.8908005991531104 0.21876030214686745
12410000 0.8910630796038553 0.21753097164834231
12411000 0.891163754386587 0.21640367762948218
12412000 0.8912520101526569 0.21516547717407603
12413000 0.8916001516517466 0.21388424318710303
12414000 0.8916821037859249 0.21278836254712674
12415000 0.8917695427916175 0.21147008437756667
12416000 0.8920438651432403 0.21020743032439965
12417000 0.8921237917196322 0.2091377643813319
12418000 0.8921652671312257 0.2077895184445793
12419000 0.8924591906955937 0.20666943221493592
12420000 0.8924544615232529 0.20553566437220683
12421000 0.8924902648271229 0.20423798705698187
12422000 0.8927204804928354 0.20298577939849174
12423000 0.8927719698890146 0.20192050749503004
12424000 0.8928300338374149 0.20062234597729972
12425000 0.8930505194809014 0.1994242261244924
12426000 0.8931137412100347 0.19834638013833256
12427000 0.8931452028574529 0.1969618758286437
12428000 0.8935014794053133 0.19570892599194958
12429000 0.8935861511532974 0.1946060633667334
12430000 0.8936375634549393 0.19323751983411935
12431000 0.8938996278766577 0.19194306581381196
12432000 0.8940326909184897 0.19085974942402964
12433000 0.8940057254683398 0.18951384603404142
12434000 0.894264120233038 0.18821294502846106
12435000 0.8943034893615556 0.1871189711352974
12436000 0.8943062594454738 0.18585838691472714
12437000 0.8945116621896638 0.1846526432545316
12438000 0.8945275672643511 0.183545238105779
12439000 0.8945276055178334 0.18217506726350294
12440000 0.8947368821612315 0.18091939377465346
12441000 0.8948388181512673 0.17971835631745398
12442000 0.8948442769075952 0.178288975220529
12443000 0.8950845447343074 0.17701485377042867
12444000 0.8952077178475366 0.1758317335291626
12445000 0.895234765623753 0.17442112196014406
12446000 0.8954342721113031 0.17308911422743614
12447000 0.8955409165798806 0.17184417251392525
12448000 0.8955176734453718 0.1705322937838891
12449000 0.895726440307329 0.16925332311809999
12450000 0.8958159116474006 0.1681219114208701
12451000 0.8957675835739648 0.16679620486124602
12452000 0.8959302921565867 0.16546979729571518
12453000 0.8959437783484047 0.16430762574518248
12454000 0.8958772291079158 0.1630250764180434
12455000 0.8960854219997101 0.16168514814209348
12456000 0.896163205794425 0.1604673940396012
12457000 0.8961412194219452 0.1590488060390735
12458000 0.8962503701109958 0.15765784917591216
12459000 0.8963974092427883 0.15646612219984427
12460000 0.8963471967320781 0.15509506517146662
12461000 0.8965856482686025 0.1537548502980004
12462000 0.8965617017289869 0.15256026866291814
12463000 0.8965601227982903 0.15125059069806443
12464000 0.8966862831018529 0.14982078033493387
12465000 0.896737488431875 0.14875990987270624
12466000 0.896705007031225 0.14730790760898846
12467000 0.8967742511217871 0.1460112180032058
12468000 0.8969124929624419 0.14486871842083784
12469000 0.8967635119581929 0.1435072143127912
12470000 0.8969258259879492 0.1420419078430978
12471000 0.896973289409922 0.1408147131532861
12472000 0.8969867942029403 0.13943185012889195
12473000 0.8971264615038066 0.13802068684047944
12474000 0.8970725040675839 0.136801229147541
12475000 0.8970544601449005 0.1353669220517431
12476000 0.8972597092756164 0.13395910735050112
12477000 0.8973102929531231 0.13268861259232773
12478000 0.8972903957550664 0.1313428046354947
12479000 0.8973566146034725 0.12989366092125582
12480000 0.8973659162984409 0.12872781744291464
12481000 0.8972834564650267 0.12735307283618408
12482000 0.8974435023030234 0.1258800556867628
12483000 0.8974745627881909 0.12467576433295122
12484000 0.8973118068338956 0.1233391182401094
12485000 0.8974397238253046 0.12195117771672438
12486000 0.8974099825482423 0.12059566618377339
12487000 0.8973789963147055 0.1191602763424799
12488000 0.8974160657577314 0.11769615334146939
12489000 0.8974963786697455 0.11642957788789636
12490000 0.8974534301832625 0.11497348875334497
12491000 0.8975270427970315 0.1135468142436894
12492000 0.8975219497549954 0.11227760315067689
12493000 0.8974015019313243 0.11088594834933434
12494000 0.8974508056622648 0.10950117668497615
12495000 0.8974263430373548 0.10828834518547584
12496000 0.8973204147835052 0.10687249031678839
12497000 0.8974057962436819 0.10549858646554301
12498000 0.8973729321533522 0.10420467282324354
12499000 0.8971679842679274 0.10282841434407879
12500000 0.8972742520237023 0.10136391777170023
12501000 0.8973013941937921 0.10005492305989973
12502000 0.8971677341667419 0.09863211587136837
12503000 0.8972593562664395 0.09714945433111703
12504000 0.8972714701705585 0.09581058262743035
12505000 0.8970989350719292 0.09434455431968013
12506000 0.8971478608774562 0.09282147785075712
12507000 0.8971511316526494 0.09156139532868819
12508000 0.8970406892247013 0.0900476568083945
12509000 0.8970900031767688 0.0886036993063167
12510000 0.896999233846095 0.08734965317211275
12511000 0.8969281006263955 0.08587859125813144
12512000 0.8968713949884366 0.08436546946382595
12513000 0.896913141875973 0.08304328909547865
12514000 0.8966707800805571 0.08167608833328797
12515000 0.8967586045011667 0.08019428375526495
12516000 0.8966456942379689 0.07883486771896928
12517000 0.8964503992039009 0.07740186091991562
12518000 0.8964988129479249 0.07583958993473817
12519000 0.8965553117954753 0.07451371416873914
12520000 0.8962709565356443 0.07304948837726931
12521000 0.8963194182526598 0.07158908219185606
12522000 0.8963141639540149 0.07018846486421229
12523000 0.8960440693221222 0.06869799172272435
12524000 0.8961060236944144 0.06725739502273481
12525000 0.8959764539851637 0.06590327307155067
12526000 0.8957893599929339 0.06442024882188206
12527000 0.8958461622249255 0.06291909648295624
12528000 0.8957812690976263 0.061606281184135546
12529000 0.8955456080780971 0.06011530175343836
12530000 0.895545479727258 0.058516913403443394
12531000 0.8955410041548904 0.057136422089621004
12532000 0.8952991316523725 0.05564739514374399
12533000 0.8951738140432141 0.054050221961000226
12534000 0.8951433396178142 0.052712221297203425
12535000 0.8948310359134066 0.05111032102663664
12536000 0.8948364861445963 0.049528901534855785
12537000 0.8947477405915225 0.04811181304850948
12538000 0.8945718125077425 0.04661375768271403
12539000 0.8945374742895262 0.04508367969442369
12540000 0.8944411381244455 0.0437117562244106
12541000 0.8941679148908392 0.04224153971557793
12542000 0.8941478349608559 0.04071913648359768
12543000 0.8940796839103248 0.03932474166669772
12544000 0.8938111530667695 0.03789192513657167
12545000 0.8937354917420385 0.036353796272523664
12546000 0.8936983044189668 0.03503974906485806
12547000 0.8933688039363639 0.03349296413884956
12548000 0.8933078795434309 0.031888651337066636
12549000 0.8931934215702264 0.03046456576470733
12550000 0.8929106553036203 0.02900165879090917
12551000 0.8928697478868228 0.027371297463477776
12552000 0.8927199990296637 0.026079424312016364
12553000 0.8924067868854215 0.024491445183676536
12554000 0.8923270770683485 0.022814143371163303
12555000 0.8921833731463618 0.02146128536873267
12556000 0.8919086149562775 0.019902193505447505
12557000 0.8917745267228327 0.01833924677947182
12558000 0.8916541411737219 0.016907174511833746
12559000 0.8913203828174472 0.015371256971282339
12560000 0.8911795209163406 0.013705928540496529
12561000 0.8911253250164937 0.012303265949985317
12562000 0.8907765040954251 0.010702621407542598
12563000 0.8906940830204798 0.009017759761255396
12564000 0.8905622217909177 0.0075718496597713065
12565000 0.8901866560672971 0.006018057275215129
12566000 0.8900725946959271 0.004278322063304397
12567000 0.889914471401011 0.0028196805216052865
12568000 0.8896933748363355 0.001320847308194743
12569000 0.8895482950260198 -0.0003055039649595532
12570000 0.8893484390380852 -0.0017613104121035703
12571000 0.8889693434679409 -0.0032599676133119185
12572000 0.888798762717887 -0.004836058646251519
12573000 0.8887284526442226 -0.006251939351100883
12574000 0.8882832590556198 -0.00775813236393735
12575000 0.8881734508492714 -0.00940978567416953
12576000 0.8879524340512992 -0.01082576926161055
12577000 0.887564266930231 -0.01240589713115365
12578000 0.8873875096616204 -0.014093481826832307
12579000 0.8872116496969805 -0.015592295698980088
12580000 0.8868647162463458 -0.01716928232823146
12581000 0.8866131108434435 -0.01887712559554479
12582000 0.8864292379225218 -0.020415057794162025
12583000 0.8860358948585704 -0.02198801646766905
12584000 0.8858021153522573 -0.023663019887183043
12585000 0.8856240360616543 -0.025146482036093334
12586000 0.8852270256608816 -0.026738741017921695
12587000 0.8850547235656128 -0.028402617831419712
12588000 0.8848343895519825 -0.029872909965054997
12589000 0.8843765727683619 -0.03140008166917005
12590000 0.8841379350368224 -0.0331196122548732
12591000 0.8839985314265311 -0.034680521037040134
12592000 0.8835718065926997 -0.03626166395919291
12593000 0.8833427367158853 -0.03795509573401146
12594000 0.8831356505150301 -0.03938522844495677
12595000 0.8826122853754673 -0.0410555730357389
12596000 0.8823951538435258 -0.04281001582907645
12597000 0.8821617911102098 -0.044339349926347825
12598000 0.8817618872318188 -0.045906170003190715
12599000 0.8814542787108016 -0.04759746164073602
12600000 0.8813065192607588 -0.04909244433590761
12601000 0.8808007433238259 -0.05065500813446838
12602000 0.8805720353583181 -0.052404612901201214
12603000 0.8803153865076361 -0.05388882797121385
12604000 0.8798599848634948 -0.0555600429310817
12605000 0.8795969214950481 -0.0572548819405109
12606000 0.8792738746283385 -0.058825007714996706
12607000 0.8787880119517404 -0.06051721362181422
12608000 0.8784475616033949 -0.06228654466031812
12609000 0.8781663258141188 -0.06390612236230991
12610000 0.8776674529196307 -0.06556358030594307
12611000 0.8772579268277234 -0.06734721884219937
12612000 0.8769369083062362 -0.06891261255724634
12613000 0.8764674063010904 -0.07056322116093791
12614000 0.8761727779633013 -0.07234319172553227
12615000 0.8758546760466452 -0.07384546056866126
12616000 0.8753474805407778 -0.07545882243165893
12617000 0.8750842705791474 -0.07715405031433523
12618000 0.8747890333853832 -0.07861072293157836
12619000 0.8742438083728455 -0.08022437603009859
12620000 0.873896282751058 -0.08194595552502125
12621000 0.8735929398770454 -0.08350296276711174
12622000 0.8730321042291697 -0.08510706700228338
12623000 0.8726968069657817 -0.08682904487552631
12624000 0.8723696676736221 -0.08840384770944174
12625000 0.8717949554384801 -0.08999300791381963
12626000 0.8714042408648628 -0.09181157807713822
12627000 0.871098997660591 -0.09344044647032967
12628000 0.8705207519674046 -0.09507591574995207
12629000 0.8702092214847867 -0.09682397262113997
12630000 0.8698199879896485 -0.0984206292656494
12631000 0.8692391409523096 -0.10012502890662535
12632000 0.8688273928122497 -0.10191233724330558
12633000 0.868522346689185 -0.10354825988847562
12634000 0.8680146855652501 -0.10518131667854096
12635000 0.8675711146195831 -0.10701887882992721
12636000 0.8671457494136885 -0.10868042031234376
12637000 0.8665056725866772 -0.11037013055719867
12638000 0.8659874184964497 -0.1122558715327847
12639000 0.8656504091116312 -0.1138762600146573
12640000 0.8650393202597907 -0.11548388684329026
12641000 0.8645384249838467 -0.11728581917485094
12642000 0.8640701215347517 -0.11892251183631311
12643000 0.8634784654542943 -0.1205653876101893
12644000 0.8630166955863081 -0.12234339295932659
12645000 0.862668657509739 -0.12397995741846626
12646000 0.8620424938445066 -0.1255420275746658
12647000 0.8615794959101625 -0.12730278596406921
12648000 0.8612079763747568 -0.12890995561423108
12649000 0.860529322431605 -0.13054188015528106
12650000 0.860066944136662 -0.1323970220590571
12651000 0.8596195670328242 -0.13407023275744628
12652000 0.8590135417921996 -0.13565548314831835
12653000 0.8584679487308303 -0.13756228809397092
12654000 0.8580069059199318 -0.13922391296809736
12655000 0.8573009236173725 -0.14097893736926337
12656000 0.8566984071806433 -0.14287862064496135
12657000 0.8562297826694407 -0.1446058571324478
12658000 0.8555912017528658 -0.14632421014012978
12659000 0.8550750430019994 -0.14809596979126236
12660000 0.8545857581388501 -0.14977280562426368
12661000 0.8539127527087266 -0.15149776269560777
12662000 0.8533353159870489 -0.1533699830598182
12663000 0.8528604260239382 -0.15507697014711053
12664000 0.8522292190960624 -0.15673262584891973
12665000 0.8516915520873574 -0.15854989291341529
12666000 0.8511255919427239 -0.16015334742747578
12667000 0.8503720355394715 -0.16183538830242414
12668000 0.8497147286950854 -0.16368093902332168
12669000 0.8493112216428291 -0.1653517096993604
12670000 0.848503025242955 -0.16702793554372486
12671000 0.8479135692148243 -0.16889560119377353
12672000 0.8473296680306672 -0.17052969782280633
12673000 0.8467019326791411 -0.17219951345687656
12674000 0.8459942870822956 -0.17405644977081952
12675000 0.8455096170276958 -0.17571976248969162
12676000 0.8447508358338006 -0.1774660022167501
12677000 0.8440355452068057 -0.17932283462985849
12678000 0.8435085760364651 -0.18101880777380885
12679000 0.8426669840729587 -0.18280941435644124
12680000 0.8420635622319284 -0.1846576747957333
12681000 0.8414224871421505 -0.18643217143986282
12682000 0.8406681189477576 -0.18820919629239657
12683000 0.8399772041917598 -0.19008356398450657
12684000 0.8393751321804208 -0.191824814321875
12685000 0.838561209335073 -0.19355241961066127
12686000 0.8378434204410734 -0.19547489845808028
12687000 0.8372222972422122 -0.19719161378524938
12688000 0.836451360411687 -0.19887843679153822
12689000 0.8357082745937944 -0.20072199202978672
12690000 0.8351716985392538 -0.2023410240627602
12691000 0.834295848364887 -0.2040724244920345
12692000 0.8335980281179901 -0.2059621032038281
12693000 0.8330306699972846 -0.2076456626860962
12694000 0.8321852588618196 -0.20928325605040923
12695000 0.8314996707277166 -0.2110920589166443
12696000 0.8307315508410829 -0.2128173694222175
12697000 0.8299081150168454 -0.21448936859663692
12698000 0.8291416910953313 -0.21647059533066454
12699000 0.8284621068002374 -0.21818847861540067
12700000 0.8276401321159005 -0.21989688875036578
12701000 0.8267887988156096 -0.2217138836400791
12702000 0.8261133504420615 -0.2236112563610867
12703000 0.8251955260067245 -0.22535181207910163
12704000 0.8243888383160588 -0.22730525889654282
12705000 0.8236843844832121 -0.22912240607904627
12706000 0.8228277852152788 -0.23088755115770704
12707000 0.8219823223848878 -0.2327959826849633
12708000 0.8212614631859132 -0.23458803618025656
12709000 0.8204173614510748 -0.2363847260745184
12710000 0.81957150948927 -0.2382850469937476
12711000 0.818832413048462 -0.24009479860848662
12712000 0.8178919141331833 -0.24172642688765264
12713000 0.8169751651346293 -0.24356018639833543
12714000 0.8162400743228203 -0.24534269098477213
12715000 0.8153063226244766 -0.24698034247039097
12716000 0.8143768126151805 -0.2488872105978356
12717000 0.8136436241287905 -0.250601274093213
12718000 0.8127800144665677 -0.25225037071067286
12719000 0.8118615549582837 -0.25413804011660196
12720000 0.8110949943284723 -0.25594012987152
12721000 0.8102216326397974 -0.2575697440406648
12722000 0.8092469109840362 -0.2594929658838924
12723000 0.8084503688524287 -0.2613640930639283
12724000 0.8075545309806367 -0.26304078200193665
12725000 0.8065614146409278 -0.2649618734947033
12726000 0.8057809345545495 -0.26676381222892476
12727000 0.8047202943331438 -0.26862198910502944
12728000 0.8036754892314715 -0.27047495851983466
12729000 0.8028538582229378 -0.27241017340537527
12730000 0.8017801981426071 -0.2741248888602633
12731000 0.8007972563184785 -0.27609936993606554
12732000 0.7998741545796088 -0.2779625738007508
12733000 0.798846744216168 -0.27973524875913
12734000 0.7977499847656891 -0.2816084374935044
12735000 0.7968776010398892 -0.28354090059551074
12736000 0.7959488169076923 -0.285328101934906
12737000 0.7949331617942007 -0.28717278798175866
12738000 0.794053699717431 -0.28898597216500216
12739000 0.7930575697699324 -0.2906435695163551
12740000 0.791983797169655 -0.2925301637275301
12741000 0.7910732605718614 -0.294427342180388
12742000 0.7900645407369012 -0.2960731131662233
12743000 0.7889930165395085 -0.297858842842232
12744000 0.7880676761092423 -0.299648481439624
12745000 0.7869686303829606 -0.30141177123651947
12746000 0.7858310045761847 -0.3032372112703026
12747000 0.7848510261214361 -0.305219986363267
12748000 0.7837985040489222 -0.306880082038934
12749000 0.7826795069750143 -0.3087884179383381
12750000 0.7817123124283554 -0.3106933251800466
12751000 0.780630834627953 -0.3124086470078721
12752000 0.7794682213469375 -0.314325743111154
12753000 0.7784854449897841 -0.31625937920596453
12754000 0.7773646594453557 -0.31796092190250375
12755000 0.7761856694525623 -0.3198578652755951
12756000 0.7751905535615696 -0.32177889792750547
12757000 0.774037091859799 -0.3235045220275706
12758000 0.7727808904244408 -0.3253483707662775
12759000 0.7717166506541375 -0.32726077828997435
12760000 0.7706950125657502 -0.3290203962590258
12761000 0.7694332120796773 -0.33084684643495516
12762000 0.76835254833579 -0.3326616177201333
12763000 0.767229440693299 -0.33441959536620985
12764000 0.7659283189805585 -0.33622262247783474
12765000 0.764966428245826 -0.3380522273872941
12766000 0.7638324390369324 -0.3398325185325203
12767000 0.7626295956375927 -0.3416634936998593
12768000 0.7615779404615107 -0.34349304330405417
12769000 0.7603974181267821 -0.345152670877638
12770000 0.7591055463851597 -0.34705344238588914
12771000 0.7579846915101359 -0.3489302176240434
12772000 0.7567837738007182 -0.3506948923834096
12773000 0.7554139086089456 -0.35256013942107434
12774000 0.7543444548777719 -0.35450718743411636
12775000 0.7530267937928735 -0.3562461626545605
12776000 0.751591725511935 -0.35814837840000663
12777000 0.7503426363171807 -0.36013131015181965
12778000 0.7491067044841836 -0.36198506082594023
12779000 0.7477726574698921 -0.3638467606190629
12780000 0.7466750537440321 -0.36584152645686774
12781000 0.7454241022450696 -0.3675872641424275
12782000 0.7440097707232195 -0.36940101287415716
12783000 0.7427940211304651 -0.3713864689923818
12784000 0.7415893736779378 -0.3731074752516215
12785000 0.7401860317525404 -0.3750080627518551
12786000 0.7390219951477439 -0.3767637954985546
12787000 0.7376998145104422 -0.37849375898717336
12788000 0.7362573079686702 -0.38026160217002974
12789000 0.7350058177329 -0.38212543670157845
12790000 0.7337405188566165 -0.38380433238055933
12791000 0.732264818022716 -0.3855246427083865
12792000 0.7310259775132952 -0.38748662700461056
12793000 0.7297854206505696 -0.3890745379279705
12794000 0.7283787051704984 -0.39093816870635156
12795000 0.7269871561071255 -0.39281273991118715
12796000 0.7257083464435868 -0.3945803330045218
12797000 0.7242731315903543 -0.39646960136794157
12798000 0.7229617199391184 -0.3983289013107005
12799000 0.7215470586550417 -0.4000897860274554
12800000 0.7200459701224124 -0.40192937860598804
