# HZ S RI R 50
11000000 0.44966032546917595 0.8633682457201358
11007500 0.4515180223801743 0.8623552788988558
11015000 0.45352619584438536 0.8613473005811676
11022500 0.4555290398679032 0.8601696887316642
11030000 0.457535742097796 0.8592038121200785
11037500 0.4594743612492062 0.8580867516934387
11045000 0.46140724905522845 0.8570703573436005
11052500 0.4633800972757934 0.8557385372165577
11060000 0.4654269852397718 0.8548073505927118
11067500 0.46745117902446687 0.8534952443572028
11075000 0.4694841475185814 0.8523824604060448
11082500 0.47143518063396256 0.8511500196475088
11090000 0.4735113856891163 0.849896868572418
11097500 0.4756211294317811 0.8487732827971363
11105000 0.4776897377651271 0.847447634504936
11112500 0.47960487471030483 0.8462753867600629
11120000 0.48174203363097 0.8451087987537907
11127500 0.483775620433111 0.8435949248023643
11135000 0.48581680024215645 0.8425733990589354
11142500 0.4878891671335651 0.8411268893999944
11150000 0.48996376889928184 0.8400946165017613
11157500 0.49190517263285993 0.8386292521793701
11165000 0.49422332802936564 0.8373971102021658
11172500 0.4961726198135518 0.8359443165914493
11180000 0.4982352360757685 0.8346960900020916
11187500 0.500314351808639 0.8333110754121231
11195000 0.5025628198908015 0.831960322790365
11202500 0.5045901237701554 0.8306501769023039
11210000 0.5067046360026198 0.8294026088492468
11217500 0.5088035915691553 0.827749489375659
11225000 0.5110539862155963 0.8264881185619926
11232500 0.5130913520407593 0.8249292976767327
11240000 0.5153030404003172 0.8236919679252155
11247500 0.5173448041554902 0.8221168360064366
11255000 0.5195801004954376 0.8206466242075241
11262500 0.5217132957613836 0.8191873404096275
11270000 0.5239749931046233 0.8176748092425666
11277500 0.5260683322008317 0.8162336840289094
11285000 0.5282948037760158 0.8146299228480508
11292500 0.5304175560734898 0.8131080683784504
11300000 0.5327484576815529 0.8115681520467414
11307500 0.5348316881303621 0.8101373567701785
11315000 0.5370625571969929 0.8084816525301884
11322500 0.5392111902934486 0.8069509705710247
11330000 0.5415590788549217 0.8052905060151236
11337500 0.5436968756238088 0.8036780761165139
11345000 0.5461066527669086 0.8019764975843349
11352500 0.548334774109709 0.8003330221826679
11360000 0.5506787815914024 0.7988202856617657
11367500 0.5527252637134333 0.7970524785002774
11375000 0.5550186882772801 0.7952325635768829
11382500 0.5572178216048441 0.7936551941645903
11390000 0.5596440882096122 0.7918817453937483
11397500 0.5618479748358722 0.7902035480618805
11405000 0.5642202978393475 0.7884485268167624
11412500 0.5664569207668959 0.7867632149086886
11420000 0.5689320455620276 0.7848335623334409
11427500 0.571108164571353 0.7831488019630894
11435000 0.5734187765118465 0.7810956501006249
11442500 0.5756776414875651 0.7793897764281609
11450000 0.5779918951253292 0.7773333550327809
11457500 0.5803649806210166 0.7755674152621606
11465000 0.5828127691455293 0.7736791968761375
11472500 0.5851537543213741 0.7717108908120486
11480000 0.5874794399947116 0.7698016503401408
11487500 0.589885438373092 0.7679141932136725
11495000 0.5922199316038556 0.7658319574311904
11502500 0.5946231164384201 0.7639562267796635
11510000 0.597015690278745 0.7618650106243264
11517500 0.5993806208782552 0.7599937862336764
11525000 0.6018075203460845 0.7577689359512203
11532500 0.6042676741236572 0.755942879772379
11540000 0.6067222005501283 0.753558320500066
11547500 0.6090830103064394 0.7515656594325568
11555000 0.6115565001440904 0.7492117763255735
11562500 0.6141374253721724 0.747335563176353
11570000 0.616418951681293 0.7451093718721492
11577500 0.6189929719440707 0.7429418453367713
11585000 0.6213489832274494 0.7406896143329191
11592500 0.6238294092734196 0.7385056456489821
11600000 0.6263968587413754 0.7361488013683002
11607500 0.628834066088257 0.7339871687051834
11615000 0.6313607451285596 0.7315441366514108
11622500 0.6338301404979567 0.7292900426918665
11630000 0.6363923840406314 0.7268054003289476
11637500 0.6389978761065807 0.7244982393090171
11645000 0.6414749533226637 0.7220793533014189
11652500 0.6440697233493194 0.7197594611285876
11660000 0.6465512077932022 0.7170302506717883
11667500 0.6492408712319768 0.7146677514133765
11675000 0.651813876771433 0.7120834453413608
11682500 0.6543747181651248 0.7095441438887078
11690000 0.6569087457409671 0.7067869468419864
11697500 0.6595692709446551 0.7041578818458525
11705000 0.6620748081765958 0.7014246865338921
11712500 0.6647196424868101 0.6986470653371308
11720000 0.6672414638749249 0.6957526721472556
11727500 0.6698951560194808 0.6929262417635005
11735000 0.6723733509090729 0.690142767989082
11742500 0.6751052515273164 0.6871684979958086
11750000 0.6776891569169159 0.6844357406321586
11757500 0.6802403165715719 0.6814095786317872
11765000 0.6828079295794762 0.678520952394368
11772500 0.6855600371739019 0.6754533763719557
11780000 0.6882087512202859 0.6723730955370643
11787500 0.690810613353961 0.6695592380398351
11795000 0.6934293034951357 0.6664063921664506
11802500 0.6961508452060324 0.6632284412179574
11810000 0.6987740789143899 0.6601197780850845
11817500 0.701498872441387 0.6569978422725513
11825000 0.7041000857029855 0.6536779828827837
11832500 0.7068507001785129 0.6504136375287359
11840000 0.7095588870520428 0.6471604767798491
11847500 0.7121475456384035 0.6438879204131873
11855000 0.7147872912261445 0.6404169132759998
11862500 0.7176113206448168 0.637094730773731
11870000 0.7202826731010564 0.6335866863724313
11877500 0.7230834737170855 0.6302217381425933
11885000 0.7257333746579167 0.6266591089857216
11892500 0.7284800272332623 0.6230575481307961
11900000 0.7312571134485282 0.6194344761791212
11907500 0.7339148957766185 0.6157351071167378
11915000 0.7366921689858423 0.6120075237853044
11922500 0.73941748892481 0.6083517742739766
11930000 0.742123643779069 0.6045146869066279
11937500 0.7449473345586758 0.6006178496860691
11945000 0.7475923860521363 0.5967127629735572
11952500 0.7504269141661187 0.5927014524817158
11960000 0.7530434121375019 0.5888235811735372
11967500 0.7559427961151277 0.584834681385107
11975000 0.7586496640777178 0.5807244012473418
11982500 0.7614701393225711 0.5765540344847443
11990000 0.7641976788846956 0.5723587973855536
11997500 0.7668541637307043 0.5681681957522988
12005000 0.7697487996453689 0.5638510791530712
12012500 0.7724804923056624 0.5595083853115935
12020000 0.7751537419205758 0.555090816710359
12027500 0.7778854911628291 0.5505979972729801
12035000 0.7805915176165055 0.5460221531426851
12042500 0.7834212882798278 0.5414392588686131
12050000 0.786065811328239 0.5368333458065532
12057500 0.7889066791521827 0.5320722686918238
12065000 0.7916006319661893 0.5273542465522928
12072500 0.7942827724112023 0.5224862303768439
12080000 0.7971239941605859 0.5174872017832537
12087500 0.7998204350477081 0.5125965618787776
12095000 0.8025083405686896 0.5075214648367796
12102500 0.8052074190416985 0.5024322039973746
12110000 0.8078914984792183 0.49732694539378147
12117500 0.8105943340076228 0.49213366749341253
12125000 0.8131600710993019 0.4868228142019075
12132500 0.8159475928271982 0.48138930072190717
12140000 0.8185059534452629 0.4759131285169188
12147500 0.8213147599971393 0.47043386610992083
12155000 0.8238067878166894 0.46492597380012785
12162500 0.8264531808475307 0.4592899682462656
12170000 0.8290006897175006 0.4535688098518346
12177500 0.8316174859704305 0.44779244918181166
12185000 0.834029222898197 0.44188455543046573
12192500 0.836590561063202 0.43594598148672453
12200000 0.839173133066416 0.42989841376256466
12207500 0.8415667597102703 0.42382407066208044
12215000 0.8440222732056041 0.41763075334006466
12222500 0.8464589188694802 0.41130606510337175
12230000 0.8489175877709214 0.4049143771217014
12237500 0.8513375581834803 0.39847709256871716
12245000 0.853631057102052 0.39197483891434115
12252500 0.8559399227501466 0.38533612723941457
12260000 0.8582372760233922 0.3785670502557344
12267500 0.8605398149165306 0.3717563840926997
12275000 0.8627618061712885 0.3649482683138452
12282500 0.8650464821857221 0.3577691948948445
12290000 0.8670784563342423 0.35063222756310913
12297500 0.8693521897847852 0.3433977587052211
12305000 0.8713261878359877 0.336044433181027
12312500 0.8734176800383309 0.3285336497817862
12320000 0.8753381470459944 0.32101155340506016
12327500 0.8774072300198225 0.31335151264677313
12335000 0.8792943253250766 0.3057165097621846
12342500 0.881112168753396 0.2977020983908941
12350000 0.8828251822686725 0.28982707153294873
12357500 0.884578771130128 0.281633866481567
12365000 0.8862554415576237 0.2735033080993407
12372500 0.8877958730199312 0.26508301288498404
12380000 0.8892959765117177 0.2566361426166307
12387500 0.8909232338330861 0.24809374337901566
12395000 0.8922285347731683 0.2396049686018658
12402500 0.8935013073162874 0.2306170691223639
12410000 0.8948486425444006 0.22186883258328707
12417500 0.8959425425402623 0.21282284530014628
12425000 0.8969694254721569 0.20381164883378763
12432500 0.8979751819044265 0.19445930287254207
12440000 0.89893970258451 0.18525548379117973
12447500 0.899659580321607 0.1756135331137053
12455000 0.900458797650601 0.16619583007167443
12462500 0.9008729096573309 0.1562746022677956
12470000 0.9014517247573871 0.14655665001626922
12477500 0.9018218254128417 0.13642896053884596
12485000 0.9021011251197959 0.12660710203485198
12492500 0.9021829589026391 0.11621399893590822
12500000 0.9022425677464541 0.10602744760163826
12507500 0.9020742982297206 0.09534321674415085
12515000 0.9018491772806829 0.0849604813373618
12522500 0.9012292942951396 0.0741549109085221
12530000 0.9009296758713797 0.0633307568051473
12537500 0.9000565252567392 0.05229090518033838
12545000 0.8993768207353584 0.0412230958590808
12552500 0.8982156794444227 0.030007886182442756
12560000 0.8971250344179488 0.018581361944904434
12567500 0.8957917351611661 0.007093090811189846
12575000 0.8943291243547704 -0.004421591490046611
12582500 0.8923895332693291 -0.016241222552337176
12590000 0.8906682666669309 -0.028076276958596675
12597500 0.8884833333751476 -0.040128816484449936
12605000 0.8863280914006709 -0.0521129059798587
12612500 0.8836760398176138 -0.06436269596982193
12620000 0.8811054321359982 -0.07686133797532244
12627500 0.8779751289100375 -0.08930161995088828
12635000 0.8749776870163656 -0.10200158315274203
12642500 0.8713336266058559 -0.11464088238795558
12650000 0.8678138733074772 -0.1276773318445114
12657500 0.863737706257154 -0.14064676012685506
12665000 0.8597509421996059 -0.1538485344423735
12672500 0.8551264434535664 -0.16693206542270358
12680000 0.850311845513994 -0.1803918825735192
12687500 0.8453414725172745 -0.19369132805831146
12695000 0.840045100691494 -0.20722391478770297
12702500 0.8343332715475456 -0.2206700606311017
12710000 0.8285220038376898 -0.23457749996392088
12717500 0.8221899842665371 -0.24813268751109094
12725000 0.8157170203810549 -0.26196049478595457
12732500 0.8085961834653578 -0.27561019967676886
12740000 0.8013901845761555 -0.2896344608362832
12747500 0.7938455838725785 -0.3035082343878748
12755000 0.785956561424188 -0.3174037842826904
12762500 0.7775744681447657 -0.33120959944462347
12770000 0.7688858354337215 -0.34528202691664117
12777500 0.7598156065271199 -0.35915465513648576
12785000 0.750614485886096 -0.37315780569770807
12792500 0.7406677015901857 -0.3868287793113423
12800000 0.7304973752510384 -0.400711648158678
12807500 0.7199262898452726 -0.41434814870161446
12815000 0.7090299697549536 -0.4281568835361012
12822500 0.6977091713772994 -0.44144338929460003
12830000 0.6858333688337703 -0.4551320951292293
12837500 0.673656784864364 -0.4683940319846354
12845000 0.6611615656261807 -0.4818598425552601
12852500 0.6482014289362276 -0.4947878573551257
12860000 0.6345783479387307 -0.5080108332722556
12867500 0.6209204757862345 -0.5207370829107841
12875000 0.6064474377875776 -0.5336590032544637
12882500 0.5918255563939335 -0.5459967532210304
12890000 0.5765739599964684 -0.5583770396579392
12897500 0.5609595694869581 -0.5703700055491034
12905000 0.5448886616783185 -0.5823499572175129
12912500 0.5285450736283752 -0.5936981510199575
12920000 0.5114468978348178 -0.6051631998838453
12927500 0.49407975856981934 -0.6161509429898406
12935000 0.4762852147785575 -0.6270386729818473
12942500 0.4582109067634226 -0.6372079262710083
12950000 0.4394913579747741 -0.6473597819254812
12957500 0.42048417720564324 -0.6570107479814765
12965000 0.40101953726578077 -0.6663780034628235
12972500 0.3813134927186217 -0.6750208282863932
12980000 0.36092725014610155 -0.6834969292432796
12987500 0.34058927779262915 -0.6914509626705445
12995000 0.319629595318427 -0.6990055592597858
13002500 0.29844133509633924 -0.7058928436186487
13010000 0.276834983240075 -0.7124461806874516
13017500 0.2551093272222714 -0.7184467636212826
13025000 0.23293227236837757 -0.7238744913570595
13032500 0.21060778192079416 -0.7287128069946243
13040000 0.18802297472877594 -0.7330732549470725
13047500 0.16522678831575202 -0.736794531083284
13055000 0.14217545077116364 -0.7399794648300052
13062500 0.11906232286891968 -0.7423478638400376
13070000 0.09576461372480569 -0.744291780315589
13077500 0.07235247199422712 -0.7456471024356267
13085000 0.0487597176338379 -0.7462465597771801
13092500 0.02524173056580154 -0.7461751140928111
13100000 0.001451864483580713 -0.7454440411370619
13107500 -0.0221514621911235 -0.7441895835120059
13115000 -0.04591120478715045 -0.7423265918387577
13122500 -0.06948390126608721 -0.7396735994141774
13130000 -0.09312247139652943 -0.7363221525563606
13137500 -0.11678569513075718 -0.7323718205658084
13145000 -0.1402172574802943 -0.727768718923955
13152500 -0.16340756187881095 -0.7227344687992118
13160000 -0.1864680006905317 -0.7167572757912826
13167500 -0.20936030413646775 -0.7102289978504702
13175000 -0.23218880727916621 -0.7031735189071285
13182500 -0.2544325912372436 -0.6953494691684232
13190000 -0.27675504121805006 -0.6870385225896487
13197500 -0.29849266490105003 -0.6781275441229703
13205000 -0.3201387934776894 -0.6686169254444929
13212500 -0.34133826200389034 -0.6586433944526761
13220000 -0.36225861055455943 -0.6479254030360843
13227500 -0.3827112295719814 -0.6367906177817563
13235000 -0.40292885297565467 -0.6251961694457754
13242500 -0.4226418426714091 -0.6130267477687975
13250000 -0.44210302692445325 -0.6004214998058061
13257500 -0.4609740439434289 -0.5873446034535628
13265000 -0.4794150800366391 -0.5737436189594659
13272500 -0.4973921669736875 -0.5598720174230766
13280000 -0.5149474778120249 -0.5454586451198965
13287500 -0.5319412651815867 -0.5307013374623114
13295000 -0.5486985940871336 -0.5156586425892455
13302500 -0.564714663846237 -0.5001565042140114
13310000 -0.5803140159302635 -0.4844552215430408
13317500 -0.5953826928807605 -0.4683647530872366
13325000 -0.6099682063874214 -0.45203110473800723
13332500 -0.6240164861546356 -0.4355834516891554
13340000 -0.6375161117976791 -0.4188077734895117
13347500 -0.6504833814209904 -0.40176097522644777
13355000 -0.6630142188919139 -0.38465092316578486
13362500 -0.6748973885036864 -0.3672589602073827
13370000 -0.6863440118196591 -0.3497906793032205
13377500 -0.6972619863633855 -0.33220795338907894
13385000 -0.7076705359005606 -0.3145442378756574
13392500 -0.7175249874672764 -0.29677744976615866
13400000 -0.72688298236804 -0.27894674283494486
13407500 -0.7356881171739894 -0.26112746315460444
13415000 -0.74418054879769 -0.2432259031700785
13422500 -0.7519222343685268 -0.22526659241456154
13430000 -0.7593719251001245 -0.20739154807494234
13437500 -0.7662900768809878 -0.18956141663621193
13445000 -0.7727427307098849 -0.1718153562790492
13452500 -0.7787259466492502 -0.1540027971721986
13460000 -0.7842974097317277 -0.13640729961043008
13467500 -0.7894192586126942 -0.1188434809651504
13475000 -0.7940751476603012 -0.10146192451506608
13482500 -0.798307271027652 -0.08409822939091031
13490000 -0.8021529498907223 -0.0668456091794272
13497500 -0.8056632657770552 -0.04982568953454492
13505000 -0.808773554583891 -0.032857395427828485
13512500 -0.8114232143406794 -0.016043776488450224
13520000 -0.8138479565531604 0.0005876262062513729
13527500 -0.8157897395104099 0.017160298531921133
13535000 -0.8175408738600345 0.033460001408291015
13542500 -0.8187777072768446 0.04969153539117823
13550000 -0.8198622196243073 0.06568760982961448
13557500 -0.8206577049458575 0.08155546654783945
13565000 -0.8211531742119733 0.09720165678865912
13572500 -0.8211133997384711 0.112646452627666
13580000 -0.8210426334376301 0.12794925753667744
13587500 -0.8206395440108615 0.14301081621075953
13595000 -0.8200841951624456 0.15793940414739263
13602500 -0.8190828792053857 0.17257550034041413
13610000 -0.817988735636224 0.18717806967618963
13617500 -0.8165789215703053 0.20155442513272612
13625000 -0.8150908845331282 0.2155571116867223
13632500 -0.8132765626115999 0.22950346441186176
13640000 -0.8112521932306707 0.24320139615821873
13647500 -0.8090406797164496 0.2567352006277994
13655000 -0.8068101562455471 0.2699999524695015
13662500 -0.804134052420573 0.28300069279215356
13670000 -0.801572213951435 0.29589745259708544
13677500 -0.7986083380717389 0.3085427215309843
13685000 -0.7957017970596822 0.32099398416242514
13692500 -0.792491732920312 0.33313950525537556
13700000 -0.7893220809083011 0.3453376491740043
13707500 -0.7858510999405651 0.3571219411948995
13715000 -0.7824124758572653 0.3688506747325567
13722500 -0.7786333960725821 0.38012788130230113
13730000 -0.7749443543574525 0.3914612830969386
13737500 -0.7709931568677403 0.40242491730303037
13745000 -0.7672560801621511 0.41338595119735677
13752500 -0.7631501038265762 0.4239965248725122
13760000 -0.7590256644555897 0.43453161441257027
13767500 -0.7547281971682004 0.4447425589067509
13775000 -0.7505432447347394 0.45486852137159123
13782500 -0.7460287049081863 0.46468950380089163
13790000 -0.7416311295775333 0.4744997866103447
13797500 -0.737103976261693 0.48406248582435984
13805000 -0.7325562838767481 0.49347353537870264
13812500 -0.7280572282802552 0.5025345843249595
13820000 -0.7233628057820146 0.5116758461280939
13827500 -0.7186724484477066 0.5205104430737469
13835000 -0.7139263892899848 0.5293721299655457
13842500 -0.7090537583375031 0.5376224858080481
13850000 -0.7042773036260304 0.5461499893842474
13857500 -0.6993958073255951 0.5542714746080731
13865000 -0.6945740327881501 0.5624854311222443
13872500 -0.689721653781397 0.5701562455183061
13880000 -0.6846145282049078 0.5780717614305896
13887500 -0.6796867543817017 0.5856696555206318
13895000 -0.6746599386465456 0.5933360019188536
13902500 -0.6698325294305718 0.6004347401596203
13910000 -0.6647109049016511 0.6076678770515853
13917500 -0.6597710416998341 0.6147090985650285
13925000 -0.6546860078463107 0.6217135490989548
13932500 -0.6497510418918712 0.6282501833322809
13940000 -0.6445213609703988 0.6350499222561512
13947500 -0.6395087523511721 0.6414280430893775
13955000 -0.6344465485015341 0.6479676612240044
13962500 -0.6294953139261587 0.6542680513345585
13970000 -0.6242651211361353 0.6604295285355353
13977500 -0.6193534168687272 0.6663696829673085
13985000 -0.6142344476749368 0.6724496074145689
13992500 -0.6094971999958255 0.6781356213256251
14000000 -0.6041941726835561 0.6838489566201432
