# HZ S RI R 50
1000000 0.9986352289265461 -0.02556125791531241
1047500 0.9982750825764096 -0.02690779915822019
1095000 0.998413817205706 -0.028033241280101845
1142500 0.9984267162498182 -0.029097285281800892
1190000 0.998463939330602 -0.03047613396820043
1237500 0.9984412418418922 -0.03167352973389524
1285000 0.9983732420193588 -0.03288430508711621
1332500 0.9981801280937339 -0.03393900895152848
1380000 0.9982486184034386 -0.03521893458707494
1427500 0.9981253187313398 -0.036494756061969155
1475000 0.9981145765523866 -0.03764432541484053
1522500 0.9980015956917467 -0.03877313878451114
1570000 0.9979548892561545 -0.03993085438107912
1617500 0.9979577256654529 -0.04123980638993378
1665000 0.9978701017952405 -0.042435693239547864
1712500 0.9978853312381867 -0.043704086558958834
1760000 0.9976916435055599 -0.04479713780935862
1807500 0.9977382296409253 -0.045909078658824376
1855000 0.9976957000978715 -0.047151689320137496
1902500 0.9975407329866771 -0.04842624533932834
1950000 0.9973640386514822 -0.04957972571890923
1997500 0.9973860920352613 -0.05069157520626942
2045000 0.9974017710840912 -0.051877886997017286
2092500 0.9973598513784944 -0.053123745491764386
2140000 0.9971829762719417 -0.05441055327390295
2187500 0.997067841820348 -0.05552042971955104
2235000 0.9970220550029667 -0.05654503786304609
2282500 0.9969958754237404 -0.05788386009434875
2330000 0.9968634180643335 -0.05909625763138187
2377500 0.9967617350590174 -0.060191954223857994
2425000 0.9966955681922874 -0.0614150565916301
2472500 0.9966916675132577 -0.06254372692166651
2520000 0.9966429135591258 -0.06379605025723317
2567500 0.9965112954071716 -0.06504428347389504
2615000 0.9963376220512534 -0.06625593599201617
2662500 0.9962857745997877 -0.06739129486492812
2710000 0.9962211155738366 -0.06866746300537703
2757500 0.9960868932908606 -0.06972658216573858
2805000 0.9959558716153674 -0.07096918149366901
2852500 0.9958369502985863 -0.07215568584253206
2900000 0.9957457257338403 -0.07332750938332148
2947500 0.995771368496179 -0.07451103855521492
2995000 0.9956457852603433 -0.07578437237868436
3042500 0.9954859809554191 -0.07696545654807668
3090000 0.9953405379321124 -0.0780608326023241
3137500 0.9953616655874484 -0.07929049674615339
3185000 0.9952131205375256 -0.080464683754578
3232500 0.9950565924554952 -0.08166161785105731
3280000 0.9949675374504552 -0.08289302090345406
3327500 0.9948565289418558 -0.0839912323433823
3375000 0.9947897202941653 -0.08516465919992537
3422500 0.9946526513421625 -0.08639181792862534
3470000 0.9945777504810713 -0.08766290988115448
3517500 0.9943863093222333 -0.08881109498126141
3565000 0.9942621210401129 -0.09003545533767568
3612500 0.9941790622016489 -0.09108289797618539
3660000 0.9940234987056495 -0.092301431286005
3707500 0.9939719226185012 -0.09348043456411373
3755000 0.9937880774163894 -0.09472124107185606
3802500 0.9937474730954805 -0.09585466536561835
3850000 0.9935978321462092 -0.0970540960269068
3897500 0.9935277675040451 -0.09832200497802383
3945000 0.993319549225338 -0.09949986101153684
3992500 0.9932627785168116 -0.1007113011597264
4040000 0.9929961927331955 -0.10182418361296067
4087500 0.9929060906294646 -0.10296586941679615
4135000 0.9927597837748724 -0.10418362655087826
4182500 0.9926453996513949 -0.1053293243939766
4230000 0.9925711814487874 -0.10647631905301835
4277500 0.9924532593642215 -0.1077118605473677
4325000 0.9923269775921107 -0.1089495162595257
4372500 0.9921045450808116 -0.1101743561267397
4420000 0.9919489624295319 -0.1113497656804061
4467500 0.9917955313465951 -0.11237500210817584
4515000 0.9916935874500244 -0.11358874302926568
4562500 0.9915800914093723 -0.1146987479470771
4610000 0.9914122011976658 -0.11595049561914958
4657500 0.991239150318022 -0.11713069115583705
4705000 0.9912060717925519 -0.11833276740827339
4752500 0.9909361195296497 -0.1195017023112075
4800000 0.9908588318560898 -0.12076399266966133
4847500 0.990660306574477 -0.12192339443061213
4895000 0.9903223056494064 -0.12303277706703486
4942500 0.9902733033568394 -0.12424708879510904
4990000 0.9902097492751755 -0.1253687365520209
5037500 0.9899703222112574 -0.12655248694987953
5085000 0.9898890428664732 -0.12772352511477214
5132500 0.9897706417049632 -0.12891193066207565
5180000 0.9894922246991839 -0.1301607131606838
5227500 0.9893544604318624 -0.13134973598371633
5275000 0.9891841414661484 -0.13248637475930916
5322500 0.9889746822830988 -0.13371288463537104
5370000 0.9887132079617984 -0.13478629120751334
5417500 0.9886751146485186 -0.13603579593852297
5465000 0.9884317912371422 -0.13716334373965652
5512500 0.9883374777351391 -0.1382933097364275
5560000 0.9882402085040554 -0.1394934828271082
5607500 0.9879825310510809 -0.1407406082617297
5655000 0.9878365706311969 -0.14180979901940427
5702500 0.9875811673881207 -0.14305689278883282
5750000 0.9874230950392611 -0.14420830886452193
5797500 0.9872779141664576 -0.14541634942361986
5845000 0.9871230040673077 -0.14652581026162026
5892500 0.986897468180522 -0.14774493134211109
5940000 0.9867054273298006 -0.1488889177275194
5987500 0.9865153704272343 -0.15003706142593934
6035000 0.9864074621409418 -0.1511847872787804
6082500 0.9861952705488343 -0.15241485926801243
6130000 0.9859516853616517 -0.1536247452502056
6177500 0.9857430401602547 -0.15483827146122767
6225000 0.985443873153671 -0.15594890120626043
6272500 0.9854063437358419 -0.15712553452909192
6320000 0.9851348107001602 -0.15827888522223596
6367500 0.9848404541458274 -0.1594368720853463
6415000 0.9847718236445562 -0.16060727931823673
6462500 0.9845922645311378 -0.16176377896477312
6510000 0.984344267266452 -0.1629490352080581
6557500 0.9841259941318007 -0.16414701365002093
6605000 0.9839328935299348 -0.16529381165651014
6652500 0.9837195713949327 -0.16651848204418282
6700000 0.9835128557641919 -0.16758555465200406
6747500 0.9832967247188108 -0.1688051909577404
6795000 0.9831381699417269 -0.16998821353880925
6842500 0.9828728512550037 -0.1711504491873132
6890000 0.9827230818997995 -0.1723317519112041
6937500 0.9824944319144064 -0.17342423632348167
6985000 0.9822485545005463 -0.17475217142799332
7032500 0.9819653214657881 -0.17588015452652198
7080000 0.9816831073239074 -0.17696445046213102
7127500 0.9815174929572686 -0.17806847540736861
7175000 0.981397988631783 -0.17924115843378138
7222500 0.9811268709061061 -0.18043458163848655
7270000 0.9809026829186017 -0.18159778077248093
7317500 0.9807086302302189 -0.18275741921086944
7365000 0.9805772743642674 -0.1839378597568557
7412500 0.980298068678089 -0.1851807520038789
7460000 0.9799445643917801 -0.1862944093930276
7507500 0.9796528513492978 -0.18751290139706753
7555000 0.9795162447709009 -0.18859287615431866
7602500 0.9792209016111512 -0.18975864972630738
7650000 0.9790554710768395 -0.19095477405764402
7697500 0.9787999568458362 -0.19208460844657888
7745000 0.9785672557478792 -0.1932411805593594
7792500 0.9784557058868598 -0.194385121097636
7840000 0.9781606179651945 -0.19561874765250303
7887500 0.9778791707117872 -0.19686776289347815
7935000 0.9776111692297506 -0.19789845023501443
7982500 0.9773155808302146 -0.19911275161582348
8030000 0.9770333636733987 -0.20023327348469105
8077500 0.9768321487899037 -0.201361230737853
8125000 0.9766472692921648 -0.20243361059288023
8172500 0.9762763383968461 -0.20379623303528122
8220000 0.9759879580751611 -0.20488696771123177
8267500 0.9757263547968498 -0.20597295105617724
8315000 0.975624698525048 -0.20704129970320947
8362500 0.97539753143181 -0.20827611429298418
8410000 0.9751208154648743 -0.20953104126858754
8457500 0.9747579894488732 -0.21074898072961648
8505000 0.9744218974858672 -0.2118644759176403
8552500 0.9743140981434578 -0.212865061101639
8600000 0.9740337845816619 -0.214068036113979
8647500 0.9737097388889208 -0.21533451429095823
8695000 0.973382565183316 -0.2164332060006409
8742500 0.9731891342405444 -0.21743934772952356
8790000 0.9729631761452232 -0.21865394935624116
8837500 0.9727551058551803 -0.21988360579368066
8885000 0.9724271960446961 -0.22110937818409562
8932500 0.9721426080968268 -0.2222228650139533
8980000 0.9717809946788918 -0.2233267272533424
9027500 0.9716271818756567 -0.22446436248993773
9075000 0.9713132046081897 -0.2256892252206866
9122500 0.9708605357588619 -0.2267459896037312
9170000 0.9706512377011801 -0.22785001490849732
9217500 0.9704750396240617 -0.22912044268635381
9265000 0.9702769227400689 -0.23025902328518516
9312500 0.9698903197858599 -0.2315212603740537
9360000 0.9696036555426611 -0.23263283867832316
9407500 0.9693289531522133 -0.23370715439022652
9455000 0.9691886657413886 -0.2347986872281558
9502500 0.9687742215209525 -0.23615091125701315
9550000 0.9683721945566359 -0.23720617651702747
9597500 0.9681811824423839 -0.2382751305726944
9645000 0.9678818258091909 -0.2393902950177636
9692500 0.9676900084048066 -0.24056257722026356
9740000 0.9673755368356011 -0.2417719274534441
9787500 0.9670334706977558 -0.24293542427317996
9835000 0.9666504786489383 -0.24403049227637133
9882500 0.9663462162493047 -0.2451284305881198
9930000 0.9660013597563252 -0.24637200256731906
9977500 0.9657202677587402 -0.24752572897127048
10025000 0.9654126559113009 -0.2486174164067558
10072500 0.9651991936135219 -0.24969972605635268
10120000 0.9648967700921096 -0.25088394440650125
10167500 0.9646421466340952 -0.2520455103509079
10215000 0.964258808106344 -0.25323415762415186
10262500 0.9639500771790913 -0.2544277543284186
10310000 0.9635782924823942 -0.2554969682908322
10357500 0.9632549387002891 -0.25664184040682597
10405000 0.9629535995823473 -0.25782339707276597
10452500 0.9624949790074833 -0.25886427325804046
10500000 0.9623257441962304 -0.2599071370197096
10547500 0.9621047242129589 -0.2611854858557761
10595000 0.9618159963058494 -0.26250390179560723
10642500 0.9613213468221857 -0.2636158511999037
10690000 0.9609276454944462 -0.2645993286057294
10737500 0.9607750877242529 -0.26569563547181124
10785000 0.9604011239686987 -0.26702517662232894
10832500 0.9599036092931411 -0.26813478418801945
10880000 0.9594877771092587 -0.2690199971375164
10927500 0.9594251061936665 -0.2700599056625022
10975000 0.9592636934657409 -0.2714089538734257
11022500 0.9588228089685732 -0.2727487817020207
11070000 0.9582943883948455 -0.27376349272145556
11117500 0.9580002437290555 -0.27473409811525024
11165000 0.9578269419142331 -0.27586055762414996
11212500 0.957521898761698 -0.27720860233685757
11260000 0.956962685958686 -0.27842426532784814
11307500 0.9565509042713837 -0.27927559489831927
11355000 0.956303895552641 -0.28022327823081783
11402500 0.9561936700056829 -0.28162978164400176
11450000 0.9558205409451691 -0.2828495259058551
11497500 0.9552381889098868 -0.28400732503016823
11545000 0.9548902398663934 -0.2849813411981338
11592500 0.9546283419107725 -0.2859801273973142
11640000 0.9544166158676354 -0.2873524259133058
11687500 0.9538701402683153 -0.28859463294940235
11735000 0.9534342020698159 -0.2895941083115258
11782500 0.953120101156945 -0.29056914906284625
11830000 0.9529268353428014 -0.2917932037559134
11877500 0.9525914217696251 -0.2930607448963009
11925000 0.9520776633193316 -0.29428658186039275
11972500 0.9517309406747185 -0.2951192473368173
12020000 0.9514146888292877 -0.29623197640988413
12067500 0.9511004011078317 -0.2974062781745889
12115000 0.9507505666310448 -0.2987324366403052
12162500 0.9501677964261578 -0.29972477303366146
12210000 0.94975748057008 -0.30067732870362834
12257500 0.9497167749241887 -0.3017438213561995
12305000 0.9493875017600091 -0.3031639977196209
12352500 0.9488124147691429 -0.30444105398537896
12400000 0.9483437289327066 -0.3053930618852745
12447500 0.9480225391325232 -0.3063365064678664
12495000 0.9477964325245369 -0.30757018908828765
12542500 0.9474017657442214 -0.30887056384149164
12590000 0.9468226178632733 -0.3099009593292937
12637500 0.946429979291782 -0.31083585347912557
12685000 0.9462839240848916 -0.3119004587101063
12732500 0.9459914658501378 -0.31319416175307757
12780000 0.9455042348259313 -0.3144696229194505
12827500 0.9449692583535738 -0.3154593901507707
12875000 0.9446892588427299 -0.3164286926986114
12922500 0.9444223645957265 -0.3176047740026995
12970000 0.943973905765986 -0.31886232519413293
13017500 0.9433957884173437 -0.31998237570658633
13065000 0.9429286085960694 -0.3209327731179216
13112500 0.9427781629923438 -0.32191074794313634
13160000 0.9424829778411988 -0.32317915308055883
13207500 0.9419864669930054 -0.32457347640615375
13255000 0.9413832793471724 -0.32556884649189766
13302500 0.9410028224229359 -0.32650821463686946
13350000 0.9407302477419904 -0.32772610727127416
13397500 0.9404699599976847 -0.32889851818032007
13445000 0.9399493633649666 -0.3300527484451434
13492500 0.9393479707980179 -0.33103134659797917
13540000 0.9391021105670848 -0.3320713462011211
13587500 0.9389062085642202 -0.3332223491889547
13635000 0.9384816092971213 -0.33455576236168505
13682500 0.9378713247182519 -0.3356323095232751
13730000 0.9373358149681208 -0.3365797758850365
13777500 0.9370981333279683 -0.3376030685556676
13825000 0.9367533001378563 -0.3388992133566966
13872500 0.9362356237092805 -0.340123665836829
13920000 0.9357076130113856 -0.341125283637637
13967500 0.935370584784962 -0.3419733399081542
14015000 0.9350982299928657 -0.34318437048913913
14062500 0.9346560552809285 -0.34451055601768155
14110000 0.9341273983516248 -0.3456724431598305
14157500 0.9336205320107518 -0.34662095426200096
14205000 0.9333491013933445 -0.3476376407658903
14252500 0.9328995746617214 -0.34890070325397504
14300000 0.9324028509389928 -0.35008921311374896
14347500 0.9319088507229456 -0.3510839702247457
14395000 0.93150290008149 -0.35201731955811233
14442500 0.9313406366524322 -0.3530525007373832
14490000 0.9308857909870637 -0.35438082152480366
14537500 0.9302656048999409 -0.3556170793283936
14585000 0.929740355342855 -0.3565931310541573
14632500 0.9294611916420169 -0.35758869886031036
14680000 0.9290958046957436 -0.3587380362137416
14727500 0.9285953793224209 -0.36005636906959687
14775000 0.927984574414671 -0.36108778539527425
14822500 0.9275761249069566 -0.36196762324439563
14870000 0.9273425659980042 -0.36299464431021233
14917500 0.9269212931331767 -0.3642523174016778
14965000 0.9264364034527129 -0.36551997893387805
15012500 0.9258153189600908 -0.36650641207179874
15060000 0.9253505693394072 -0.3673633740830048
15107500 0.9250512522276354 -0.3685739082364923
15155000 0.9246549918900089 -0.3698393043303343
15202500 0.9240134199766841 -0.3707820839122036
15250000 0.9235362118679621 -0.3718100813290111
15297500 0.9231832053151244 -0.37287112260451044
15345000 0.9229198491829798 -0.37409382915641715
15392500 0.9224188134295346 -0.37525667743132535
15440000 0.9218120548611177 -0.3763528558239502
15487500 0.9212617593688045 -0.37727887007455263
15535000 0.9209828652056867 -0.37831345344146616
15582500 0.9205103878591123 -0.37951146247208617
15630000 0.920036642138027 -0.3807877936839416
15677500 0.9193430381401214 -0.3816226118628014
15725000 0.9190998991962146 -0.3826868713441649
15772500 0.9186961233361652 -0.38383466793741383
15820000 0.9182523243045088 -0.38511077111504105
15867500 0.9175769348085112 -0.3861421725887516
15915000 0.9170975376677584 -0.387213250996356
15962500 0.9167628466993865 -0.3881652402460957
16010000 0.9162739075945557 -0.3893812291608609
16057500 0.9156388070536285 -0.3905974984984644
16105000 0.9151346825023806 -0.39152692283645757
16152500 0.9147528435180075 -0.392452217606571
16200000 0.9144193697984779 -0.39354505302120596
16247500 0.9139649162344742 -0.3948625979665409
16295000 0.9132935326405118 -0.3960108582067224
16342500 0.9127356864972367 -0.3969433732337809
16390000 0.9124018379354735 -0.3979355392806712
16437500 0.9119636842202163 -0.39906582868881935
16485000 0.9113590836831827 -0.4002014362632857
16532500 0.910777974302102 -0.4012653787476969
16580000 0.9103576929179525 -0.4022480012047302
16627500 0.9100290466873509 -0.40334838052758587
16675000 0.9094906783302746 -0.40445540639219096
16722500 0.9089902098696256 -0.40560530391064176
16770000 0.9084114141280961 -0.40674592509187085
16817500 0.9079888905522103 -0.40758983985137437
16865000 0.9073784372526302 -0.40881325317958067
16912500 0.9071303834704865 -0.41004566101518963
16960000 0.9063355149437671 -0.4109732372524891
17007500 0.9059028799915815 -0.41183761839576216
17055000 0.9055298451630094 -0.41294559673072045
17102500 0.905122146566077 -0.4141123653751624
17150000 0.9045028267800141 -0.41520080774115414
17197500 0.9039178156351966 -0.41638889733200696
17245000 0.9033999035974941 -0.4173358458003736
17292500 0.9030283048126915 -0.41838849907452624
17340000 0.9025137110268627 -0.419584923291468
17387500 0.9018168121054572 -0.42072031790893344
17435000 0.901330991504579 -0.42161678195240504
17482500 0.9009719978717208 -0.4225505435611918
17530000 0.9005001506442487 -0.42372565058292994
17577500 0.9000903249717399 -0.42484480525093654
17625000 0.8994164032637214 -0.42602329072786416
17672500 0.8988208855507339 -0.4269384960624443
17720000 0.8983272501689697 -0.42801253984596876
17767500 0.8977861475222875 -0.42906693141582436
17815000 0.8973352348466012 -0.4302300379175771
17862500 0.8966748997997153 -0.4311151417560321
17910000 0.8962412161436872 -0.43211657539598214
17957500 0.8958858172779363 -0.4331331243829216
18005000 0.8952884943692201 -0.4344024172048852
18052500 0.894587955460737 -0.4355422975848046
18100000 0.8941266492162365 -0.43656330985571123
18147500 0.8934884576992904 -0.4375053397457298
18195000 0.8930450609023206 -0.4385880265349935
18242500 0.8924702435355868 -0.43976248129451206
18290000 0.8919071178580882 -0.44073845316971055
18337500 0.8914491169982569 -0.4416776455738177
18385000 0.8910264763848816 -0.44272416903201667
18432500 0.8905375611475648 -0.44384084216952857
18480000 0.8897564274803647 -0.4450981737869592
18527500 0.889189374157041 -0.446059364326919
18575000 0.8887062943589051 -0.4470128425084003
18622500 0.8882914331926527 -0.4480470657030025
18670000 0.8877111629357707 -0.4492269782422505
18717500 0.8871389530982395 -0.45021453205619677
18765000 0.8864871692017018 -0.45111564021534695
18812500 0.8860428659713707 -0.4522036349267921
18860000 0.8856921960484244 -0.45329224525873796
18907500 0.88496265091285 -0.45448144965724185
18955000 0.8842110530762596 -0.4554817192917353
19002500 0.8837686650144139 -0.4563743300953852
19050000 0.8832794280415914 -0.45753711521045354
19097500 0.8826854441082185 -0.45867374374478037
19145000 0.8818807200837413 -0.4596197540455558
19192500 0.8814692050699721 -0.4604977283678415
19240000 0.8811436811493167 -0.4615410461542231
19287500 0.8805660198722529 -0.46274462656032045
19335000 0.8799123956168864 -0.4640344929868272
19382500 0.8792161803258535 -0.46476639435543143
19430000 0.8787589067185398 -0.46579557524424803
19477500 0.8783259782722604 -0.46683473294928307
19525000 0.8775915862723248 -0.46807350346665216
19572500 0.8769496430387271 -0.46909174237570006
19620000 0.8763194228390088 -0.4699784201773769
19667500 0.876084229432209 -0.4709665178055936
19715000 0.8754910276931553 -0.4720836305761898
19762500 0.8748449895060119 -0.4732985017511751
19810000 0.8739981735391861 -0.4742407947040415
19857500 0.8735985954272435 -0.4751839179287399
19905000 0.8730913980568412 -0.4762273095112534
19952500 0.8725281481865882 -0.4774164991324086
20000000 0.8717549762938591 -0.4783110852571531
