# HZ S RI R 50
1000000 0.9979200963077957 -0.03379605918519743
1047500 0.997804358583232 -0.03584467591369856
1095000 0.99769246243278 -0.037053368089039446
1142500 0.9976143391884813 -0.0386250870840821
1190000 0.9976296534648297 -0.04020234422693412
1237500 0.9975075013016159 -0.0418564531947648
1285000 0.9973808827918982 -0.0433272931855032
1332500 0.9973430788479165 -0.044920619995308754
1380000 0.9973668506810376 -0.0465192226442143
1427500 0.9972357792675494 -0.04816144628462945
1475000 0.997161332848514 -0.04969954059280103
1522500 0.9972068721225021 -0.05144173763474204
1570000 0.996843864225595 -0.05309236047250174
1617500 0.9967358221049036 -0.0544593084713448
1665000 0.9967463304535616 -0.05602043025581567
1712500 0.996757940114612 -0.05777158686385246
1760000 0.996452111749875 -0.05943259558334461
1807500 0.9963335376224293 -0.06075961979466642
1855000 0.9964973587153136 -0.062369313835436126
1902500 0.9962938545227186 -0.064253114593376
1950000 0.9960315113416879 -0.06583230085354845
1997500 0.9958721425784614 -0.06718579093993296
2045000 0.9959857425994341 -0.06874979040951881
2092500 0.9957462928904113 -0.07044229773543369
2140000 0.9955337746696605 -0.07204910630475334
2187500 0.9954456858609086 -0.0736592096089584
2235000 0.9953794792951858 -0.0751816973515234
2282500 0.9952279075797672 -0.07676221779920608
2330000 0.995093402496627 -0.07833505119157526
2377500 0.9949754105250067 -0.08007498630915706
2425000 0.9947419374463821 -0.08166627147981735
2472500 0.9945461060588339 -0.08303468520703489
2520000 0.994548778367531 -0.08462802434192426
2567500 0.9945657520897657 -0.0864493886360655
2615000 0.994183691581388 -0.08808341384790709
2662500 0.9939464572991508 -0.08938049228713556
2710000 0.9940466059336955 -0.09091044375552655
2757500 0.9939109338929866 -0.09270579454462553
2805000 0.993597218281677 -0.0944283905215339
2852500 0.9932857276471 -0.09587016323480851
2900000 0.9932681637444148 -0.09735259753422548
2947500 0.993198217489644 -0.09905501986870105
2995000 0.9929261170275336 -0.10070447946538558
3042500 0.9927069013434798 -0.10216631310432012
3090000 0.9926375155144875 -0.10367227993899501
3137500 0.9924637528950999 -0.10540684538550874
3185000 0.9922355226268896 -0.10692485075116358
3232500 0.992105119336708 -0.1085680815151749
3280000 0.9918114537687007 -0.11028644494256616
3327500 0.9915850366561266 -0.11177062408203917
3375000 0.9914331602605725 -0.11312208710679196
3422500 0.9914244650279054 -0.11475551560038341
3470000 0.991187652024017 -0.11654260285852586
3517500 0.9908234152829375 -0.11808069561643672
3565000 0.9906459729305643 -0.11943020400836941
3612500 0.9906934701178389 -0.12099022648096053
3660000 0.990384881597464 -0.12293011134998037
3707500 0.989949689284282 -0.12453152717238967
3755000 0.9897616138685629 -0.12578412983954987
3802500 0.9897993284498557 -0.12739113427027834
3850000 0.9895022721406244 -0.12910635608962492
3897500 0.9891965854358011 -0.13074025544913337
3945000 0.9889654537862081 -0.13207553832184732
3992500 0.9888041626919876 -0.1336842844168907
4040000 0.9885099761265325 -0.135361726127052
4087500 0.9883793169415658 -0.13698041899878666
4135000 0.9881505163810953 -0.1385257289651575
4182500 0.9878242992726952 -0.14015381089358336
4230000 0.9876635925054688 -0.14160996129501346
4277500 0.9874619509596991 -0.1431828018123233
4325000 0.987277074389176 -0.14496462550797376
4372500 0.9868347647493765 -0.14644683265590847
4420000 0.9866231819587987 -0.14788356867748625
4467500 0.9865893449858953 -0.14937983293445425
4515000 0.9863744695684314 -0.15125408351367783
4562500 0.9858343043896345 -0.15283226977961298
4610000 0.9855238145906301 -0.15417693799763957
4657500 0.9854182993611974 -0.15566275874425567
4705000 0.9853322806531032 -0.15749691300608568
4752500 0.9848924493240029 -0.1591256623012387
4800000 0.9844547251966809 -0.16041873287553937
4847500 0.9844624694576269 -0.161845719049538
4895000 0.984369481270051 -0.1636672240890909
4942500 0.9838823373896052 -0.16541757882441044
4990000 0.9834336861160571 -0.16680280703324446
5037500 0.983293581697726 -0.16836037423055625
5085000 0.9829587142631904 -0.16997013046218143
5132500 0.9826726453393009 -0.1715185398768582
5180000 0.9824043377674264 -0.17306489336676503
5227500 0.9821035923029735 -0.17458189095625334
5275000 0.9818722433829201 -0.1761502974151323
5322500 0.9815767906124574 -0.1777012640782539
5370000 0.9814271133914287 -0.1792721875520229
5417500 0.9810795882181053 -0.18101172775749094
5465000 0.9805777565176943 -0.18249027915703442
5512500 0.9803209148450619 -0.18388599637397146
5560000 0.9802070707714278 -0.18557363087139156
5607500 0.9797506134491567 -0.18732366089178518
5655000 0.9793034823930952 -0.18865997454458425
5702500 0.979157601927599 -0.19006324144056763
5750000 0.9789797679858135 -0.19183261967183116
5797500 0.9785235663758378 -0.19349649513144979
5845000 0.9781343742404911 -0.19494590297022638
5892500 0.9779235109069945 -0.19637924270036686
5940000 0.9776141711941372 -0.19805935439859992
5987500 0.9772238179318377 -0.19958740913019044
6035000 0.9769905920781281 -0.20109189538374456
6082500 0.9765430641849278 -0.20279764130118527
6130000 0.9760987701290128 -0.2042811915064323
6177500 0.9760397306700581 -0.2056608755168879
6225000 0.9758523803336887 -0.20747777078106142
6272500 0.9751920037421682 -0.2090740126426011
6320000 0.9747188429766356 -0.21054812693327432
6367500 0.9745653876985577 -0.211909684857428
6415000 0.9743508977143581 -0.21363434639124923
6462500 0.9738085739364497 -0.21531716662714673
6510000 0.9733089673668535 -0.21662552370959032
6557500 0.9731750362078232 -0.21801126798249823
6605000 0.9727899910278095 -0.2197352654894363
6652500 0.9724958646397235 -0.22136176250465475
6700000 0.9720540282271362 -0.2229513801271472
6747500 0.9715367267262138 -0.22448900710965536
6795000 0.9711083947793877 -0.2258613431366835
6842500 0.9710127332584082 -0.22736722896358227
6890000 0.9707014324390875 -0.22911697739521164
6937500 0.9701075814643014 -0.23071553781739415
6985000 0.9696640961560505 -0.2321283955899111
7032500 0.9694430555443216 -0.23347614278887918
7080000 0.9691867964738651 -0.23535608808462505
7127500 0.9685970322359113 -0.23692247923996754
7175000 0.9681333666370965 -0.2382951202843066
7222500 0.9679426370835259 -0.23971141019476064
7270000 0.9676213181510401 -0.24145329448879657
7317500 0.9670651952947823 -0.24307170296589634
7365000 0.9666438759329817 -0.2445310998249962
7412500 0.966210584550882 -0.2460223582672657
7460000 0.9657913949914586 -0.24747185292090454
7507500 0.9655954465382373 -0.24903025337866422
7555000 0.9651637867153243 -0.2507188164374612
7602500 0.9644924963042204 -0.25229658945593264
7650000 0.9640802292154268 -0.253660937900454
7697500 0.9638301570895652 -0.2551349658909399
7745000 0.9635548022204662 -0.25692351255595164
7792500 0.9629038997198032 -0.2584952639932015
7840000 0.9623594316021532 -0.25969180404317815
7887500 0.9621852532612626 -0.2611466199791634
7935000 0.9619331269928301 -0.2629280672749585
7982500 0.9612105984814077 -0.26463411124865643
8030000 0.9607179360567027 -0.26600201358669684
8077500 0.9603541048226213 -0.2674532397650147
8125000 0.9598657816466882 -0.2690088899229792
8172500 0.9594900979904611 -0.27064286869320947
8220000 0.9590046950195731 -0.272138511624024
8267500 0.9586087087609252 -0.2736831889482602
8315000 0.9579866208350828 -0.2751210645480101
8362500 0.9577223663452449 -0.27642726729142164
8410000 0.9573974887929111 -0.2782487005291355
8457500 0.956701060915986 -0.2798772758406631
8505000 0.9561775977360495 -0.28122327494020827
8552500 0.9559126009216067 -0.2825753173384304
8600000 0.9555992458076028 -0.2843710256818422
8647500 0.9548930581208757 -0.2860570109379243
8695000 0.9542791273734944 -0.28732374457778953
8742500 0.9540243763060227 -0.2887003618696969
8790000 0.9537621535163615 -0.2904690772047491
8837500 0.9530143339706536 -0.29206498601718917
8885000 0.952502635147331 -0.2934108135460065
8932500 0.9521627683358728 -0.2948230995710487
8980000 0.9517182413222351 -0.2963942594605922
9027500 0.9511723374931391 -0.29798775139268413
9075000 0.9506351260313244 -0.299499670509212
9122500 0.9500964939089607 -0.30098708507296823
9170000 0.9495471025589671 -0.3024332196236824
9217500 0.9492411821105327 -0.30383028501802684
9265000 0.9488093044507684 -0.30555494911370346
9312500 0.9480342126463394 -0.3072527155938132
9360000 0.9474931103102333 -0.3084778022947169
9407500 0.9472488559818015 -0.30982009761165424
9455000 0.9468769469655187 -0.31160496322069403
9502500 0.9460788827696549 -0.3133256986455436
9550000 0.9454336358271352 -0.31454007307607423
9597500 0.9452627890062324 -0.3159208465996107
9645000 0.9447142229469597 -0.31757967233518214
9692500 0.9438811199043291 -0.31914439099569475
9740000 0.9435093969362811 -0.3205835099912578
9787500 0.9430404829741407 -0.3221381932733488
9835000 0.9424540608935532 -0.3236527936334582
9882500 0.9420984347158179 -0.3250109259373508
9930000 0.9415671178569102 -0.32674683940807075
9977500 0.9408361865060464 -0.3282234785143393
10025000 0.940227466723469 -0.329564417084369
10072500 0.9399631588304352 -0.33093553289044386
10120000 0.9395140623951098 -0.33268847948396946
10167500 0.9387834093364912 -0.33427778122475793
10215000 0.9379617940243032 -0.3355365310614405
10262500 0.9377806036045289 -0.3368586558928066
10310000 0.9373084316799595 -0.33867751089940923
10357500 0.9365690220256639 -0.3403281791640922
10405000 0.9358762302620107 -0.34151570372815654
10452500 0.9354004253701912 -0.34296615238987266
10500000 0.934944045527008 -0.3445454759720099
10547500 0.9344030261753532 -0.3461597010056194
10595000 0.9337509057265715 -0.34748287292940805
10642500 0.9331239052176438 -0.3490002703968863
10690000 0.9326575916905533 -0.3504499580749629
10737500 0.9320204844429979 -0.3518727480695153
10785000 0.9315988756435247 -0.35349040611026034
10832500 0.9308813566265807 -0.3551271653279044
10880000 0.9301977219352005 -0.35648319424797603
10927500 0.9297208780779509 -0.35778038356682007
10975000 0.9293215992736283 -0.3592887042265384
11022500 0.9286301253429537 -0.3610835833940833
11070000 0.9278034479684879 -0.36243495588326274
11117500 0.9272183593885263 -0.36359580504072475
11165000 0.926986537089692 -0.365229644018335
11212500 0.9263504867131366 -0.36700394101360223
11260000 0.9254965436440503 -0.3683991819694787
11307500 0.9248541624583481 -0.36960218346962576
11355000 0.9243886726015856 -0.37115619644529063
11402500 0.9238183632316577 -0.37279306696749165
11450000 0.9231415552721084 -0.37406760027919367
11497500 0.9225360988120708 -0.375639572991248
11545000 0.9219129188319543 -0.3771425902625282
11592500 0.9212893107544647 -0.3784882092951152
11640000 0.9208262783499039 -0.3800307257454295
11687500 0.9201359488675543 -0.3817172583264749
11735000 0.9193594644917704 -0.3830867847736671
11782500 0.9188064074633667 -0.38434227917153985
11830000 0.9183614532436395 -0.3858110146017697
11877500 0.9178066230309625 -0.3875854909588049
11925000 0.9167518042617239 -0.38900254761801467
11972500 0.9162542218696799 -0.3902236707992801
12020000 0.9158123452690224 -0.39168230660746567
12067500 0.9152122372490651 -0.39329589232735673
12115000 0.9143394677190845 -0.394864831627486
12162500 0.9136613329467773 -0.39613436068499924
12210000 0.9131332724984829 -0.39759121573124345
12257500 0.9124756483373471 -0.39907409944772987
12305000 0.9118503131134361 -0.4005562947946126
12352500 0.9110684067975618 -0.40199546118272295
12400000 0.9104414058904378 -0.4034620125487567
12447500 0.9097751280202961 -0.4048183560727707
12495000 0.9093073600111542 -0.406190178566326
12542500 0.9087283742048688 -0.4078694417824747
12590000 0.9077812845571747 -0.40949827194843275
12637500 0.9070517407493965 -0.41065009611014575
12685000 0.9065712765705953 -0.41197176600710345
12732500 0.906070740762629 -0.41360530632970555
12780000 0.9050412236303093 -0.41530311354024974
12827500 0.9043316430657311 -0.4163977603101916
12875000 0.9038081354110017 -0.41776172368796116
12922500 0.9034130697136016 -0.41938363074842405
12970000 0.9024153224231879 -0.42095843634130276
13017500 0.9015658506396268 -0.4222874896923944
13065000 0.9009655474058669 -0.42358885397042123
13112500 0.9003963403486095 -0.42509036632285047
13160000 0.8996444939782478 -0.42653069644265734
13207500 0.8989704206098083 -0.42795195475607356
13255000 0.8982758148246205 -0.4292939724483445
13302500 0.8975543816736496 -0.43082814557469695
13350000 0.8968768803572738 -0.4323070002533058
13397500 0.8962365855825672 -0.4337215723558124
13445000 0.8954954174102451 -0.4352593161146882
13492500 0.8946237394787868 -0.4366316468700622
13540000 0.8939214483212115 -0.43784811284932323
13587500 0.8935473092227217 -0.43923854461592843
13635000 0.8928107711249075 -0.4409525567674079
13682500 0.8917230426831831 -0.44241005687908996
13730000 0.8909689960134888 -0.44345231254200235
13777500 0.8904991574760504 -0.44501117495943604
13825000 0.8898470412825933 -0.4466604688803793
13872500 0.888882910558045 -0.4482184693249636
13920000 0.8880911642392121 -0.44923908505816346
13967500 0.8876663840622503 -0.45061759199986984
14015000 0.8868535934213027 -0.45229926398027254
14062500 0.8860404218376262 -0.45374979134578136
14110000 0.8852142129838666 -0.4550922658999546
14157500 0.8846160996898474 -0.4564489495644857
14205000 0.8838239123839785 -0.45782264562262276
14252500 0.8832449076853657 -0.45915057218237776
14300000 0.882412327732688 -0.4608012653741121
14347500 0.8816296120211007 -0.4622564617720932
14395000 0.8806945050956244 -0.4635572594317647
14442500 0.8801052769417556 -0.46480684704529307
14490000 0.8794185672981604 -0.46632278696444135
14537500 0.878498207779488 -0.46785909327277186
14585000 0.8775924905233256 -0.4691208751592997
14632500 0.8771109027756558 -0.4704797665492619
14680000 0.8764647561889076 -0.4718628817254242
14727500 0.8756364929024246 -0.4735616249032582
14775000 0.8745516959626523 -0.47482223926012956
14822500 0.8738337146345031 -0.47598655280774343
14870000 0.8732431398930499 -0.4774278451815092
14917500 0.8724997661103729 -0.47896385635013683
14965000 0.8714096585892409 -0.48036191225875396
15012500 0.8707262869758456 -0.48163887468234307
15060000 0.8701094873252259 -0.4830198435895641
15107500 0.8693530755726526 -0.4844474126093932
15155000 0.8684418563034001 -0.48600858446993567
15202500 0.8676019818696372 -0.48748804970983844
15250000 0.8668205941126695 -0.48871231834722834
15297500 0.8659656851682849 -0.49005374477282826
15345000 0.8653283357878168 -0.4913568878604327
15392500 0.8645164761723352 -0.49287821211917665
15440000 0.8635399860428555 -0.4942944660861663
15487500 0.8626929430063792 -0.49547356994765307
15535000 0.8619441829735457 -0.49688001252853475
15582500 0.8614246643199419 -0.4983673743545787
15630000 0.8603634225796795 -0.4999568349046683
15677500 0.8594293828620627 -0.5010920088760413
15725000 0.8586509493636502 -0.5022200378435762
15772500 0.85817759460123 -0.5038809734607032
15820000 0.8570285046538738 -0.5053917175290288
15867500 0.856095247642758 -0.506453824081335
15915000 0.8554485586745486 -0.5076964649299219
15962500 0.8548179051974693 -0.5093640049167572
16010000 0.8538383723758588 -0.51089669390911
16057500 0.8528116772514146 -0.51209801986325
16105000 0.8521812020797649 -0.5133434146822797
16152500 0.8513300017729742 -0.5148300256017294
16200000 0.8504455265012796 -0.516196866053355
16247500 0.8496195238925126 -0.517516983486792
16295000 0.8487425849929215 -0.5189285095493383
16342500 0.8477863605093429 -0.520085448835571
16390000 0.8471357526534191 -0.521285422405851
16437500 0.8464000158708088 -0.5229690918795689
16485000 0.8453270416609121 -0.5245255139677608
16532500 0.8442992686955549 -0.5256330208331136
16580000 0.8437139654015542 -0.5267862503950461
16627500 0.8428245891095014 -0.5283941216514285
16675000 0.8418665012652472 -0.5299532194955895
16722500 0.8407959621188859 -0.5309385003719067
16770000 0.8401700008096848 -0.5320921691899829
16817500 0.8394709141015683 -0.5336220066995667
16865000 0.8384445572756659 -0.5350411839984411
16912500 0.8375078206598986 -0.5365469865667611
16960000 0.8366650329131043 -0.5377350010677094
17007500 0.8357385786823954 -0.5391778742604184
17055000 0.8348768494090772 -0.5403801554041686
17102500 0.8341628310199146 -0.5417351669817401
17150000 0.8331521945338661 -0.5431416330790195
17197500 0.8321124197355614 -0.5444127354790899
17245000 0.8313418124218319 -0.5456899103089861
17292500 0.830689766786135 -0.547103686339884
17340000 0.8295497172146706 -0.5488087797338548
17387500 0.8284367637201059 -0.5499218860030948
17435000 0.8275597506900239 -0.5508478642198674
17482500 0.8271396581625196 -0.5523953974295265
17530000 0.8259979883231025 -0.5538531355609851
17577500 0.8249017505569172 -0.555111834940649
17625000 0.8241668308066639 -0.5562468827537245
17672500 0.8234559974749305 -0.5576148758396002
17720000 0.8223579494905165 -0.5591807167535282
17767500 0.8212056284720632 -0.5605132757044635
17815000 0.8203644945390597 -0.5615729515184781
17862500 0.8197094468193384 -0.5628758956874148
17910000 0.8186894137259236 -0.5644151596218333
17957500 0.8177964725662635 -0.5657332100908637
18005000 0.8166784926705143 -0.5669161062987909
18052500 0.8158063749123753 -0.5682526753769349
18100000 0.8149430157575931 -0.5694255831338609
18147500 0.8140785751412152 -0.5707745098364594
18195000 0.813104399096095 -0.5722738904143414
18242500 0.8119096743661468 -0.5734853055252531
18290000 0.811056253137942 -0.5747061265261316
18337500 0.8102972089406842 -0.5759512966081799
18385000 0.8093669650509671 -0.577461782776366
18432500 0.8081539975407649 -0.5787064227926405
18480000 0.8072590009364292 -0.5797896524390747
18527500 0.8067489012407223 -0.581096376877489
18575000 0.805717686827919 -0.5825782161844542
18622500 0.8045760092236861 -0.5840729399031733
18670000 0.8034988998850499 -0.5852383736604835
18717500 0.8026486771501257 -0.5862984828384004
18765000 0.8017242772121705 -0.5877416155990396
18812500 0.8007673733055507 -0.589035762387409
18860000 0.7997182678643049 -0.590292720608794
18907500 0.7987053634414671 -0.5915189038189871
18955000 0.7977932738485548 -0.5927194191547244
19002500 0.7968846779758271 -0.5941154731870599
19050000 0.7958848554169147 -0.5954398107444743
19097500 0.7947464060180315 -0.5967608557482524
19145000 0.7937864588036366 -0.5980407114391126
19192500 0.7929540546075147 -0.5990984487151454
19240000 0.792089872965361 -0.6004065960457895
19287500 0.7910539602484983 -0.60190102213014
19335000 0.7898131541089572 -0.6030075042003216
19382500 0.7889724313226965 -0.6040589041975393
19430000 0.7881945166510856 -0.6054635682190166
19477500 0.7870421796959428 -0.6070600504037592
19525000 0.7859005857651287 -0.6082994285067255
19572500 0.784924421599164 -0.6091710229224815
19620000 0.7841821638508335 -0.6104611862994378
19667500 0.7832037335313448 -0.6120076975944215
19715000 0.7818809908536803 -0.6131823746270234
19762500 0.7810290957252191 -0.614352310765978
19810000 0.7801550960115516 -0.6154017424454004
19857500 0.7791460550560289 -0.616942625378639
19905000 0.7779216033859843 -0.6182232976559752
19952500 0.7769651601225518 -0.6193094858470397
20000000 0.7760382692940537 -0.6205529912861697
