# HZ S RI R 50
1000000 1.0005055749622016 -0.025571932422662386
1047500 1.0000165298895058 -0.02631210133332101
1095000 1.0001822914493854 -0.027699651733649966
1142500 1.000219012886308 -0.02900945949503439
1190000 1.0001249871055766 -0.03021959016851969
1237500 1.000222443903076 -0.03149361754638535
1285000 0.9999080946477267 -0.03271948251592467
1332500 0.9999145561168284 -0.033647074322956355
1380000 0.99996966976712 -0.034933332784534046
1427500 0.99979798631098 -0.03641862271268359
1475000 0.9995096200331496 -0.037322083659836205
1522500 0.9997546728654043 -0.038356576612624184
1570000 0.9997123141359352 -0.03981322504251974
1617500 0.9995152241505568 -0.04101880182812067
1665000 0.999535422598917 -0.04221484287335203
1712500 0.9994822459434509 -0.043436718268961234
1760000 0.9993024093066235 -0.04443474248088347
1807500 0.999445776392514 -0.0456675390073058
1855000 0.999360104773977 -0.04714607899893863
1902500 0.9989804983690135 -0.04815713739616402
1950000 0.9990734650812927 -0.04917874507506836
1997500 0.9990581150917998 -0.05057022110125897
2045000 0.9989824453051563 -0.05164066272966088
2092500 0.9990369538159739 -0.05284926282229886
2140000 0.9987833791610331 -0.054225394200463795
2187500 0.9986134686476199 -0.05513925245426997
2235000 0.9987357505778703 -0.05626563342484098
2282500 0.9986643037613596 -0.057772240795195384
2330000 0.9983779406858753 -0.058761546031960356
2377500 0.9984401725744808 -0.05981199966150336
2425000 0.9984492611584309 -0.06126004879072057
2472500 0.9981989656299404 -0.06233727082195798
2520000 0.9981525899807326 -0.06358133963586315
2567500 0.9980557271576599 -0.06483124301421948
2615000 0.9978810413741592 -0.06580547856523951
2662500 0.9981037783472304 -0.06707575446963102
2710000 0.9978520859902276 -0.06855186431614287
2757500 0.997524279469204 -0.0694671091873104
2805000 0.9975496996915724 -0.07049557157507841
2852500 0.9974860989183626 -0.07188897610035078
2900000 0.9974057244181997 -0.07302186287435129
2947500 0.9974331631065091 -0.07428771098083738
2995000 0.9971513916549533 -0.07556864693429492
3042500 0.9969338218876417 -0.0765024832121999
3090000 0.997153481312119 -0.0776923358460014
3137500 0.9969355954598863 -0.0791514186456852
3185000 0.9966048289931067 -0.08018070799922555
3232500 0.9967638504113232 -0.08125234996205684
3280000 0.9966863553553641 -0.0826638792968085
3327500 0.9964360598796274 -0.08374210810074163
3375000 0.9964423815267573 -0.08492762025927952
3422500 0.9961272444148889 -0.08616363427021503
3470000 0.9959777606559401 -0.0871054930659181
3517500 0.9962575808768384 -0.08843298380589946
3565000 0.9959166073345334 -0.08984164125810808
3612500 0.995673639390076 -0.09082439687116121
3660000 0.9956469414857967 -0.09193481571856355
3707500 0.9955168511134768 -0.09311315309300953
3755000 0.9954475990226314 -0.09424875259212738
3802500 0.9954935741787827 -0.0956306493007148
3850000 0.9950389809207082 -0.09688050309283328
3897500 0.9950306353427159 -0.09781035862317757
3945000 0.9950480319467521 -0.09901887810434423
3992500 0.9948113893069402 -0.10043339376131591
4040000 0.9945491282695347 -0.10142948779443293
4087500 0.9945803069675931 -0.10263021640093029
4135000 0.9942808818047599 -0.10378422835747556
4182500 0.9943599583353041 -0.10487520116928027
4230000 0.9942486143156671 -0.10629100642870574
4277500 0.9938722199980855 -0.10746480748681066
4325000 0.9938720998737405 -0.10831772188472787
4372500 0.9938659579892941 -0.10975529314403715
4420000 0.9935689201447998 -0.1110713327767078
4467500 0.9933932766332628 -0.11195946905997145
4515000 0.993282064790799 -0.11328267092481399
4562500 0.9930783594222418 -0.1142791523586204
4610000 0.9931597794962126 -0.11550566351318539
4657500 0.9930225510950509 -0.1169226552276657
4705000 0.992517446432056 -0.11804392221206698
4752500 0.9925050209942693 -0.11902110923451036
4800000 0.9925289200114614 -0.1202989086222784
4847500 0.9922297956148259 -0.12155545315635528
4895000 0.9919826398281645 -0.12265808335199725
4942500 0.9918732069415953 -0.12392809551948059
4990000 0.9916834894406992 -0.12491689445224144
5037500 0.9916792441050114 -0.12603145219532394
5085000 0.9915266681644944 -0.12743890942889022
5132500 0.9911090455552047 -0.12855765673527902
5180000 0.991043657067665 -0.12953314588123857
5227500 0.9910266704505423 -0.13089468364445492
5275000 0.9907594551728167 -0.1320481558572846
5322500 0.9905870223357672 -0.1332651738237839
5370000 0.9904390327124445 -0.13447840048535975
5417500 0.9901013636895345 -0.13553513218753965
5465000 0.990164028286309 -0.1365912979148207
5512500 0.9901388072686926 -0.13807060974263868
5560000 0.9897261142194246 -0.13917388524937274
5607500 0.9894854649324938 -0.14019846167464012
5655000 0.9894477624867803 -0.1413349069701792
5702500 0.9892227656539068 -0.14261240409792744
5750000 0.989070200620389 -0.14378432879109931
5797500 0.9888528138870687 -0.14512282316314967
5845000 0.9885330067808834 -0.14611222851005595
5892500 0.9885304632817656 -0.14707625089658105
5940000 0.9883915361717858 -0.1485620044148479
5987500 0.9880283518347904 -0.14971472344368045
6035000 0.9880322051237055 -0.15074794414937615
6082500 0.9877314194375904 -0.15198010293233824
6130000 0.9875890051560529 -0.153167364215463
6177500 0.9874103329499394 -0.15439302700130264
6225000 0.9870751141093865 -0.15559603789125248
6272500 0.9867939936227971 -0.15657880295027118
6320000 0.9868211924923487 -0.15764974874924706
6367500 0.9866905445134827 -0.15906389637894683
6415000 0.9862739003453105 -0.16026704814383047
6462500 0.986177255637886 -0.16120096089473648
6510000 0.9859731359978027 -0.16248421970453128
6557500 0.9857013985302233 -0.16362270506555598
6605000 0.9856870518525218 -0.16481364158246983
6652500 0.9853327738345363 -0.16628223187969918
6700000 0.9850243750916238 -0.16716678977799998
6747500 0.9849430924008808 -0.16812430054450467
6795000 0.9849403589284764 -0.169572803201943
6842500 0.9844595940032448 -0.17074266014671385
6890000 0.9843198819813906 -0.1717736551207004
6937500 0.9841086034677735 -0.17305820451686874
6985000 0.9837625304919628 -0.174173593745072
7032500 0.9837592916760094 -0.17527701147206262
7080000 0.983445299874171 -0.17664127910689809
7127500 0.9829908593412006 -0.17752446613928308
7175000 0.9830171863910115 -0.1786058180811595
7222500 0.98287860111699 -0.18004399550312988
7270000 0.9824906826618441 -0.18125214808363216
7317500 0.9822829000663221 -0.18227622864226328
7365000 0.9820614089916048 -0.18345606921585253
7412500 0.9818014697077183 -0.1844920222095519
7460000 0.9817516867676339 -0.1856984731905297
7507500 0.9814949760986293 -0.18716228548176883
7555000 0.98091734981121 -0.18808638957966672
7602500 0.9809072437843842 -0.1890793907937819
7650000 0.9807261544054572 -0.19040188406527467
7697500 0.9805346027246321 -0.19156849800004608
7745000 0.9803008390673716 -0.19276983650293678
7792500 0.979987638581692 -0.19401065461436223
7840000 0.979641728471135 -0.19498368985714118
7887500 0.9796453695468008 -0.19623960374144087
7935000 0.9792415058545244 -0.1975679952706864
7982500 0.9788217720900123 -0.19854721838468228
8030000 0.9787773341562749 -0.19959680828766835
8077500 0.9785662886726588 -0.20092711487785248
8125000 0.9782027009467401 -0.2019487047723009
8172500 0.9779375858473092 -0.2033048193932532
8220000 0.9777465845679982 -0.20447637087943185
8267500 0.9774163869111466 -0.2053377031903206
8315000 0.9774356689689168 -0.20657234373194483
8362500 0.9770141449989205 -0.20796492876708214
8410000 0.9765866550420729 -0.2089016594228446
8457500 0.976515864004804 -0.2099990449492079
8505000 0.976247002241592 -0.21134814742045888
8552500 0.9760157775221202 -0.21239784803917083
8600000 0.9757081751089124 -0.2135265755522758
8647500 0.9752651329878083 -0.21485580893136313
8695000 0.9750411200226201 -0.2157292923441714
8742500 0.9750872694217454 -0.21689331317169666
8790000 0.9746681892513299 -0.21833160049766603
8837500 0.974214170363449 -0.21930198081277666
8885000 0.9741112263293995 -0.2204069213854546
8932500 0.973898808507377 -0.22161665535507016
8980000 0.9735337685643456 -0.2226798674738972
9027500 0.9734482222462343 -0.22408409032903326
9075000 0.9728945004689116 -0.2252531542679464
9122500 0.9724387100123802 -0.2260789037922517
9170000 0.9725332571504541 -0.2272087416756103
9217500 0.9722305286241663 -0.2287101113568719
9265000 0.9718472349859532 -0.22962803261813794
9312500 0.9716103738437958 -0.23082796325537605
9360000 0.9712246856322404 -0.2320839808760163
9407500 0.9710337599757796 -0.23307177666833204
9455000 0.9707352961987352 -0.23437074461939883
9502500 0.9703046749918831 -0.23562242072724832
9550000 0.969984144334606 -0.2364713376171204
9597500 0.9700474580564714 -0.23759176802254042
9645000 0.9695700578507505 -0.2390073715927509
9692500 0.9693479471569476 -0.2400270726028012
9740000 0.9690064228090248 -0.24116558334361154
9787500 0.9686656170415578 -0.24238605873160893
9835000 0.9684510073895937 -0.24330702743508148
9882500 0.9682874834897366 -0.2446879643023487
9930000 0.9675355738145077 -0.24596736903094996
9977500 0.9672317622964903 -0.24670853053695205
10025000 0.9672500050183375 -0.2479593863633144
10072500 0.966973650083892 -0.24925233074480446
10120000 0.966534351221831 -0.25026569557038025
10167500 0.9663353875578831 -0.25142515243457364
10215000 0.9658353830017918 -0.252738146059143
10262500 0.9655783848909356 -0.25364338664265673
10310000 0.9654237696681149 -0.2549818021801621
10357500 0.9648751531695324 -0.2562055915928998
10405000 0.9645169384747447 -0.2570319172852642
10452500 0.9643633246836253 -0.2581280642747898
10500000 0.9640552936626836 -0.2595427880754095
10547500 0.9637551216141772 -0.26059421666773186
10595000 0.9634779009880108 -0.26180119103176663
10642500 0.962921619363171 -0.26289522007318655
10690000 0.9627263486446013 -0.2638529262522688
10737500 0.9627175583703929 -0.26520846849332064
10785000 0.9620179762348636 -0.2664466064367918
10832500 0.9615596052792181 -0.2673645099927026
10880000 0.9614443618728967 -0.26841920722442025
10927500 0.9611332604559641 -0.26964058686878656
10975000 0.9608858958848444 -0.27070447968672523
11022500 0.9605381870596258 -0.2720647862646786
11070000 0.9599656190684405 -0.2731204788837055
11117500 0.9598226697438322 -0.27399188706035915
11165000 0.9596428463039796 -0.27534506299805206
11212500 0.9591017455922193 -0.27659774786951574
11260000 0.9586332430070963 -0.27754531538761384
11307500 0.9584643239564646 -0.2787105637079045
11355000 0.9580093564973677 -0.27978489070772117
11402500 0.9578520609784893 -0.2809515925622639
11450000 0.957464727183693 -0.2821758873303114
11497500 0.9569672463952252 -0.28331411614814384
11545000 0.9567454901026401 -0.28416685273241843
11592500 0.9566007896614851 -0.2855407469953849
11640000 0.956039639647652 -0.28683435899213805
11687500 0.9555406514001257 -0.2877242873163465
11735000 0.9553533984841569 -0.28889091932055255
11782500 0.9549325371373985 -0.28996462941738993
11830000 0.9546518896074648 -0.2910298823856557
11877500 0.9544367367347002 -0.29243484907308015
11925000 0.9536928116775191 -0.2935715054824354
11972500 0.9535061740723235 -0.2942976219981274
12020000 0.9533432962449391 -0.2956711427575541
12067500 0.9528085446499387 -0.29689600863505206
12115000 0.9524467309033884 -0.2978776339988915
12162500 0.952074545064085 -0.29908846472919776
12210000 0.9516405657324098 -0.30013057392623116
12257500 0.9514651711082502 -0.301175614925746
12305000 0.9510892903754511 -0.3025954617845279
12352500 0.950451988463952 -0.3035967331504732
12400000 0.9503022122414998 -0.3045543275881535
12447500 0.9500217725356487 -0.305817669689949
12495000 0.9494440167481839 -0.3070148598826934
12542500 0.9491176079456529 -0.30800229892819203
12590000 0.9487582245539945 -0.30922225253738433
12637500 0.9482643642685958 -0.3101625930873357
12685000 0.9482104121065301 -0.31121883739837836
12732500 0.9478159933927358 -0.3127392695269194
12780000 0.9471513609514665 -0.31374988446793634
12827500 0.946925879754874 -0.3145852133084593
12875000 0.9466209242923552 -0.3158690734656398
12922500 0.9460923994415833 -0.3170069151581648
12970000 0.9457049138570904 -0.3180867432796866
13017500 0.9453047174001447 -0.3193305815018553
13065000 0.9447696073612751 -0.3202499381723728
13112500 0.9447078612639382 -0.32123368363397375
13160000 0.9442803471597646 -0.3226647064818078
13207500 0.943639622502148 -0.32377961774519864
13255000 0.9433335966038895 -0.32460683192860434
13302500 0.9430490710754107 -0.3258880228929043
13350000 0.9424783319350196 -0.32707896639500317
13397500 0.9421071422680505 -0.3281516006648336
13445000 0.9417884566269559 -0.329330967714756
13492500 0.941203481454104 -0.3302251585219783
13540000 0.9410533547474178 -0.3313090071645564
13587500 0.940678940073016 -0.3328225600774829
13635000 0.9400594152420862 -0.33382910115502296
13682500 0.9395968451464509 -0.3346835918551126
13730000 0.939328780527997 -0.33595779076707544
13777500 0.9388442505946821 -0.33697840287602676
13825000 0.9385850294547945 -0.3380919626208329
13872500 0.9380317106411675 -0.33943860914138774
13920000 0.9375206037584761 -0.3403538429610478
13967500 0.9374211167461024 -0.34118639217365565
14015000 0.9369099417749734 -0.34270369726825983
14062500 0.9363421808737635 -0.3437130283427582
14110000 0.9360357566825939 -0.34467688521836004
14157500 0.9357121227264873 -0.34591314921625055
14205000 0.9352031624057291 -0.3469025707742811
14252500 0.9348136733133605 -0.3481395141141426
14300000 0.9341611329061461 -0.3493876854314805
14347500 0.9337233020344701 -0.350133510087624
14395000 0.9335973116823327 -0.35118593635757295
14442500 0.9332125191967786 -0.3525946641051254
14490000 0.9325729035189779 -0.3536030852565295
14537500 0.9321833231056316 -0.3547216507185629
14585000 0.9317460376036921 -0.3558878232800702
14632500 0.931367661344715 -0.3568336604989628
14680000 0.9310655506480657 -0.3579967155607411
14727500 0.9304433302735469 -0.3593553436766074
14775000 0.9298469963279552 -0.3602139636427769
14822500 0.9296446922916763 -0.36106540552056027
14870000 0.9292673057210535 -0.362501773731225
14917500 0.9286856130357769 -0.3635763226542832
14965000 0.9283536871238233 -0.36461959566597113
15012500 0.9277467153440476 -0.3657387094300092
15060000 0.9273467713285654 -0.3665986616707518
15107500 0.9271463283711672 -0.36787310145579766
15155000 0.9264553934586894 -0.36918731513806896
15202500 0.9258693440127882 -0.3698808325272459
15250000 0.925682178199892 -0.37095295347422075
15297500 0.9252351499217834 -0.3722892916811069
15345000 0.9247031815268374 -0.37333723996472695
15392500 0.9242936237872263 -0.3743761453803937
15440000 0.9237348123510577 -0.3755134202154396
15487500 0.9233039968594148 -0.3763974208191084
15535000 0.9231679021852238 -0.3776658564347743
15582500 0.9224021759526181 -0.3789927447081838
15630000 0.9218074474109056 -0.37980396892309637
15677500 0.9215497289580181 -0.3808248948508747
15725000 0.921048922948439 -0.38209400366848806
15772500 0.9205508485165851 -0.38310141664675984
15820000 0.9202296586901079 -0.38430404334607576
15867500 0.9194913933370376 -0.3854163510307372
15915000 0.9191017611321255 -0.3862517401893352
15962500 0.9188963009236913 -0.38745410208956027
16010000 0.9180421095469664 -0.3887783781984041
16057500 0.9175754992802704 -0.3895355674121668
16105000 0.9172727876405423 -0.39062808546730854
16152500 0.9167992868891556 -0.3917981889576333
16200000 0.916299880652242 -0.3927618429499075
16247500 0.915898252137317 -0.3939760476159467
16295000 0.9152560190393945 -0.3951925309677365
16342500 0.9148244410153823 -0.39589188857030627
16390000 0.9145237676239878 -0.397158081388336
16437500 0.9138427298808885 -0.3985348180232239
16485000 0.9132312913173278 -0.3993165066956968
16532500 0.9129137014343319 -0.40040771235762646
16580000 0.9123131853066826 -0.40149162004953437
16627500 0.9120202401826337 -0.4025885294105164
16675000 0.911572730758481 -0.40377361626413527
16722500 0.9108721262456775 -0.40490098922522794
16770000 0.9104873147417174 -0.4057731339318799
16817500 0.9102207419192104 -0.4068732239620383
16865000 0.9093160917773897 -0.4081813537768247
16912500 0.9090281551639344 -0.4091201500427079
16960000 0.9084358726153381 -0.4100832882166928
17007500 0.9078910962930502 -0.41111678951424424
17055000 0.9075459431908094 -0.412120962256446
17102500 0.907116300010992 -0.41344531665759615
17150000 0.9063166767163594 -0.4143528991088516
17197500 0.9059489754577675 -0.415318300749125
17245000 0.9056842334199444 -0.4165990750837828
17292500 0.9049533800197975 -0.41779753307463685
17340000 0.9044788836539037 -0.41866230308282204
17387500 0.9039519887251161 -0.4198135952840703
17435000 0.9034384822459527 -0.42069214132459737
17482500 0.9031729985166248 -0.42171979698095474
17530000 0.9025561030014011 -0.423133676987162
17577500 0.901942807937452 -0.42414736693667077
17625000 0.901389647754605 -0.42498008445933017
17672500 0.9010779207905095 -0.42611996586403394
17720000 0.9004088168311404 -0.42724939210771784
17767500 0.8998948434494011 -0.42816222611292215
17815000 0.8994790706343172 -0.429442107769902
17862500 0.8986124715100209 -0.43027707878184185
17910000 0.8984078926419045 -0.4312705636691875
17957500 0.8979778191393067 -0.43244320003712255
18005000 0.8971457614991196 -0.43359759329310793
18052500 0.8967123741526132 -0.43441669599092997
18100000 0.8964216843337723 -0.43572765647442585
18147500 0.895665169357295 -0.43680145215683736
18195000 0.8951982536183486 -0.4377103245051565
18242500 0.8946417212053978 -0.43895904586512363
18290000 0.8939463975493459 -0.43979765284764355
18337500 0.8937959154970326 -0.44074917941853936
18385000 0.8932949274804995 -0.4421679844687536
18432500 0.8924271180142623 -0.44314253328887726
18480000 0.8918559149241341 -0.44404685737283695
18527500 0.8915018898191042 -0.4451964032203122
18575000 0.8908559793884386 -0.44616195556583993
18622500 0.890530640539373 -0.4471998344504963
18670000 0.8898448728332279 -0.4484971214452227
18717500 0.889120979324607 -0.4493241156715991
18765000 0.888854116275489 -0.4501602155672714
18812500 0.8883095054214948 -0.4514843372466705
18860000 0.8876257654919495 -0.45255218350422777
18907500 0.8871448020378359 -0.45343505636189907
18955000 0.8865207390002259 -0.45456643428032
19002500 0.8860179533909008 -0.4556213454264042
19050000 0.8854758694634689 -0.45672070720550273
19097500 0.8848428451649888 -0.45789472597529424
19145000 0.8840769391304858 -0.45862293140661914
19192500 0.883765286938399 -0.4595938722660453
19240000 0.8833888329080933 -0.4609315516406816
19287500 0.8824780016516393 -0.4619950570447126
19335000 0.8820591413392508 -0.46290311988600613
19382500 0.8815254972604699 -0.4639532919101821
19430000 0.8809661078278009 -0.46503050195015744
19477500 0.8805114105908008 -0.46596766295467124
19525000 0.8797127805820933 -0.46729321762177317
19572500 0.8790539044996043 -0.46810483731844044
19620000 0.878739473754011 -0.4690335037922856
19667500 0.8783400977344692 -0.4703347273461338
19715000 0.8774465626362083 -0.47129490615430414
19762500 0.877118443804719 -0.47217026395156597
19810000 0.8764319798477358 -0.47346572294909256
19857500 0.8757596638991311 -0.4742876872491958
19905000 0.8753922360486086 -0.47537443786566674
19952500 0.8747013788564038 -0.47661361984600153
20000000 0.8745218199561182 -0.47731367155048493
