# HZ S RI R 50
1000000 0.5961182305219623 -0.008605046432784464
1047500 0.5961342596453371 -0.009121033908540476
1095000 0.5960830224248865 -0.009356012026138177
1142500 0.5960988209625079 -0.00969277739928873
1190000 0.5961043241480409 -0.010054411462097571
1237500 0.5960585060333826 -0.010430458283436373
1285000 0.5960097326396773 -0.01071941659581626
1332500 0.596061277980129 -0.011082997657013571
1380000 0.5960965298308791 -0.011518590637694429
1427500 0.5961195932421639 -0.011816807164143035
1475000 0.5961260432199301 -0.01216361090389295
1522500 0.5961601728603098 -0.01268899434231742
1570000 0.5959621547336539 -0.013069120432287617
1617500 0.5959649467975736 -0.013311576566658795
1665000 0.596052597704235 -0.013624971581813498
1712500 0.5960514054113957 -0.014110976734793834
1760000 0.5959493362911101 -0.01450041026964727
1807500 0.5959744654824147 -0.014742888854128685
1855000 0.5960865233723663 -0.015073090388798666
1902500 0.5961231197146104 -0.01565130352658347
1950000 0.5959605972551241 -0.01599707767699718
1997500 0.5959202204845492 -0.016235512780792334
2045000 0.5959802999346787 -0.01655969056126091
2092500 0.5959011917452095 -0.01697377150148567
2140000 0.5959833108881042 -0.01735249431110309
2187500 0.5959915115392939 -0.017784469446645638
2235000 0.5959285228336354 -0.018088302761064802
2282500 0.5958376243545043 -0.018386126149486714
2330000 0.595899888032282 -0.0187266564085923
2377500 0.5959656844294536 -0.019213341994638942
2425000 0.5958864566423168 -0.019665042766113375
2472500 0.5958431235414076 -0.019981249002615907
2520000 0.5958884124744321 -0.020253442922863612
2567500 0.59592550679289 -0.020682957233633337
2615000 0.5957900759717202 -0.02115144542538396
2662500 0.5958227490466649 -0.021424579452711628
2710000 0.5958578930896706 -0.021689377976794037
2757500 0.5958703370483127 -0.022107643371121304
2805000 0.5958146075726304 -0.022617003185116405
2852500 0.5957124881844514 -0.02290779946495197
2900000 0.5957479490871965 -0.023228248873398524
2947500 0.5957880579470473 -0.023596385947845112
2995000 0.5956700430954112 -0.023994861716965056
3042500 0.595708719947748 -0.024342442683302115
3090000 0.5957958802292066 -0.024657676997651007
3137500 0.595740671254308 -0.025090234026375804
3185000 0.5956889083620497 -0.025467074050498126
3232500 0.5957246612042316 -0.025865088642331818
3280000 0.5955836403494924 -0.0262613913788109
3327500 0.5955525637127149 -0.026581059635190783
3375000 0.5954947694641798 -0.026864119796145298
3422500 0.5956597880223399 -0.02728533201967445
3470000 0.5956406458900317 -0.027707891362471836
3517500 0.5955269403702188 -0.02805523985188129
3565000 0.5954919871388379 -0.028271401274620002
3612500 0.5955980489934006 -0.028693695228555464
3660000 0.5955924503136037 -0.029207036307936963
3707500 0.5954801832221864 -0.0296079005233659
3755000 0.5954377205496977 -0.02987241643590428
3802500 0.5955153408609909 -0.03018907124494441
3850000 0.5954847307551188 -0.030659677028123788
3897500 0.5953354361524308 -0.031059328202472647
3945000 0.595348890387035 -0.03126111082484888
3992500 0.595380137441509 -0.031681914401195437
4040000 0.5953660922721425 -0.03206045578310459
4087500 0.5954217499481621 -0.03244198458907978
4135000 0.5953246828138372 -0.03285522916116061
4182500 0.5952950562453582 -0.03321600112720799
4230000 0.5952501102978831 -0.0335040267360246
4277500 0.5952649664527802 -0.033844088763546415
4325000 0.5952850629000819 -0.03429521437837783
4372500 0.5951907867391537 -0.03466771736186189
4420000 0.5951401796462188 -0.034973030984935524
4467500 0.5952629053816322 -0.03530710950814253
4515000 0.5952863345127757 -0.03575881462025577
4562500 0.5951431760182281 -0.03623272909043582
4610000 0.5950335761539494 -0.03647639593041026
4657500 0.5950893331953149 -0.036724844060144285
4705000 0.5951929111850519 -0.03727776072055627
4752500 0.5950982847091499 -0.037570086029937416
4800000 0.5949640556519121 -0.037956079657082135
4847500 0.5950250967169693 -0.038174161926512795
4895000 0.5951278740932979 -0.03866482968033714
4942500 0.5950308016707351 -0.03909248128852452
4990000 0.5948982224304631 -0.0394426811781249
5037500 0.5948809725632411 -0.03978233277113778
5085000 0.5948891709208654 -0.04014335521950597
5132500 0.5948549114592048 -0.040528587867991454
5180000 0.5947745156077368 -0.040859824355055044
5227500 0.5948520601858214 -0.04122263447377438
5275000 0.5947763776053667 -0.04166712480560819
5322500 0.5947688893693674 -0.04197414780171877
5370000 0.5948149998572315 -0.04232651863779026
5417500 0.5948502679775372 -0.042743402423843
5465000 0.5946192841410969 -0.04318354156566963
5512500 0.5946381115742082 -0.043403840851863794
5560000 0.5946340329017525 -0.04373660165534153
5607500 0.594708806758411 -0.04429115233774283
5655000 0.5945366321844587 -0.044626905899824015
5702500 0.5945166730364826 -0.0448078391410898
5750000 0.5946125492423617 -0.0452671381896904
5797500 0.594496538886044 -0.04571566739063307
5845000 0.5944815602970146 -0.04599313630310592
5892500 0.594454777675798 -0.04640022649561195
5940000 0.5944602477679428 -0.04679316143676608
5987500 0.5943702507361109 -0.04713915172365548
6035000 0.5944985214466647 -0.0474680450904283
6082500 0.5943367812259066 -0.047917911566239695
6130000 0.5942719935263634 -0.048224823318393735
6177500 0.5942688749142377 -0.04851058482336585
6225000 0.5944137654014523 -0.04895847895500345
6272500 0.5942883725943477 -0.049426103345799895
6320000 0.5941371130181197 -0.04970702161787084
6367500 0.5941346331016836 -0.049994682336747115
6415000 0.5941795222880742 -0.05037965091560009
6462500 0.5941297302804412 -0.05082553070899424
6510000 0.5940038794392662 -0.05116777180639749
6557500 0.5940604590933409 -0.051442141919700285
6605000 0.5940093649423727 -0.05179281704027713
6652500 0.5940400862809851 -0.05224465101107601
6700000 0.5940277392375997 -0.05264813712386752
6747500 0.5938417098961907 -0.053106660152503225
6795000 0.5938138838349799 -0.05338797960665688
6842500 0.5938609389565341 -0.0536877239382401
6890000 0.5938714369733624 -0.05410388089038101
6937500 0.593776977334963 -0.05447932913239934
6985000 0.593675790821415 -0.054778300831760676
7032500 0.593751755294391 -0.05506128243931453
7080000 0.5937446638346289 -0.05562600281009201
7127500 0.593609897486364 -0.05601831702064198
7175000 0.5935594211720605 -0.0562796207409658
7222500 0.5936438843504274 -0.0565855545721417
7270000 0.593600290625096 -0.057056638191632425
7317500 0.5935132128074638 -0.057440539218170245
7365000 0.593441772248199 -0.05776710881139261
7412500 0.593445204492623 -0.058141351132527413
7460000 0.5933476023474077 -0.05840032235216764
7507500 0.593444982898135 -0.05878954822236618
7555000 0.5934361858283614 -0.059210129066135146
7602500 0.5932200655584108 -0.05961355417791589
7650000 0.5932039231782034 -0.0599394469213281
7697500 0.593281776746085 -0.060268955584485945
7745000 0.5932877026297283 -0.060674232207219195
7792500 0.5931547343452674 -0.06112293127491884
7840000 0.5929892435013736 -0.06139519276866659
7887500 0.5930858504676201 -0.061623484412373815
7935000 0.5931511728126526 -0.06210219443203096
7982500 0.5929897896556213 -0.06263438209615423
8030000 0.5929088719536326 -0.06289938733715249
8077500 0.5928443376818181 -0.06322578665721629
8125000 0.5928873708636845 -0.06353669649179258
8172500 0.5928294353045378 -0.06403390541214052
8220000 0.5927790073148134 -0.06440930221814324
8267500 0.5927257773275761 -0.06476702438174975
8315000 0.5926097265713028 -0.06508047397411014
8362500 0.5926399412007506 -0.06528325976570017
8410000 0.592712221703763 -0.06580855727515715
8457500 0.5925658131501014 -0.06622491017822747
8505000 0.5924860519939494 -0.06649924880230877
8552500 0.5925508715493926 -0.06683781054773377
8600000 0.5925580125300839 -0.06726717505067899
8647500 0.5924139498344212 -0.06772474422407437
8695000 0.592264345857622 -0.06799418368013085
8742500 0.5923450801631228 -0.06835506841490689
8790000 0.5923295641987585 -0.06874945756014024
8837500 0.5922752649446329 -0.06919252311989077
8885000 0.5922392462509837 -0.06950811068056865
8932500 0.5921916161093596 -0.06983159911709473
8980000 0.592110207032704 -0.07018009361820128
9027500 0.5921569886168215 -0.07047002284478021
9075000 0.5921294292397316 -0.07091522682125871
9122500 0.5919741295879857 -0.07134750831018065
9170000 0.5919186603124204 -0.07168101978555871
9217500 0.5919078164916857 -0.07193322936158654
9265000 0.5919262929170542 -0.07237845505407306
9312500 0.5918306580600134 -0.07284396354571926
9360000 0.5916052414827789 -0.07314672254278894
9407500 0.5917452617576948 -0.07338358731529859
9455000 0.5918768111884418 -0.07380716452856091
9502500 0.591649580661839 -0.0743375757581599
9550000 0.5915755434718644 -0.07464449191768992
9597500 0.5915544845619137 -0.07490842242192267
9645000 0.5915226634603848 -0.07534002606690748
9692500 0.5913718143776349 -0.07563058830944695
9740000 0.5914492018723093 -0.07604258168804158
9787500 0.5913674247044208 -0.07648775823128161
9835000 0.5912712957606966 -0.07673126259426714
9882500 0.591255179408149 -0.07704672047956158
9930000 0.5913010078578128 -0.07755013006698297
9977500 0.5911977695231668 -0.07796163697908316
10025000 0.5909758488097102 -0.07832759170316496
10072500 0.5910578133501402 -0.07851619622850135
10120000 0.5910942475588761 -0.0789422747328371
10167500 0.5911172412520671 -0.07943536620818718
10215000 0.5908495892286713 -0.07977709775587584
10262500 0.5908649596681544 -0.0799466101854692
10310000 0.5908772297236895 -0.08034638065141285
10357500 0.5908673729095353 -0.0808955150317509
10405000 0.5906988193997154 -0.08113703285939378
10452500 0.5906176080702716 -0.08151047108088295
10500000 0.5906421872569066 -0.08190655656666182
10547500 0.5905616088062028 -0.08227195851795407
10595000 0.5905849652956726 -0.08257394956517704
10642500 0.590412538467444 -0.08306786568194309
10690000 0.5903895626395891 -0.083431193823985
10737500 0.5903065334387888 -0.08361567598285685
10785000 0.590392177758375 -0.08394873394223708
10832500 0.5903571931566878 -0.08447949965367797
10880000 0.5901154811101612 -0.08494276086703792
10927500 0.5901127626985276 -0.08517763393548425
10975000 0.5901339378257991 -0.08539981615248583
11022500 0.5901525555382268 -0.08587124795163427
11070000 0.5900072826373527 -0.08634289737429406
11117500 0.5898348371470478 -0.0865629610867153
11165000 0.5898838990885141 -0.08686663812700711
11212500 0.5899261324858346 -0.08735138329936178
11260000 0.5898405597459851 -0.08776555058056669
11307500 0.5897403985910654 -0.0881125501946523
11355000 0.5896538989085993 -0.08846983842504992
11402500 0.5895798123184496 -0.08884101543316922
11450000 0.589547557639824 -0.0890692162184569
11497500 0.5895319321424947 -0.08950572504792721
11545000 0.5894170696326023 -0.0899990118850321
11592500 0.5892556252113786 -0.090225205809435
11640000 0.5893255932112482 -0.09049346162648551
11687500 0.5893756836981013 -0.0910138417068936
11735000 0.5892184886136054 -0.0914957463206589
11782500 0.5890458631352207 -0.09174854024254873
11830000 0.5890489630641089 -0.09198020504394744
11877500 0.5890794679723981 -0.09242233772402604
11925000 0.5890142134511601 -0.09292563623593894
11972500 0.5888158967988221 -0.09320381314623262
12020000 0.588834674201038 -0.0934793453455419
12067500 0.5888883688817581 -0.0938592702189811
12115000 0.5887555511767453 -0.09431337730749281
12162500 0.5887353002465359 -0.09462548339859245
12210000 0.588626385327903 -0.09506944154587377
12257500 0.5885532377950692 -0.09533088102736305
12305000 0.5884865367625223 -0.09563575930577153
12352500 0.5884969119551456 -0.0960173098293693
12400000 0.5884700538175256 -0.09653349129319394
12447500 0.5882518343589649 -0.09685578335240048
12495000 0.5882477313001201 -0.09702888757924001
12542500 0.5883128283326752 -0.0974685203161351
12590000 0.5881852811408979 -0.09803940578226247
12637500 0.5880033647640435 -0.09837231046692753
12685000 0.5880069348006735 -0.09859779560327889
12732500 0.5879806500272192 -0.09892603959756185
12780000 0.5879565025958178 -0.0994170826153796
12827500 0.5878222009548549 -0.0997538227764865
12875000 0.5877026391261853 -0.10009095164621248
12922500 0.5877560880587624 -0.10039511076075341
12970000 0.5876721776213977 -0.1008040137688348
13017500 0.587606874430279 -0.10119465537595643
13065000 0.5875377312273397 -0.10155309154400453
13112500 0.5873690864550044 -0.10191668520097749
13160000 0.5874055567625125 -0.10223195163184313
13207500 0.5874060492736038 -0.10261596692032006
13255000 0.5872847153925451 -0.10301192320158056
13302500 0.5871565273474433 -0.10334955529992527
13350000 0.5871214271616491 -0.10366737217460043
13397500 0.5871022275721337 -0.10393865117114197
13445000 0.5871381123752161 -0.10447605409066393
13492500 0.5869488638477989 -0.10487372566708936
13540000 0.5866977062710259 -0.10509306354131011
13587500 0.5868898950544806 -0.10544792911431924
13635000 0.5868227353760006 -0.10590887981950269
13682500 0.586658374481663 -0.10635434968529808
13730000 0.5865009185736396 -0.10658289625169229
13777500 0.5865375565438898 -0.1068710091801531
13825000 0.5865730107135759 -0.10737971663666564
13872500 0.5863996147135218 -0.10777773351187893
13920000 0.5863148748143312 -0.108049730868231
13967500 0.5863160237170065 -0.1083678175612562
14015000 0.5861879467348787 -0.10871899371494605
14062500 0.5861636773722896 -0.10910448864959567
14110000 0.5860601589223265 -0.10955320093787738
14157500 0.5859946758733683 -0.10988608306713318
14205000 0.5859057258190593 -0.11014513318231003
14252500 0.5858874150057749 -0.11049520450838268
14300000 0.5858860370402735 -0.11100368490766145
14347500 0.5857863712495093 -0.11147071047976792
14395000 0.5856162787318862 -0.11179258752126142
14442500 0.585587105149314 -0.11196691750201881
14490000 0.5855959902984398 -0.112396419022747
14537500 0.5854506586745027 -0.11284816324475853
14585000 0.5852627260732342 -0.11314856903664837
14632500 0.5853584762445346 -0.11341654114807213
14680000 0.5853350089811421 -0.11374634812680431
14727500 0.5852128987272723 -0.11434530512232063
14775000 0.5850286271205132 -0.11462183337495674
14822500 0.584900284828324 -0.11480939882952704
14870000 0.5850174636864478 -0.11524941257317806
14917500 0.5849354436668245 -0.11568035272008723
14965000 0.5847101727897762 -0.11609907017504188
15012500 0.5846703774650748 -0.11637673202685761
15060000 0.5846622864982575 -0.11666713514928416
15107500 0.5846576533082691 -0.11705131415758567
15155000 0.5845539209444276 -0.11751628137660415
15202500 0.5844416542663311 -0.11788495325109372
15250000 0.5843801065534714 -0.11821661915081025
15297500 0.5842696065329376 -0.11853892694732063
15345000 0.5842705730725192 -0.11885800876959327
15392500 0.5840945486433327 -0.119236466545889
15440000 0.5840169052725889 -0.11966199122900924
15487500 0.5839556613313286 -0.1199900975869058
15535000 0.5839094645955513 -0.1202994908790929
15582500 0.5839199389032231 -0.12064907228218033
15630000 0.5838274286629224 -0.12119992496023747
15677500 0.5836250266467727 -0.12144247128924054
15725000 0.5835247247741963 -0.12166890773841166
15772500 0.583681654453487 -0.12208530957124941
15820000 0.5835385702167749 -0.12253883769695104
15867500 0.5833113262484007 -0.12293186872334155
15915000 0.583298714423423 -0.12311573400056205
15962500 0.5833156348947943 -0.12357341671534083
16010000 0.5831703951900278 -0.12400257649570728
16057500 0.5830818489447261 -0.12438097236035833
16105000 0.5829893256452087 -0.12470118958144627
16152500 0.5828999528884623 -0.12505125420393254
16200000 0.5828714274990002 -0.12536968492745923
16247500 0.5827874966486183 -0.12567789787356337
16295000 0.5827173972570933 -0.12614953428908868
16342500 0.582595556502023 -0.126514939838138
16390000 0.5825096093088944 -0.12664198715267946
16437500 0.5825360056730975 -0.12708700640742593
16485000 0.5824668855227552 -0.12762825724475343
16532500 0.5822200239071219 -0.12803108453727396
16580000 0.5821109732384456 -0.1281785505711121
16627500 0.5821914219499843 -0.12852334127132042
16675000 0.5820572115111232 -0.1291181261641908
16722500 0.581815417910917 -0.12938230182024285
16770000 0.5818346520061346 -0.12958559867361832
16817500 0.5819232326878684 -0.13001096980846477
16865000 0.5818355519995584 -0.1304815665691163
16912500 0.5816352867918411 -0.13090185138072435
16960000 0.5815490033109811 -0.13121678633452086
17007500 0.5814589971143203 -0.13152089581537446
17055000 0.5814054801569222 -0.13186348437950673
17102500 0.5813008102539711 -0.13220422163949824
17150000 0.5812767393961165 -0.13261192120796222
17197500 0.5810922411527176 -0.13301585698881693
17245000 0.5810379836003297 -0.1332693291531732
17292500 0.5810328451533205 -0.13370660688583486
17340000 0.5809523073136371 -0.13413213896408285
17387500 0.5807274087193511 -0.1345100898670552
17435000 0.5806289143511625 -0.13462715072693285
17482500 0.5807025022873741 -0.13501122681694208
17530000 0.5806572417765434 -0.1355291864373521
17577500 0.5804298953008022 -0.1358975093604962
17625000 0.5803221789888832 -0.1362086538762833
17672500 0.5803663328476948 -0.13646102938654267
17720000 0.5802568841873319 -0.1369457302871058
17767500 0.5801119930405032 -0.1372857030743852
17815000 0.579993544236168 -0.13763704212871927
17862500 0.5799758467251532 -0.1379315060459322
17910000 0.5799296592372907 -0.13835128411937705
17957500 0.5798545502105004 -0.1387732397676708
18005000 0.579665642348885 -0.13910974508374394
18052500 0.5796137833744016 -0.13943854490116786
18100000 0.5794350639689557 -0.1396813689262913
18147500 0.5794160235032765 -0.14007513906978927
18195000 0.5794103858760643 -0.14047400298477963
18242500 0.579260359034083 -0.14094364277788396
18290000 0.5790717364378642 -0.1412643619452201
18337500 0.5790592951255118 -0.1414279530430599
18385000 0.5790636793012076 -0.14189046664082597
18432500 0.5789177205992847 -0.14235531100018195
18480000 0.5787512614782147 -0.1426331355244956
18527500 0.5787895740488592 -0.14287309435312587
18575000 0.5787825088819438 -0.14326186416953107
18622500 0.5786614297320093 -0.14381390547390965
18670000 0.5784379401857898 -0.14405341253543197
18717500 0.5783288967186352 -0.1443679942362976
18765000 0.5782992729132046 -0.14476317881125014
18812500 0.5782313752778246 -0.1450615950535865
18860000 0.5780939895806965 -0.14545991108421236
18907500 0.5779961205509357 -0.14587812426346639
18955000 0.5778337558883534 -0.14613785654164516
19002500 0.5778148614089466 -0.14643703559177138
19050000 0.5777700625360104 -0.14684125610335078
19097500 0.5777424783572331 -0.14726915969612875
19145000 0.5774422626279698 -0.14769785483376152
19192500 0.5773681272231215 -0.14787215039165538
19240000 0.5773394820782404 -0.14817806944378165
19287500 0.5773785988863991 -0.14863311089118256
19335000 0.5771360959165641 -0.14907188507274002
19382500 0.5770410662217431 -0.14929729898940036
19430000 0.577083314018235 -0.14960924554558327
19477500 0.5769693305893479 -0.15014719161871387
19525000 0.5768095708041906 -0.15058175668328913
19572500 0.5766252407105906 -0.1508332757885453
19620000 0.5766028271177662 -0.15100993616990552
19667500 0.5766199738172684 -0.15148621506713883
19715000 0.5764574664726393 -0.15188476725029357
19762500 0.5762646352287202 -0.15223055276913933
19810000 0.576213798129218 -0.15250230676832133
19857500 0.5761827703883223 -0.15290797127293693
19905000 0.5760674603412189 -0.153272873253908
19952500 0.5759648523020151 -0.1536712384079661
20000000 0.5758691821338269 -0.15403113818475525
