# HZ S RI R 50
1000000 0.5988403410773901 -0.010065153537515147
1172500 0.5989200642719777 -0.011376699045736825
1345000 0.5988522451308405 -0.012850388460403072
1517500 0.5988214975800787 -0.01397581407471135
1690000 0.5986805140081025 -0.015516030316370104
1862500 0.5988287402683472 -0.016828847242258197
2035000 0.5987494403826426 -0.01801973415137534
2207500 0.5985984922754857 -0.01955264949182875
2380000 0.5987860996097579 -0.020888838938038744
2552500 0.5985764373764009 -0.022076241378761133
2725000 0.5984478956489157 -0.023575436960948784
2897500 0.5985195163300585 -0.02511328550475604
3070000 0.5985094892782203 -0.0261670231272836
3242500 0.598305897679168 -0.027558662408002553
3415000 0.5982949439787604 -0.029078467536746453
3587500 0.5983340533986099 -0.030143652295289092
3760000 0.5981723471145035 -0.03154825622760011
3932500 0.5980998011291955 -0.03311400940434781
4105000 0.5982185722044704 -0.034262656576559455
4277500 0.5979674992686174 -0.035589191253001404
4450000 0.5978310674232058 -0.03714135769286665
4622500 0.5979336720922502 -0.03833751070214697
4795000 0.5976573982494695 -0.03957669706466345
4967500 0.5975829170844996 -0.04116389762899554
5140000 0.5976118612082949 -0.04246366821449641
5312500 0.5973652672997287 -0.0436028313633005
5485000 0.597213722441311 -0.045146365088394536
5657500 0.5972971171429142 -0.046503716790620944
5830000 0.5972123900369787 -0.04761372531480487
6002500 0.5969012798151561 -0.0491170252548809
6175000 0.596910248464183 -0.05058552446547506
6347500 0.596877662723168 -0.05172808801113433
6520000 0.5965345486373064 -0.05307712698507567
6692500 0.5965430510311083 -0.05464259162810281
6865000 0.5965659047546316 -0.05585903476473844
7037500 0.5961767097780541 -0.05712409522008105
7210000 0.5961636730578743 -0.058602235399482734
7382500 0.5961875933376445 -0.059803864753515595
7555000 0.5959739793516238 -0.06115528863712403
7727500 0.5957286523481279 -0.06256094685142741
7900000 0.5956176581158006 -0.0638827026627376
8072500 0.5954463991121682 -0.06525324254128911
8245000 0.595332924278659 -0.06653144686659308
8417500 0.5951201622300342 -0.06797034528962428
8590000 0.5950149331970724 -0.06930177823604501
8762500 0.59481161559309 -0.07052705987742217
8935000 0.5946623336955964 -0.07197526330280164
9107500 0.5945060148501436 -0.07326662800410076
9280000 0.5943983591694528 -0.0745845646479483
9452500 0.5940872835896867 -0.07601320824832145
9625000 0.5940431923313779 -0.07732958674308643
9797500 0.5939173797535136 -0.07855137775362116
9970000 0.5935508998709937 -0.08002699698707727
10142500 0.5934837626055993 -0.08132955079667446
10315000 0.5933590169075391 -0.08258575467342655
10487500 0.5929726013603964 -0.08398100202890095
10660000 0.5929124363538274 -0.08530384100378022
10832500 0.592765189543596 -0.0865497380056169
11005000 0.5924407846819932 -0.08797152069333067
11177500 0.5922728871103632 -0.08936478507232437
11350000 0.5922221702142154 -0.09066440082009619
11522500 0.5918063495779047 -0.0919128623859676
11695000 0.5916200581233214 -0.0933290649840443
11867500 0.5915730062729843 -0.09460983573152484
12040000 0.5911962842422169 -0.09582087822547034
12212500 0.5909852317081125 -0.09732340760586555
12385000 0.5909649166194173 -0.09868809078239972
12557500 0.5905278874045781 -0.09985219214245909
12730000 0.5902450765402394 -0.10128625516857438
12902500 0.5901563838307734 -0.1027288646496207
13075000 0.5898480022125129 -0.10386615345034256
13247500 0.5894786556552318 -0.10526132313345996
13420000 0.5893631840451216 -0.10674828513484871
13592500 0.5891784286515824 -0.10780731452597199
13765000 0.5887613003007267 -0.10919906730475822
13937500 0.5886304293731295 -0.11073020082987066
14110000 0.58840039455374 -0.11181540883094523
14282500 0.587985984773528 -0.11316498768030085
14455000 0.5878153758585964 -0.11469867924689803
14627500 0.5876902390416494 -0.11582954587398256
14800000 0.5872746543729377 -0.11707613459176001
14972500 0.5869738578838484 -0.11859091790534258
15145000 0.586868829331203 -0.11981553750417197
15317500 0.5864266317342185 -0.12105754860887444
15490000 0.5860928447792478 -0.12261974304099038
15662500 0.586082189072487 -0.12376216409798647
15835000 0.5856356733151774 -0.12493309857139157
16007500 0.5852210597222977 -0.12650490611970786
16180000 0.5851341646492423 -0.12781572528386229
16352500 0.5847927946340264 -0.12892747649532427
16525000 0.584306816628694 -0.13046096348600614
16697500 0.5842103215295217 -0.13182791577242214
16870000 0.5839367587610074 -0.13284545127398248
17042500 0.5834091919166479 -0.13437375864608236
17215000 0.5833028350563437 -0.13573740794959252
17387500 0.5829631784598143 -0.13683576879287432
17560000 0.5824476881957843 -0.13827804340622263
17732500 0.5823110153174623 -0.13973165843733326
17905000 0.5821303228173115 -0.1408802602835913
18077500 0.5814643400264243 -0.14206877814482843
18250000 0.5811974796975427 -0.1435983300012755
18422500 0.58117071069274 -0.1448412428023587
18595000 0.580510678365118 -0.14603037549186393
18767500 0.5802185174085894 -0.14750499043329535
18940000 0.5801229437415855 -0.1487234335992151
19112500 0.579533306470347 -0.14988581089332162
19285000 0.57915007669497 -0.1513127254343937
19457500 0.5790952596959948 -0.15270669207339194
19630000 0.5785492734405507 -0.15382253238745827
19802500 0.5780729701313916 -0.15520087948866132
19975000 0.5779489776365737 -0.15662774353293135
20147500 0.5774979836669953 -0.15765404782859255
20320000 0.5770137665768085 -0.15909844314656243
20492500 0.5767963997672771 -0.16056969565129664
20665000 0.5764537672652748 -0.16160993572388777
20837500 0.5758961829434798 -0.16299684897532105
21010000 0.5756332425884719 -0.16448941674645995
21182500 0.5752923153669903 -0.16556751223059804
21355000 0.5747524518742464 -0.16681815264535763
21527500 0.5744598769988838 -0.16833046048636202
21700000 0.5741510460048026 -0.16952626012221808
21872500 0.5735742312948576 -0.17068428356578838
22045000 0.5731768936534938 -0.17226160032317056
22217500 0.5729823482842822 -0.17346494721708408
22390000 0.5724433494668786 -0.1745420884108859
22562500 0.571979626645341 -0.17609139856903888
22735000 0.5717185991655693 -0.17736903174723478
22907500 0.571251689021686 -0.17842367998595896
23080000 0.5707295452385617 -0.17990888353941725
23252500 0.5705261506099588 -0.18120883119825523
23425000 0.5700643481284404 -0.18226950124684108
23597500 0.5694512202733438 -0.1836705495665118
23770000 0.5691437407920117 -0.18507546807985076
23942500 0.568852897779368 -0.18606738350728277
24115000 0.568241733077458 -0.18740545044690043
24287500 0.5678824934808379 -0.18884477671462885
24460000 0.5675500140779365 -0.18998524012970433
24632500 0.5668399325858332 -0.1911996276271356
24805000 0.5665021647061786 -0.19262091713868976
24977500 0.5662768945403741 -0.1937901011601147
25150000 0.5655226291898847 -0.1949420044851485
25322500 0.5651133537807314 -0.19645051263421373
25495000 0.564903341659936 -0.1976864544679204
25667500 0.5643022898106425 -0.1988391747727883
25840000 0.5637340459894415 -0.20023048302735813
26012500 0.563531920507712 -0.20155008040378602
26185000 0.5628886574967573 -0.2025663998058846
26357500 0.5623149318546452 -0.2039894575582753
26530000 0.5620582966604555 -0.20534394774627515
26702500 0.5615637675000336 -0.20642848311847609
26875000 0.5608545195559227 -0.20777738518857866
27047500 0.5605595411501129 -0.2091385366106653
27220000 0.560069568723919 -0.21020059831607826
27392500 0.559478044565548 -0.21151524052546533
27565000 0.5590206928414729 -0.21301121699362566
27737500 0.5586063384911044 -0.21406303602408314
27910000 0.5579514986038204 -0.21530703478300287
28082500 0.5574800664977525 -0.21675433962717505
28255000 0.5571065936942726 -0.21787221233610735
28427500 0.5564712422581387 -0.21905266806373078
28600000 0.555951564103458 -0.2205520437198781
28772500 0.555657578468033 -0.2217614669873807
28945000 0.5549736348468773 -0.22281256648570513
29117500 0.5543425172050674 -0.2242761210520306
29290000 0.5540410051149268 -0.22548819696539557
29462500 0.5534103838181484 -0.22655865755571108
29635000 0.5527517375386418 -0.228038164947933
29807500 0.5524634778087175 -0.22928438540573842
29980000 0.5519052728383643 -0.23029556716815291
30152500 0.5511832329156692 -0.23168748693551544
30325000 0.5507633886682086 -0.2330384617850496
30497500 0.55035243000893 -0.2340946268828785
30670000 0.5495788771977176 -0.23540341060349348
30842500 0.5491761845839527 -0.23671993377482806
31015000 0.5487647171522299 -0.23777370875070122
31187500 0.5481585768935434 -0.23913170137512108
31360000 0.5474627726700909 -0.24027517723682507
31532500 0.5470329207067118 -0.24152972010730037
31705000 0.5463798422719166 -0.24272792113390354
31877500 0.5458301044146043 -0.24394381918418037
32050000 0.5453337461304442 -0.24517986410516251
32222500 0.544649307231903 -0.24640032248944885
32395000 0.544168558603417 -0.24757369169766655
32567500 0.5436512655588409 -0.2488799205851453
32740000 0.5430277126508145 -0.2499826172377212
32912500 0.5425032940668296 -0.2512086228459764
33085000 0.5420684211554648 -0.2524580720683435
33257500 0.5412579325663793 -0.2534913132181435
33430000 0.5406144529767247 -0.2548679136216134
33602500 0.5402074399165178 -0.25622420400358425
33775000 0.5396239060056411 -0.2571123601138299
33947500 0.5388842640209941 -0.25837629539907886
34120000 0.5382293969291319 -0.25964483779277225
34292500 0.5378024749358349 -0.2609138944386166
34465000 0.5371622053521128 -0.26203093805388006
34637500 0.5364777893528866 -0.26326617159800664
34810000 0.536014505423806 -0.2645252682495758
34982500 0.5354014977897278 -0.2655885601143088
35155000 0.534674579611515 -0.26678770819888137
35327500 0.534138409640249 -0.2680160027875873
35500000 0.5336140446643646 -0.2691876981765246
35672500 0.5327358806733141 -0.2703630113350627
35845000 0.5322788892248923 -0.27160706506398824
36017500 0.5317265192342313 -0.2728324255473047
36190000 0.5308762950094731 -0.2739331502192474
36362500 0.5303435003861461 -0.27519964366778693
36535000 0.5298100065976729 -0.27636770966503965
36707500 0.5290147861230512 -0.2774307049460286
36880000 0.5284282333069399 -0.27867531495492676
37052500 0.527867709870389 -0.27986468844474144
37225000 0.5270787393156128 -0.28087760051258853
37397500 0.5264404168290708 -0.28234386601043343
37570000 0.5259243736884341 -0.28347326040146464
37742500 0.5251493147120379 -0.28447544342404113
37915000 0.5244604479731885 -0.2857642815714329
38087500 0.5239171615807634 -0.2869629676394144
38260000 0.5232371119820689 -0.28797811349549385
38432500 0.5223939903773389 -0.28925663326309775
38605000 0.5218354904190914 -0.2905740927851862
38777500 0.5211570389137012 -0.2915236161354493
38950000 0.5204189106924024 -0.29278168220754014
39122500 0.5197889574379845 -0.2940635072748477
39295000 0.5191715188447805 -0.29514710755249884
39467500 0.5183335662486973 -0.29632785486342217
39640000 0.5177133233226707 -0.2975283328731496
39812500 0.5170726981156548 -0.29859397830883366
39985000 0.5162561943468614 -0.2997891467609019
40157500 0.5156154248558033 -0.3011041063618442
40330000 0.5149421149434016 -0.3021809920644888
40502500 0.5142310092394167 -0.30334609153743186
40675000 0.5135015116878558 -0.30452071846336465
40847500 0.5128835487027121 -0.30574493786003265
41020000 0.5120300721649346 -0.3068547241914512
41192500 0.5112308450034939 -0.3080731303931936
41365000 0.5105759305079979 -0.3092082022051541
41537500 0.5098224905869314 -0.31043417167370074
41710000 0.5090602204920192 -0.31156607792903007
41882500 0.5084908582625098 -0.31264641082982164
42055000 0.5076423535181454 -0.3138201307800154
42227500 0.5067820121958891 -0.3150779035108729
42400000 0.5062263198145074 -0.3162400510396071
42572500 0.505448304185995 -0.31733029641159854
42745000 0.5045081277670815 -0.3185381097284627
42917500 0.5038791641348861 -0.3196678681887259
43090000 0.5032260632466706 -0.3207395808198826
43262500 0.5023327299573479 -0.3219492773840345
43435000 0.5016399704703172 -0.3231593051455408
43607500 0.5009221471710626 -0.3242191488207697
43780000 0.5000668701293407 -0.3254075968608907
43952500 0.4993426259484928 -0.3265513980669169
44125000 0.49863803898707376 -0.3276782143717616
44297500 0.49781757727495707 -0.32883807414625654
44470000 0.49706556923189543 -0.32991356026514246
44642500 0.49630618549214167 -0.33104470848193424
44815000 0.4954741286977833 -0.3321223379517709
44987500 0.4947154970270088 -0.33323143957677853
45160000 0.49397301419649825 -0.3344413757639374
45332500 0.4932185593417765 -0.3354467391380718
45505000 0.4924432255562644 -0.3365583965515136
45677500 0.49174617816102256 -0.3377107285199122
45850000 0.49092760097727606 -0.3386985892767291
46022500 0.4900663078658359 -0.3398126161861821
46195000 0.48933015633163485 -0.3410710238779318
46367500 0.4886285173156669 -0.34205338916965544
46540000 0.48775135661869956 -0.3431475466308068
46712500 0.486994292275803 -0.34432978148288373
46885000 0.48608284540005897 -0.34526376013172566
47057500 0.4853881790934883 -0.3466596888834565
47230000 0.48474505305986443 -0.34752015413746984
47402500 0.4838044420287867 -0.34851072168264163
47575000 0.48294306631018424 -0.34966638353320306
47747500 0.48217509006027987 -0.3508021259927091
47920000 0.48154470810654415 -0.3518614283852613
48092500 0.4804409414733145 -0.35292826089249585
48265000 0.4797569896351699 -0.35404022836042176
48437500 0.4791379219795944 -0.3550602087323544
48610000 0.4781475195284045 -0.35605963988851386
48782500 0.4773448884141736 -0.35726811985043394
48955000 0.4766909555510341 -0.358331411413672
49127500 0.4757368842516345 -0.35915701665913313
49300000 0.4748000921023658 -0.36041242827244463
49472500 0.4742604915817626 -0.3615107885141925
49645000 0.4731509579968577 -0.36235700867227616
49817500 0.47236251080849206 -0.3635956136446516
49990000 0.47164883828413606 -0.36467169079627265
50162500 0.47085293927185834 -0.3654446076335698
50335000 0.46986704563580395 -0.36665919050687734
50507500 0.4691063974988702 -0.3677731605504164
50680000 0.4682934278146906 -0.36856503728841467
50852500 0.4672698741234448 -0.3696551626948033
51025000 0.466593893680762 -0.37089685385407645
51197500 0.4658305617593538 -0.3718971747190309
51370000 0.46490623051852514 -0.37271687628887207
51542500 0.46395889327799295 -0.3739383093216477
51715000 0.46318132485320834 -0.37502884556033633
51887500 0.46233101791440423 -0.37581244161645694
52060000 0.461270934846482 -0.37688256200610654
52232500 0.460638036530096 -0.3779893399068128
52405000 0.45974901511919397 -0.3788574244412376
52577500 0.45871018321532875 -0.37995451349175424
52750000 0.45799507519790567 -0.3811074686313461
52922500 0.4572005697975884 -0.381972948617209
53095000 0.4560889491447915 -0.38301520601945016
53267500 0.4553241449703994 -0.3841944657447814
53440000 0.45453684674532496 -0.38503597281491303
53612500 0.4535018240228409 -0.38603995522391416
53785000 0.4526456659629183 -0.3871595358568768
53957500 0.451895839029079 -0.3880461849874718
54130000 0.45084904763680517 -0.3890070737005805
54302500 0.45000551695507696 -0.3901020048410741
54475000 0.4492171911073289 -0.3910296598022851
54647500 0.4481767659812123 -0.39192882592560546
54820000 0.44723621559790067 -0.39302023943257686
54992500 0.4464905054362141 -0.39399905381635003
55165000 0.4455321572867479 -0.3948366098680512
55337500 0.44458020737708326 -0.39598364771756944
55510000 0.44373249237406887 -0.39691852000178357
55682500 0.442888666293228 -0.39788799602257163
55855000 0.44183754141272585 -0.3988509895047102
56027500 0.44099602526703985 -0.39982953272910016
56200000 0.4400833689032204 -0.4007878520703031
56372500 0.4390096383300703 -0.4016755215411428
56545000 0.43820157849050856 -0.4028353617965083
56717500 0.4372657980225967 -0.4036508916048691
56890000 0.43631168417645116 -0.40455099305572384
57062500 0.4352844507552265 -0.4056004241230794
57235000 0.4344517362120306 -0.4067370217182682
57407500 0.43368540128239524 -0.4074697949291095
57580000 0.4325320293313991 -0.40833583888941055
57752500 0.43155090350886804 -0.4094846870322671
57925000 0.4308921427670782 -0.41044873398610743
58097500 0.42987433164500505 -0.4113325822826536
58270000 0.42872163883056896 -0.41233463550332394
58442500 0.4279378959845786 -0.41341075118098014
58615000 0.4270507745229256 -0.4141263351014821
58787500 0.42587734134615596 -0.4150973678360853
58960000 0.42500750570333995 -0.4162564495044845
59132500 0.42420345291261796 -0.4170054894616174
59305000 0.4229863189108469 -0.4178380560671579
59477500 0.42210993347785664 -0.41899934168394687
59650000 0.4213133689484376 -0.41995477566438216
59822500 0.4202882663343361 -0.42071193009639835
59995000 0.41921813766349814 -0.4216353254691742
60167500 0.4182746627788066 -0.4226808462937964
60340000 0.4173635998875855 -0.4235956402832778
60512500 0.4161974260398186 -0.4243782221331359
60685000 0.4152305460641632 -0.4254687982219896
60857500 0.4144878268821405 -0.4263947573394282
61030000 0.4133333306966507 -0.4270929994097849
61202500 0.41232907026954135 -0.4281875170383885
61375000 0.4115150303058399 -0.42918819169859007
61547500 0.41039842507778085 -0.42984764117362284
61720000 0.40932360528215217 -0.4309835249385984
61892500 0.40837865328099165 -0.4320519210089845
62065000 0.407440459442933 -0.43253584205811585
62237500 0.40629260756549396 -0.43356699369547647
62410000 0.4054254772238439 -0.4346202383336075
62582500 0.4044367674833068 -0.4352445930191227
62755000 0.4033336627710326 -0.4362893729969617
62927500 0.40235606358860915 -0.43735938850161465
63100000 0.40142642241474774 -0.4380313184393063
63272500 0.4003652275822932 -0.43895030771996246
63445000 0.3993886573446204 -0.43989899375602237
63617500 0.39846042259132647 -0.4407805802416741
63790000 0.39731170690232537 -0.4414645887772332
63962500 0.39623948760055105 -0.44253231119693054
64135000 0.39537873304378474 -0.44337357629521035
64307500 0.3942939639001698 -0.44404810735184835
64480000 0.39309241159392233 -0.4450711435987991
64652500 0.39229283496525025 -0.44612033233397347
64825000 0.3913094585628331 -0.4467498436488897
64997500 0.3900028778640652 -0.44755754396622893
65170000 0.3891613477010722 -0.44866979006073665
65342500 0.38825917715454683 -0.4493292855292239
65515000 0.3870057394569473 -0.45025056417563064
65687500 0.3860715458687977 -0.45135647682766106
65860000 0.38510002229930557 -0.45188008476054636
66032500 0.3838347216361939 -0.4527135103744233
66205000 0.382820462551358 -0.4537909132349372
66377500 0.3819876757843597 -0.45448144991677175
66550000 0.3808458371266491 -0.45524838578907456
66722500 0.37977248877406733 -0.4562668265318983
66895000 0.37886039331984317 -0.45707885323574177
67067500 0.37763396541903316 -0.4576979039045369
67240000 0.3765436904241641 -0.4587381941574109
67412500 0.37572393342680305 -0.45958208856987504
67585000 0.37457112435633455 -0.46017869727993976
67757500 0.37337065787106016 -0.4611566404117425
67930000 0.3724657624474457 -0.4620240337402882
68102500 0.3713495694065906 -0.4626206398172257
68275000 0.37009990163009504 -0.4635469971974205
68447500 0.369223515768053 -0.46442666307783304
68620000 0.3681038979520043 -0.4650768952698634
68792500 0.36697229460940556 -0.4658582151661131
68965000 0.3658738182294019 -0.46695550904746685
69137500 0.36500808958020736 -0.4675978302855645
69310000 0.36374152437343765 -0.46837288228650253
69482500 0.36269895749989045 -0.46926482779125733
69655000 0.36169571556023666 -0.4699367392354749
69827500 0.36049381217908766 -0.4706875490787523
70000000 0.35939295695666773 -0.471561194827034
