# HZ S RI R 50
1000000 0.6639814338690508 -0.009583719036549828
1190000 0.6641954720444055 -0.01102442096180621
1380000 0.6639049902996834 -0.013194265721081875
1570000 0.663913619267571 -0.01467445626032577
1760000 0.663841361494307 -0.01624599198943078
1950000 0.6637083949329144 -0.01788414675841967
2140000 0.6635523816517782 -0.01964200298364822
2330000 0.6634475947295144 -0.0213735698756623
2520000 0.6635202481243565 -0.02320273193127204
2710000 0.6636174372685438 -0.024881614180010246
2900000 0.6635882317687053 -0.02640920992843587
3090000 0.6635000983475449 -0.027899757138058392
3280000 0.6634112580513596 -0.029601538691020786
3470000 0.6631412262783793 -0.03130526407068428
3660000 0.662992297899262 -0.032985858790579574
3850000 0.6630209500387911 -0.03486554388770963
4040000 0.662992078652789 -0.03651456337633346
4230000 0.6630191402253935 -0.038223897228821156
4420000 0.6629580378197866 -0.03983152339511893
4610000 0.6628556037867251 -0.04132669158358534
4800000 0.6626385820122966 -0.04292030576992416
4990000 0.6623945569495022 -0.044582007064171675
5180000 0.6622880081283365 -0.04640730836314725
5370000 0.6621574978854631 -0.04810365474182954
5560000 0.6622275369558922 -0.04985590442076981
5750000 0.6621686714123455 -0.0515079425043746
5940000 0.6620212636498788 -0.053055521933256536
6130000 0.6618856210736371 -0.054655302969291
6320000 0.661611448046199 -0.0562989626786871
6510000 0.6614019091785031 -0.05804694043387118
6700000 0.66123337725375 -0.05979756369666431
6890000 0.6612093781778414 -0.0615925247045215
7080000 0.6610926150698258 -0.06318292733892301
7270000 0.661036605539384 -0.0647850784754692
7460000 0.6608228701172566 -0.0663215200143382
7650000 0.6605222853739501 -0.06789140388579712
7840000 0.6603338384099616 -0.06975951874103856
8030000 0.6601037754943541 -0.07135172855117586
8220000 0.660044859525203 -0.07320313665366524
8410000 0.6598881171278227 -0.07482094130256141
8600000 0.6597652927575675 -0.07643264532597367
8790000 0.6595697937246996 -0.07801504146095846
8980000 0.6593772383503859 -0.07963877741623307
9170000 0.6590088344494236 -0.08127847344405872
9360000 0.6587944921533454 -0.08301988130252756
9550000 0.6585628783412812 -0.08482379147454362
9740000 0.6584567419801068 -0.08640472158327057
9930000 0.6582240022104842 -0.08817081844663618
10120000 0.658150668628828 -0.08970981872729636
10310000 0.6579302975638627 -0.09134255722047428
10500000 0.6575926460914826 -0.09294041796249974
10690000 0.6573059907547557 -0.09462712360668639
10880000 0.6570098562750365 -0.09629313542774966
11070000 0.6567661375675772 -0.09805365042344535
11260000 0.6565827154584319 -0.09974916580437944
11450000 0.6564412637089212 -0.10140078736873016
11640000 0.6562308579158734 -0.10296676247289963
11830000 0.6559471341337673 -0.1044918990531053
12020000 0.655601107722056 -0.10620432953241717
12210000 0.6552313908581672 -0.10782763019971515
12400000 0.6549725586682844 -0.10961740466700717
12590000 0.6547311209962122 -0.11136636186217262
12780000 0.65458142812675 -0.11301231776422642
12970000 0.6543390155400082 -0.114582227036246
13160000 0.6540158529945483 -0.11612712158589523
13350000 0.653678778197665 -0.11773706834926588
13540000 0.6532705956380473 -0.11938043367200854
13730000 0.6529407299885441 -0.12105353323370414
13920000 0.6526854944663943 -0.12284357862272863
14110000 0.652399822117068 -0.12451498532991101
14300000 0.6521909270718643 -0.1261822097327906
14490000 0.6519382727048272 -0.1277040906390884
14680000 0.6515304229571491 -0.12935204074968865
14870000 0.6511230357974592 -0.13095008217881507
15060000 0.6507792764603849 -0.13260992200234126
15250000 0.6504557194714773 -0.13435041533365324
15440000 0.6501881244649119 -0.13597011383187224
15630000 0.6499114313126436 -0.1377107333564084
15820000 0.6496050211032918 -0.1392748269444052
16010000 0.649186731925892 -0.14083965741032722
16200000 0.6488374896394392 -0.14235647839853444
16390000 0.6483876274394568 -0.14406311585854442
16580000 0.6479886081694264 -0.14575736142161913
16770000 0.6476743191891763 -0.14752298813028436
16960000 0.6473267141850356 -0.14909796681243595
17150000 0.6470014195994598 -0.15070747603130338
17340000 0.646683034997514 -0.15236452170300557
17530000 0.6462229405089983 -0.15392284577918003
17720000 0.6458107246632693 -0.15552834649555755
17910000 0.6453527386988884 -0.15713788094857867
18100000 0.644988617113827 -0.15884753193902326
18290000 0.6445806716571103 -0.16051822498191223
18480000 0.644054123585456 -0.16201522257865814
18670000 0.6436793697075015 -0.1637636237617898
18860000 0.6435108571697583 -0.16526713877347934
19050000 0.6429825538028223 -0.16687789438954956
19240000 0.6425266203520268 -0.16849129814597819
19430000 0.6420588000317745 -0.1701772807216423
19620000 0.6416551618277152 -0.17182472054597464
19810000 0.641283339496773 -0.17351795616473592
20000000 0.640835271749569 -0.1750260704586277
