# HZ S RI R 50
1000000 1.000238515001044 -0.020994005896807916
1047500 0.9999444585710688 -0.02212730378933597
1095000 0.9999679477970045 -0.02301211036877575
1142500 1.0000177912631978 -0.02380523662455387
1190000 1.000075730908784 -0.024916249375083764
1237500 1.0000545255001139 -0.025864206792391493
1285000 0.9998614916535634 -0.026860397648298815
1332500 0.9998852700636325 -0.027656807116663608
1380000 0.9998750680303394 -0.02861693887060125
1427500 0.9998144266645764 -0.029696089443390594
1475000 0.9997390108094416 -0.030580428638795107
1522500 0.9997631676433932 -0.03145087785379292
1570000 0.9996371737632063 -0.03238997758385837
1617500 0.999710355311908 -0.03339039438297688
1665000 0.999652371815502 -0.034463054489447725
1712500 0.9996210003925454 -0.03543813050188453
1760000 0.9995285110629107 -0.03629581168759304
1807500 0.9995174559747579 -0.037195328539657825
1855000 0.9995024390015881 -0.03824333856178017
1902500 0.9993833036994236 -0.03914722760629563
1950000 0.9992774101016498 -0.04015828869795353
1997500 0.9992492917945864 -0.04098064729614548
2045000 0.999298245457412 -0.04187394271675777
2092500 0.9993407763330636 -0.042938716493815844
2140000 0.9992161329847856 -0.04390225712116606
2187500 0.99911577136132 -0.04484765417459654
2235000 0.9989862347209784 -0.04570134961085246
2282500 0.9989902051239639 -0.046665365557652425
2330000 0.9988807164244552 -0.0476701446495436
2377500 0.9988447606150241 -0.04855387983522874
2425000 0.9987943669420069 -0.04950790897245815
2472500 0.9987547500369685 -0.05047287358854286
2520000 0.9986271927075825 -0.051408800985234704
2567500 0.9986750598535882 -0.05239049340244247
2615000 0.9985292245096116 -0.05341104753677495
2662500 0.9984877437837951 -0.054285477963315495
2710000 0.9984529985154961 -0.05525980107943934
2757500 0.9982455324579782 -0.0562005022171848
2805000 0.9982553538756276 -0.05712945167081667
2852500 0.9982104613609585 -0.05811091554549358
2900000 0.9980645029947658 -0.05898928712028286
2947500 0.9980735695584669 -0.059904997209483085
2995000 0.9980625275059134 -0.06086813150411859
3042500 0.997877837099514 -0.06189661067329311
3090000 0.9978016844266362 -0.0629268017431175
3137500 0.9977128729220192 -0.06381320822304111
3185000 0.9976728987956848 -0.06471589518511904
3232500 0.9975646126746112 -0.06566462527022146
3280000 0.9975492096267526 -0.06659365902139358
3327500 0.9974145711828559 -0.06757262204596141
3375000 0.9973812286228969 -0.06844819826255893
3422500 0.9972653054277306 -0.06930727600302888
3470000 0.9972277003905194 -0.07039946523174002
3517500 0.9971400027797355 -0.07141514995256588
3565000 0.9969321847470098 -0.07237555231040804
3612500 0.9968697353730364 -0.07316916763827687
3660000 0.9967551874575135 -0.07406095825989227
3707500 0.9967845469069956 -0.07508121027739999
3755000 0.9966627429073516 -0.07608705076371629
3802500 0.9965385971505311 -0.07693625562845456
3850000 0.9964611342937181 -0.07787466759012346
3897500 0.9965097996875204 -0.07888761903761012
3945000 0.9963151755862616 -0.07991392632634277
3992500 0.9962143765292101 -0.08080670036522272
4040000 0.9959330333565927 -0.08174147678205433
4087500 0.9959996407572509 -0.08255265896132497
4135000 0.9959035244580524 -0.08356005916802993
4182500 0.9957813543064833 -0.08455378025711875
4230000 0.9955939356554452 -0.08545588853227688
4277500 0.9956027061651094 -0.0863966255946675
4325000 0.9955440516173868 -0.0872499930114024
4372500 0.995424149378261 -0.08839380877939552
4420000 0.9952247897036618 -0.0893282173978087
4467500 0.995014719522749 -0.0901307420094179
4515000 0.9950063101205222 -0.0910394157536782
4562500 0.994999508509715 -0.09190698987160499
4610000 0.9947995199953612 -0.09304822861045346
4657500 0.9946743490970734 -0.09393459310211358
4705000 0.9945825857436431 -0.09480254770639088
4752500 0.9944749578664622 -0.09580010743807765
4800000 0.9945232777146015 -0.09682985334996759
4847500 0.9942339546972787 -0.09780437517639635
4895000 0.9939535755219968 -0.09859251756056298
4942500 0.9939293266880872 -0.09954475094396759
4990000 0.9939065200989193 -0.10038161308073475
5037500 0.9938235443766588 -0.10146715852455798
5085000 0.9935909045016136 -0.10244003048408044
5132500 0.9934183644107286 -0.10324947854092198
5180000 0.9933691402061414 -0.10417601003430721
5227500 0.9933249629438546 -0.10523252623348145
5275000 0.9931310103842768 -0.10622204524945066
5322500 0.9929379253163861 -0.10716968095533182
5370000 0.9927892319243928 -0.10799355987048374
5417500 0.9927840777655101 -0.10887625947147632
5465000 0.99261953045883 -0.1099580454351904
5512500 0.9925046756685744 -0.11081091600462852
5560000 0.99236804320293 -0.1117100210744354
5607500 0.9922085447724214 -0.11268951350344068
5655000 0.992168222858497 -0.11356259004228542
5702500 0.9920202521988445 -0.11465530072482989
5750000 0.9917004345679237 -0.11554907741439006
5797500 0.9915626503462471 -0.1163823689960512
5845000 0.9915578575352236 -0.11731630336986884
5892500 0.9914038991687324 -0.11828616187095312
5940000 0.991205989093766 -0.11930633041979974
5987500 0.9910523564969463 -0.12016648375948001
6035000 0.9910773900612637 -0.12101936956914872
6082500 0.9908666954313617 -0.12194797794912741
6130000 0.9907674535729508 -0.12308387423087117
6177500 0.9904344098377722 -0.12404398889874207
6225000 0.9902383646738714 -0.12482689332068661
6272500 0.9901628381131433 -0.12569826800353956
6320000 0.9900975910618733 -0.12677602541156682
6367500 0.9898516636718343 -0.127701551560476
6415000 0.9896705528061848 -0.12853909009368078
6462500 0.9896656878672854 -0.12943727031874325
6510000 0.989443114429694 -0.13037474747819466
6557500 0.9893566279255613 -0.13149797523837653
6605000 0.989045952323972 -0.13237304896890031
6652500 0.9888481439655106 -0.13328607075627236
6700000 0.9887960175883167 -0.134094793308824
6747500 0.9886868614533814 -0.13507204093413322
6795000 0.9885109595529484 -0.1360764209264713
6842500 0.9882971441097579 -0.13702309121676567
6890000 0.9881686601249091 -0.13783190098809364
6937500 0.9880767115880336 -0.13881254763934164
6985000 0.9879242240015818 -0.13993063826080113
7032500 0.9876209904881089 -0.14088167005146526
7080000 0.9873908321593728 -0.14159818299715213
7127500 0.9872722705546912 -0.14245605431547856
7175000 0.9871842607033852 -0.1433992363093596
7222500 0.9870504597063456 -0.14445601781989612
7270000 0.9867030831607594 -0.14540323932075622
7317500 0.9865922758627239 -0.1461691510495966
7365000 0.9864910332437509 -0.14707397151013618
7412500 0.9863903839492199 -0.14818652849187394
7460000 0.9861008450434713 -0.14914509853111468
7507500 0.9858150910898019 -0.15005557948212858
7555000 0.9856532562100274 -0.15077294126003957
7602500 0.9855967069567326 -0.15169658719470952
7650000 0.985426051456398 -0.15276758189043418
7697500 0.9851727660853711 -0.1537634108096533
7745000 0.984908177055092 -0.15453796325827593
7792500 0.9848174097187699 -0.1554163396726145
7840000 0.9848012757723785 -0.1564477903400905
7887500 0.984569385868819 -0.15754112087798933
7935000 0.9841511526643211 -0.1583794169979266
7982500 0.9839556341214483 -0.1591914367927735
8030000 0.98387613783711 -0.1601442467516692
8077500 0.9836866863933278 -0.16110449597399898
8125000 0.9834008226745186 -0.16204149712264385
8172500 0.9832801073249154 -0.16288642014743315
8220000 0.9830284652014442 -0.1638337247356007
8267500 0.9828619694319318 -0.16470819131220255
8315000 0.9827133565434766 -0.16566495949339807
8362500 0.9824071866723736 -0.16662523382625877
8410000 0.982267702481341 -0.16748870864164506
8457500 0.9821250665091779 -0.16850229192865307
8505000 0.9819439828857749 -0.1694796459715177
8552500 0.9816408700002299 -0.17027598166398786
8600000 0.9814186516662315 -0.1712099954438931
8647500 0.9811674847306959 -0.17209790250263238
8695000 0.9810630537863763 -0.17299029848785902
8742500 0.9808588547235142 -0.17401423660731447
8790000 0.9805979966455427 -0.17484711069980857
8837500 0.9804345854487792 -0.17574233230571182
8885000 0.9802339215259694 -0.17673745235894292
8932500 0.9801460971295143 -0.17759964713220838
8980000 0.9797956187256043 -0.17861964052918608
9027500 0.9795810551860952 -0.17950262292677407
9075000 0.9792905565608211 -0.1803382767338403
9122500 0.9790916265394813 -0.18122781863870488
9170000 0.978916179336691 -0.18217076012345176
9217500 0.9787355693440695 -0.18312651431570942
9265000 0.9784542261717489 -0.183978563348179
9312500 0.9782663294127177 -0.18493048246776075
9360000 0.9781211181345288 -0.18599590750796313
9407500 0.9778477060892475 -0.18691516145551604
9455000 0.9776856866402635 -0.1878074502250977
9502500 0.9772872205473042 -0.18867635513111936
9550000 0.9771188211642204 -0.18956645454454246
9597500 0.9770361392513536 -0.19040894241784545
9645000 0.9767117388543395 -0.19140738236623983
9692500 0.9765214376877165 -0.19225975580764149
9740000 0.9762862120194177 -0.19313086417916595
9787500 0.976130469443349 -0.19416150789492023
9835000 0.9757868707667926 -0.19513931998636097
9882500 0.9755197048483012 -0.196013172440355
9930000 0.9750971281414827 -0.19688820189267017
9977500 0.9749840621839732 -0.1977284532173718
10025000 0.9748453597686517 -0.19869832783203265
10072500 0.9746228172019156 -0.19959650044025673
10120000 0.9743397837693247 -0.20054617904206715
10167500 0.9741936370780212 -0.20130863419252853
10215000 0.9739555696685466 -0.20228519360819103
10262500 0.9737740936244517 -0.20340107895704884
10310000 0.9733459930469416 -0.2042022077399589
10357500 0.9730037190191284 -0.2050389693603454
10405000 0.9728428539263665 -0.20592185875108593
10452500 0.9727294711133353 -0.20691649415579053
10500000 0.9724038516381248 -0.2078047596038539
10547500 0.9721848635002902 -0.2087053905506532
10595000 0.9719899579079028 -0.20953970272926875
10642500 0.9717889334340223 -0.21052663263816832
10690000 0.9714688884584284 -0.2114775622139434
10737500 0.971247291052559 -0.21239349764154913
10785000 0.9708400543217549 -0.2131935980893577
10832500 0.9705778217153446 -0.2141191858779316
10880000 0.9704071966704865 -0.21498392846743727
10927500 0.9701455726815963 -0.21590113792921709
10975000 0.9699288997801415 -0.2167616679895234
11022500 0.9696393378505926 -0.21765923293878997
11070000 0.969448657520156 -0.21857944811078722
11117500 0.9691702721245521 -0.21960838429538296
11165000 0.9688055370073052 -0.22050581341659478
11212500 0.9684904568611911 -0.22135338017739659
11260000 0.9682321138555305 -0.2222763923177207
11307500 0.9680538730901953 -0.22303954308127633
11355000 0.9677545963251709 -0.22396386465007476
11402500 0.9675362968761184 -0.2250007525407433
11450000 0.9672277711238576 -0.22575703200795808
11497500 0.9671103753664642 -0.22672995713946956
11545000 0.9668065388424425 -0.22767310762407564
11592500 0.9664300339056193 -0.22854966836840787
11640000 0.9660702818231967 -0.22947385805941345
11687500 0.9658298753135848 -0.2302506768280795
11735000 0.965704181084908 -0.2311761483349456
11782500 0.9653943460077772 -0.23221343520161714
11830000 0.9650258147503605 -0.23309989037586323
11877500 0.9648034013720658 -0.23390562719975175
11925000 0.9645482633145364 -0.23475142113673136
11972500 0.9644086361117371 -0.23568237359962854
12020000 0.9639882247206164 -0.23667054414237226
12067500 0.9635720829162219 -0.23755723701151302
12115000 0.963396852847808 -0.2383408224406237
12162500 0.9631321343919022 -0.23925350092009184
12210000 0.9628792273636068 -0.24023694126096717
12257500 0.9625211492595309 -0.24108605975845232
12305000 0.9622118375791331 -0.24199053368482207
12352500 0.9619753551758932 -0.2428393416544792
12400000 0.9617271069767428 -0.2437893769576874
12447500 0.9614199354171619 -0.2447804501551894
12495000 0.9610154341982753 -0.2456599522769925
12542500 0.960751043775406 -0.24633944133861943
12590000 0.9605334336889406 -0.24723431824806535
12637500 0.9602360172947308 -0.24820989233039198
12685000 0.9600022209064327 -0.24908565478584843
12732500 0.9596336334527436 -0.24989993304152028
12780000 0.9593701121701309 -0.25089110672356046
12827500 0.9591165298069997 -0.25162741532856653
12875000 0.958878021634416 -0.2527051169049578
12922500 0.9584239149532272 -0.25357205477549627
12970000 0.9580250386913477 -0.25442114153099105
13017500 0.9577144867944611 -0.255248622176082
13065000 0.9575509141355751 -0.2560818816229982
13112500 0.9572688622245359 -0.25703764372458743
13160000 0.9569124414390661 -0.2579328090015575
13207500 0.9565517554349569 -0.2588314631170265
13255000 0.9563804506392104 -0.25963171021502895
13302500 0.956067107582038 -0.26060416390542
13350000 0.9556654365617878 -0.2616304956702626
13397500 0.9552670495508279 -0.26242935484936303
13445000 0.955005667590856 -0.263103772968787
13492500 0.9547499731550066 -0.2640625450151995
13540000 0.9545112390628325 -0.2650861102595332
13587500 0.9540544509713454 -0.2660176835732038
13635000 0.9537895007148642 -0.2667026984571695
13682500 0.9534898931220518 -0.2675850649246477
13730000 0.95321903363545 -0.2685559776339333
13777500 0.9528956645744419 -0.26949787566761574
13825000 0.9523954129137775 -0.27037141445834284
13872500 0.9520651778536006 -0.27112170221349524
13920000 0.9518590881031403 -0.27194602617479297
13967500 0.9516890204793371 -0.2728674242511054
14015000 0.9512486257809709 -0.2738215012628753
14062500 0.9508598707000488 -0.2746964705964767
14110000 0.9505183774553158 -0.2754886148820727
14157500 0.9504212708883166 -0.2764803327852709
14205000 0.9499638023568828 -0.27746838931900863
14252500 0.9494770616053613 -0.2782874362647937
14300000 0.949122752520094 -0.2791524021303466
14347500 0.9489226094677644 -0.2797995486269542
14395000 0.948717579584053 -0.28076838823740224
14442500 0.9483009353920625 -0.2817224595889284
14490000 0.9478906891334098 -0.28258098614294147
14537500 0.947611209107751 -0.2833770731673984
14585000 0.9473121993389144 -0.28421377701159944
14632500 0.9470890922553012 -0.2852442570270203
14680000 0.9465598361048987 -0.2862132898782043
14727500 0.9461419141219175 -0.2869660641732025
14775000 0.9459527886494877 -0.2877607508473073
14822500 0.945660085854009 -0.2885417516178772
14870000 0.9452210483009431 -0.28960038535792215
14917500 0.9448381323275415 -0.2905163629890611
14965000 0.9445155117905174 -0.2911972539567993
15012500 0.9442777157459212 -0.29199858732531997
15060000 0.944003152082282 -0.2930104845144617
15107500 0.9435355948397564 -0.29402001396120087
15155000 0.943060179599125 -0.2947547150818159
15202500 0.9427390110049866 -0.2954121070583215
15250000 0.9425251692430752 -0.2963588587550751
15297500 0.9421921302979555 -0.2973472470011106
15345000 0.9417553938635732 -0.29824705809148366
15392500 0.9413558311802437 -0.29892231811212044
15440000 0.9411853163056296 -0.29975639618134425
15487500 0.9408366429805931 -0.3007538514084274
15535000 0.9404606865724127 -0.30164786632907414
15582500 0.9399214147868982 -0.30255781565264267
15630000 0.9396578997806967 -0.3032343311542355
15677500 0.9392652033667187 -0.30402756307629064
15725000 0.939004475402009 -0.30505932302853267
15772500 0.9384696795358037 -0.30597834531129714
15820000 0.9381668475147217 -0.3066880651782221
15867500 0.9378433676146943 -0.30748576117454063
15915000 0.9376168579634349 -0.3084721918376454
15962500 0.9372155009211058 -0.3094576751427955
16010000 0.9366069668118581 -0.310340454862239
16057500 0.9362864923646247 -0.31103377940523014
16105000 0.9359766313082707 -0.3117632702248832
16152500 0.9358046916772219 -0.31276231758434625
16200000 0.9352984648879956 -0.31363190348141723
16247500 0.9348012459202057 -0.3144554765513297
16295000 0.9345452720839545 -0.3151933127525416
16342500 0.9343303747182315 -0.3160354406039876
16390000 0.9338940184772774 -0.31710348594786564
16437500 0.9333506493630459 -0.3179757768131152
16485000 0.9329117086132039 -0.3186027244426475
16532500 0.9326072824454799 -0.3193206505327273
16580000 0.9324041533096895 -0.3203081879768751
16627500 0.9318996880731119 -0.3215257411286626
16675000 0.9314220037785591 -0.3220966321339774
16722500 0.93111546714185 -0.32275253125790854
16770000 0.9309103375747565 -0.32379013597937456
16817500 0.9305428258367723 -0.3246663241324066
16865000 0.9298453059131798 -0.3257567596791107
16912500 0.9295446900792443 -0.32637636795486674
16960000 0.9290744946496639 -0.3270219305053524
17007500 0.9289692861380121 -0.3279219703384098
17055000 0.9284693399211801 -0.3289450336161765
17102500 0.9280170896490567 -0.32977367394370954
17150000 0.9276226398582381 -0.33037191187995957
17197500 0.9273353337878436 -0.3312980082087797
17245000 0.9270616684014802 -0.3323476025045582
17292500 0.926527218222613 -0.3332815002045387
17340000 0.9259542508454819 -0.33394660759630573
17387500 0.9255851742239141 -0.33466901651851105
17435000 0.9254516672573211 -0.33555285666766915
17482500 0.9250506613956664 -0.3364656530500294
17530000 0.9244029090807769 -0.3373771915602892
17577500 0.9242499587792049 -0.3381430876915231
17625000 0.9238115155868366 -0.3388313585742066
17672500 0.9235610628159626 -0.33981295751202045
17720000 0.9229994223778496 -0.34078065523253115
17767500 0.9223370251138129 -0.34148058882103244
17815000 0.9221397601869096 -0.3422037689936389
17862500 0.9218364823965521 -0.34306013020554627
17910000 0.9213182712493287 -0.34397553392935915
17957500 0.9209079780878345 -0.34472120243498283
18005000 0.9205414435435364 -0.3455321317833308
18052500 0.9201679551140651 -0.3463616015763313
18100000 0.9198617973207449 -0.34737138995305217
18147500 0.9192293935557926 -0.3482580651640346
18195000 0.9187801321445198 -0.34891840629810456
18242500 0.9184062070211779 -0.34969311779037965
18290000 0.9181584186436298 -0.3505232948406637
18337500 0.9176901410713962 -0.3514470611111407
18385000 0.9172377986756083 -0.35230116839380554
18432500 0.9167703292050178 -0.3529851705346685
18480000 0.9164840842363328 -0.3538877070201105
18527500 0.9161031823865474 -0.35483879480045527
18575000 0.915579550697244 -0.35568266456246084
18622500 0.9151629724224991 -0.35641934441594897
18670000 0.9145934428705321 -0.35720154636540724
18717500 0.9144149591255581 -0.35797636999949517
18765000 0.9139801753360208 -0.3588466123204085
18812500 0.9134729419315556 -0.35966705876911426
18860000 0.9130907870271385 -0.3603791650266704
18907500 0.9127331255991087 -0.361231903305692
18955000 0.9122425679529513 -0.3621286079657579
19002500 0.9118741170438809 -0.36302073832347465
19050000 0.9113277041236103 -0.3639459750635294
19097500 0.9108988251157144 -0.36459107997369833
19145000 0.910414883997158 -0.36527221744403526
19192500 0.9100458407853032 -0.3662055649653536
19240000 0.9096270969672885 -0.3669492245851553
19287500 0.9092620064061019 -0.36777687888046356
19335000 0.9089296539133922 -0.36869123690821903
19382500 0.9083950989761226 -0.36948522815990403
19430000 0.9079907296685638 -0.37040440697221777
19477500 0.9074651461847233 -0.37104553653832245
19525000 0.9070316499163981 -0.3718369474050175
19572500 0.9066711795884469 -0.3726774777444671
19620000 0.9061636348379926 -0.3735860290780816
19667500 0.905871847294566 -0.37434574855099073
19715000 0.9053134689719061 -0.37507978586954066
19762500 0.905017319157675 -0.37588835993529823
19810000 0.9044951058403718 -0.37680425193395406
19857500 0.9041357819459918 -0.3776949390877678
19905000 0.9035716884118703 -0.3785011906254037
19952500 0.9030874599692991 -0.3792059531234346
20000000 0.9026248895369464 -0.37999102616098535
