# HZ S RI R 50
1000000 0.9993941793914624 -0.014623729655788899
1190000 0.9997224915337162 -0.01725941115478393
1380000 0.9988757589052975 -0.02046933665467583
1570000 0.9990253660469808 -0.023143708143625447
1760000 0.9989410109574569 -0.02577890569197632
1950000 0.9988337268042767 -0.028597055349841447
2140000 0.9986585711908628 -0.031140361000076156
2330000 0.9985245037264342 -0.03396501231902075
2520000 0.9983289535325832 -0.03680152145276221
2710000 0.9982992270338629 -0.03972970740838894
2900000 0.9982313883135019 -0.04246842803025098
3090000 0.9981595871734531 -0.04516805888294885
3280000 0.9981056507053134 -0.047973890153967316
3470000 0.9980251113763201 -0.05051159368072282
3660000 0.9977650032355361 -0.053273473529520644
3850000 0.9974265558377099 -0.0560495628829898
4040000 0.9971719088184093 -0.05888942276716177
4230000 0.9971372572107143 -0.06178505144225136
4420000 0.9970519378437263 -0.06459992374421167
4610000 0.9970023969063146 -0.06731902885738549
4800000 0.9968355689381163 -0.06991383130987935
4990000 0.9965596951278051 -0.07242684485619781
5180000 0.9962240278778676 -0.07519166693954317
5370000 0.9958977543827953 -0.07804708822330554
5560000 0.9957166649142852 -0.08087219524054012
5750000 0.9954794059755838 -0.08377774468188051
5940000 0.995376077652026 -0.08656686856976167
6130000 0.9950421103630982 -0.08902633104180305
6320000 0.9947328502029755 -0.09179271530364955
6510000 0.9944472889068479 -0.09464139813303431
6700000 0.9942240187945733 -0.09756599998481541
6890000 0.9941255635962187 -0.10026431441696465
7080000 0.99389176458309 -0.10299886443762192
7270000 0.9936871943727219 -0.10567147774477147
7460000 0.9933194361998766 -0.10823727643764273
7650000 0.9927670826506804 -0.11084510352686523
7840000 0.9923635626190397 -0.11367346482130603
8030000 0.9919139777455799 -0.11656650644175286
8220000 0.9917964008207322 -0.11949501487908898
8410000 0.9916113376518273 -0.12231744709682038
8600000 0.9913179033764942 -0.12486900288526408
8790000 0.9910271967894414 -0.12739875096517034
8980000 0.9905364893003702 -0.13006892961230715
9170000 0.9899735293631725 -0.13274699621617694
9360000 0.9896185825692789 -0.13577285709090942
9550000 0.9892426122862514 -0.138566157339267
9740000 0.9890115071527651 -0.14132810044306232
9930000 0.9885650394153169 -0.1440170534941282
10120000 0.9883617632556349 -0.14664849788669557
10310000 0.9878320980892281 -0.1493155953820317
10500000 0.9873525360134101 -0.15194242015243045
10690000 0.9867508541024448 -0.15468005110488234
10880000 0.9862433200927303 -0.15748524681527065
11070000 0.9859336560334515 -0.1603401641457215
11260000 0.9855051900387415 -0.16318400704130834
11450000 0.9852834514775598 -0.1657650672393514
11640000 0.984819376276033 -0.1683700059507382
11830000 0.9842597431995108 -0.171046392109192
12020000 0.983669782666903 -0.17369837138046273
12210000 0.9830651205604131 -0.17634106258119017
12400000 0.9825018960677304 -0.1793039700444638
12590000 0.9820347400056514 -0.1821036490497621
12780000 0.9817937943855514 -0.18498954294284548
12970000 0.9812506516861695 -0.18756556685909137
13160000 0.9808780737194901 -0.19013583303431814
13350000 0.9802521219181474 -0.19263241107534723
13540000 0.9796309608600681 -0.19532299534217662
13730000 0.9788499111139586 -0.1980886137222161
13920000 0.9782697448890569 -0.20097443217944602
14110000 0.9777465163641165 -0.20381960292679202
14300000 0.9772805685543747 -0.20663480051183677
14490000 0.9769467711663983 -0.20916137685669398
14680000 0.976382973132111 -0.21177051348988596
14870000 0.9758240062989657 -0.2142442089493163
15060000 0.9749685413982194 -0.21688540776741705
15250000 0.9742774886548544 -0.21956937099800994
15440000 0.9736133455217696 -0.22246132883309594
15630000 0.9730410381638344 -0.2253119955643183
15820000 0.9725771035362943 -0.22812610163019345
16010000 0.9719926401848984 -0.23071792437450866
16200000 0.9714821783436344 -0.2331616690155972
16390000 0.9706865130055945 -0.23572143552532213
16580000 0.9698671723482538 -0.23832699086041653
16770000 0.9690634899913307 -0.24124086535622902
16960000 0.9682630902986393 -0.24394951744761206
17150000 0.9676772484930595 -0.24677782738868823
17340000 0.9671342441246489 -0.24951002322095375
17530000 0.9666294897247675 -0.25212607049607844
17720000 0.966010301625747 -0.25467280874482595
17910000 0.9652140550582452 -0.2570908467825069
18100000 0.9643288912813638 -0.25972827964982675
18290000 0.9634685017356676 -0.2624738319409421
18480000 0.9626329182177963 -0.2653682594045899
18670000 0.9620655817198627 -0.268109497388565
18860000 0.9615106071970182 -0.27074024608229963
19050000 0.9608415321869667 -0.27334673927931824
19240000 0.9601055187792901 -0.2757212603817512
19430000 0.9592644473829026 -0.27825490082844145
19620000 0.9582205212395817 -0.28095485940440684
19810000 0.9573495950577314 -0.28367813248327145
20000000 0.9564715221516055 -0.28636209814559405
