# HZ S RI R 50
1000000 0.999202202709498 -0.020124782506042452
1190000 0.9991396364641135 -0.023559264516445872
1380000 0.9984428783147968 -0.027897703212687596
1570000 0.9984501251259591 -0.03159207062965966
1760000 0.9983556595059492 -0.035437905868319346
1950000 0.9981491180156206 -0.03912291392300766
2140000 0.997956121176375 -0.04296489750793525
2330000 0.9976515070408074 -0.04655944305127149
2520000 0.9972465334759761 -0.05042361510561532
2710000 0.997066671620099 -0.054350070279871515
2900000 0.9968242469504252 -0.0581246428841454
3090000 0.9966262278499661 -0.061895790077878134
3280000 0.9961164648094707 -0.06543341526920861
3470000 0.9958248532555164 -0.06935333228230166
3660000 0.9954079341043279 -0.07315425206148429
3850000 0.9951699309823878 -0.0770478499334539
4040000 0.9947900266295928 -0.08078752597010709
4230000 0.9946294784193062 -0.08448927448488375
4420000 0.9941266710315062 -0.08811800283297934
4610000 0.9936160645055712 -0.09176820036116956
4800000 0.9930170816799481 -0.09538310883454264
4990000 0.9924023088632341 -0.09914038318759522
5180000 0.9918534258391067 -0.10316690705249705
5370000 0.9914130978955343 -0.10703240522503224
5560000 0.9910981674420146 -0.11072590279227743
5750000 0.9905943808428391 -0.11436493386310674
5940000 0.9901290904137322 -0.11799394620931061
6130000 0.9894006177804803 -0.12158241982705523
6320000 0.9886704643930141 -0.12531586963047162
6510000 0.9878223327592381 -0.1290992447834447
6700000 0.9872033910525648 -0.1329917385401791
6890000 0.9867700909534954 -0.13680050547765799
7080000 0.9860952261276396 -0.1404685184666159
7270000 0.9856357899760413 -0.1441662764320951
7460000 0.98478132936027 -0.14762813018446885
7650000 0.9839788132361622 -0.15113417087202166
7840000 0.9830740525736569 -0.15489100192444574
8030000 0.9821761013488434 -0.15867466874655575
8220000 0.9815229133539208 -0.16260367178954072
8410000 0.9808431936659698 -0.16628652474154096
8600000 0.9801104740526037 -0.1698906520160016
8790000 0.9792437126148622 -0.17333364648435923
8980000 0.9783845393046986 -0.1769271443197472
9170000 0.9773309115545019 -0.18045157654047725
9360000 0.9763960552995334 -0.1842823164746632
9550000 0.9754046699970191 -0.18805907302901442
9740000 0.9746033414428957 -0.19176470048008584
9930000 0.9736805969473176 -0.19543228717849093
10120000 0.9729382820307524 -0.19899371860738987
10310000 0.9720469502836143 -0.202528117763133
10500000 0.970908623455587 -0.20585985838300433
10690000 0.9697031896688864 -0.2095411898686575
10880000 0.9684832885860013 -0.21311478490315683
11070000 0.9675380570813221 -0.21686407633645216
11260000 0.9664959053773596 -0.22071616345957257
11450000 0.9656769186958747 -0.2241337846165528
11640000 0.9647458270797025 -0.22763894827715397
11830000 0.9635112645559102 -0.2310210305173031
12020000 0.9623492824113744 -0.23448268180322332
12210000 0.9609675918608137 -0.23796301912585557
12400000 0.9597989092733937 -0.2416239781254743
12590000 0.9586149992681116 -0.24538639845505308
12780000 0.9575790237157463 -0.24903537475597884
12970000 0.95650267527471 -0.2525240247767239
13160000 0.955364327998014 -0.2557483952569535
13350000 0.9539989660028402 -0.2592333206814931
13540000 0.9526348380286042 -0.2626156394158771
13730000 0.9511862797939039 -0.2661302448834604
13920000 0.9499147698523626 -0.2698401269552406
14110000 0.9486790461986102 -0.27336297220767436
14300000 0.9475292645752613 -0.2770238141185578
14490000 0.94625717209723 -0.2801491064483633
14680000 0.9449543521165067 -0.2835665217482297
14870000 0.9434483022946121 -0.28688856369814303
15060000 0.9419531175833081 -0.29030433601656547
15250000 0.9404724209080348 -0.29382049240344094
15440000 0.9391396017842325 -0.2972983800242216
15630000 0.9378155063898178 -0.300845647318364
15820000 0.9364193234835524 -0.30412027713046896
16010000 0.9349061605085858 -0.30747986635067215
16200000 0.9334900311938619 -0.31063974230153946
16390000 0.9318259015590266 -0.313933809214623
16580000 0.9301736029418092 -0.31733130326021897
16770000 0.9287575527293048 -0.32091991391769636
16960000 0.927183321961622 -0.32429931512282256
17150000 0.9258359699820586 -0.3275815464211147
17340000 0.9243094302428914 -0.330967944589112
17530000 0.9227223386175673 -0.33403024981696017
17720000 0.9210949039967216 -0.3373484758824796
17910000 0.919313709680992 -0.34058734961829146
18100000 0.9177582490534288 -0.3439676665018417
18290000 0.9160030539713654 -0.34729425375323286
18480000 0.9144216165962761 -0.35055507593122454
18670000 0.9129119672944485 -0.3538992403425435
18860000 0.9113959253847577 -0.3569653897177783
19050000 0.909546358753302 -0.36018458079863624
19240000 0.9077513252448093 -0.3632037280899844
19430000 0.905954277662495 -0.36644147146380984
19620000 0.9040730860837415 -0.3698116504536787
19810000 0.9023978804344113 -0.3730406534752553
20000000 0.9006964597375318 -0.37622707335113237
