# HZ S RI R 50
1000000 0.6646842491225893 -0.010235264182417077
1047500 0.6642755311303385 -0.010588523046987909
1095000 0.6645285007441997 -0.011068134479199009
1142500 0.6645852841207918 -0.011388354338847589
1190000 0.6645655127050659 -0.011981510666514244
1237500 0.6645451153220344 -0.012480156297496077
1285000 0.6645355402043528 -0.01280871619102871
1332500 0.664556933175687 -0.01318601550188535
1380000 0.6646612497338003 -0.013596571442513784
1427500 0.6645445751627149 -0.014151778081022743
1475000 0.6645397493619329 -0.014599469319288308
1522500 0.6644084303443493 -0.014992461046062595
1570000 0.6644494075369414 -0.015339842519775113
1617500 0.6645248297003776 -0.015866793442851978
1665000 0.664444339790683 -0.01628580668147236
1712500 0.6644557767555281 -0.016689313354753117
1760000 0.6643495570032669 -0.017098335903358013
1807500 0.6644625484225037 -0.01747241190991304
1855000 0.6644586140576375 -0.01804843452735423
1902500 0.664343351961084 -0.01853005260190861
1950000 0.6642557562691699 -0.018824145401557222
1997500 0.6643452250101424 -0.019223703921601786
2045000 0.6643498308701784 -0.01965194901639973
2092500 0.6643910962112104 -0.020118457198505635
2140000 0.6643014554231153 -0.020602761896246855
2187500 0.6642606677796812 -0.020948700939742684
2235000 0.6641957314513782 -0.021299928827080195
2282500 0.6643279667789351 -0.021783478235092153
2330000 0.6642509938246156 -0.0222786267763581
2377500 0.6642272459321353 -0.02267145146653425
2425000 0.6642005360964985 -0.02308072376746385
2472500 0.6642770885756403 -0.02347150868506018
2520000 0.6642295568768861 -0.02402846817480428
2567500 0.6641685555083985 -0.02440629154817934
2615000 0.6640694526715231 -0.024861386657708248
2662500 0.6641737289097174 -0.02523635070970544
2710000 0.6641558807879262 -0.025753687627817424
2757500 0.6641574626254556 -0.02615850770243156
2805000 0.6640809975208504 -0.026527380584964434
2852500 0.6640600727126837 -0.026924433979262034
2900000 0.6640730193820981 -0.027364564169190995
2947500 0.6640976705046624 -0.02783633492650362
2995000 0.6639905818001377 -0.02828675738268225
3042500 0.6639264024585116 -0.02866816640874244
3090000 0.6639384684692391 -0.029016211016625954
3137500 0.664024596438019 -0.029486565489410716
3185000 0.6639276995067985 -0.03000800792958332
3232500 0.6638975092707616 -0.030485872747957946
3280000 0.663933215432611 -0.030848629292156256
3327500 0.6638614388466592 -0.031290351264039395
3375000 0.6638858653642492 -0.03169319829486882
3422500 0.6638414551696815 -0.032066640685267815
3470000 0.6637825372949264 -0.03253880756009378
3517500 0.6637525440123803 -0.03293422407191139
3565000 0.6637917327974179 -0.03338126222615433
3612500 0.6637714918197015 -0.03385940694163652
3660000 0.6637072448024078 -0.0342819183646408
3707500 0.6636860731674904 -0.03463803748291402
3755000 0.6636859051240679 -0.035068530323995144
3802500 0.6637196817020161 -0.03555708092840288
3850000 0.6636345444672436 -0.035950901649661506
3897500 0.663588688143118 -0.03639608545862954
3945000 0.6635539235246005 -0.03680620781655351
3992500 0.6635822802921225 -0.037261294233316575
4040000 0.6634560753264417 -0.037686756969658695
4087500 0.6634958690269636 -0.03810177711515235
4135000 0.663495350203612 -0.03850142829379691
4182500 0.6635352748360936 -0.038893989919705246
4230000 0.6634510115355436 -0.03936932154053854
4277500 0.6634270302193663 -0.03979214876505129
4325000 0.6634154680726408 -0.04025370337310085
4372500 0.6633827770585803 -0.040664057401780265
4420000 0.6632964951520144 -0.0411154908946131
4467500 0.6633364335812 -0.04147328213194222
4515000 0.6632438454867177 -0.041899113373078355
4562500 0.6631860926448208 -0.04235194837373212
4610000 0.6631910807805922 -0.04280476150687691
4657500 0.6631729651879749 -0.0432141843821379
4705000 0.6631506422028548 -0.04359473035742953
4752500 0.6630619440071411 -0.04403000816163664
4800000 0.6631104431380964 -0.044517465367387425
4847500 0.663066667526263 -0.044927222444666355
4895000 0.6629311697015453 -0.045359185944093605
4942500 0.6630391696320947 -0.04577298937388928
4990000 0.6629620298663718 -0.04621772954101502
5037500 0.6629628783880791 -0.046605084349341616
5085000 0.6629284320429419 -0.04706559406442445
5132500 0.6628466041153437 -0.047489826591801454
5180000 0.6628150691923229 -0.04792165852186989
5227500 0.662830249598691 -0.048306099156340564
5275000 0.6627980571197718 -0.048764830434413056
5322500 0.6627291083407268 -0.04923867701533604
5370000 0.6627209533750495 -0.049577478853542564
5417500 0.6626900380975468 -0.050091205927784516
5465000 0.6626557426710558 -0.05047474490188677
5512500 0.6625465743301138 -0.050930204776284474
5560000 0.6625933429678756 -0.051304151522270795
5607500 0.6625196845467635 -0.05176836670680826
5655000 0.6624825119349128 -0.05211876173747311
5702500 0.6624588499821171 -0.05255185864388497
5750000 0.6624369066817309 -0.05307201153420344
5797500 0.6624236320825785 -0.053523082108170895
5845000 0.6623965966127406 -0.053943100620017385
5892500 0.6622881678107756 -0.05430715896406157
5940000 0.6622365243800588 -0.05471796555727411
5987500 0.662258160832129 -0.05519603730751696
6035000 0.6621918820828531 -0.05569663231378768
6082500 0.6621338313919765 -0.055980293118500404
6130000 0.6621609102029413 -0.05643475096484007
6177500 0.6620930636321206 -0.05688125765867414
6225000 0.662083313830193 -0.0573878280394881
6272500 0.6620271943451885 -0.057810355607223134
6320000 0.6619316932531951 -0.058181173287432886
6367500 0.6619378184566963 -0.05853363304352347
6415000 0.6618907858090347 -0.0590418052977567
6462500 0.6618571930663716 -0.05953966646269521
6510000 0.6617614955839004 -0.059820198504261256
6557500 0.6617642843224921 -0.06025953965682351
6605000 0.6617946089693896 -0.06076127908630463
6652500 0.6617318820475349 -0.06122089947780972
6700000 0.6616158006431673 -0.06169640419801441
6747500 0.661506186753067 -0.06199710933347735
6795000 0.6615876404567556 -0.062349147733760456
6842500 0.6615914447807715 -0.06292856638983206
6890000 0.6614870469537883 -0.06336509632301035
6937500 0.6613975228695622 -0.06371496396604408
6985000 0.6613449030684475 -0.06412236674511856
7032500 0.6614047542510071 -0.06452436295329618
7080000 0.6613651474302616 -0.06505715949104648
7127500 0.6612390132644713 -0.06550202499535815
7175000 0.6611382443405235 -0.06586341119155492
7222500 0.6612118613570195 -0.06620121119402869
7270000 0.6611015251920113 -0.06672707123399366
7317500 0.6610678598606842 -0.06719361675794273
7365000 0.6610139551748766 -0.06753531002303445
7412500 0.6609470914582201 -0.06790283142715016
7460000 0.6610003590858173 -0.06833405492533426
7507500 0.6609673941003672 -0.0688186788681516
7555000 0.6607953616934417 -0.06935774081230099
7602500 0.6606886640490559 -0.06969563190056707
7650000 0.6606789221666258 -0.07002123036704354
7697500 0.6607960302486964 -0.07048922513098499
7745000 0.66062664224782 -0.07104848659903619
7792500 0.6605833318363515 -0.07147244404223939
7840000 0.660564411688366 -0.0717818450415457
7887500 0.660596392908505 -0.07220610972975698
7935000 0.6605213428718457 -0.07269793259743818
7982500 0.6603916368557613 -0.07319405096953961
8030000 0.6602844487535829 -0.07356246880060914
8077500 0.6602043499135428 -0.07385667220215361
8125000 0.6603971713036032 -0.0742943246049556
8172500 0.6601735749419573 -0.07486893139364638
8220000 0.6601211498625699 -0.07522608016806669
8267500 0.6600138481041135 -0.07558149471136955
8315000 0.6600750440749008 -0.07590166344207953
8362500 0.6600639288373569 -0.07653631611311132
8410000 0.6599933283576925 -0.07698516378013735
8457500 0.6598527750606371 -0.07740076342655382
8505000 0.659806716471255 -0.07777050431678535
8552500 0.6597783723589422 -0.07816918263887694
8600000 0.6596962284793481 -0.0786186106651111
8647500 0.6596436720138705 -0.07909749459312607
8695000 0.6595620476686824 -0.07939889758231973
8742500 0.6595575664825515 -0.07979778433023425
8790000 0.6595674304446926 -0.08029982080662776
8837500 0.6595249249666189 -0.08082007680136566
8885000 0.6593875087863342 -0.0812325046173658
8932500 0.6593334128846315 -0.08158177704552654
8980000 0.6592842672256488 -0.08202826032349411
9027500 0.6592516536105574 -0.08248014071848067
9075000 0.6591413154333392 -0.08295815871101773
9122500 0.6590267001996799 -0.08328029389887703
9170000 0.6590467432884554 -0.0836149923762409
9217500 0.6590832482326362 -0.08411050673664426
9265000 0.6590323300134704 -0.0846018567180197
9312500 0.6588500146059268 -0.08509976185389256
9360000 0.6587427860990894 -0.08543960287798019
9407500 0.6587471987143755 -0.08577681937177131
9455000 0.65873820571992 -0.08632921619375448
9502500 0.6586162811591004 -0.08677688421984615
9550000 0.6584952765567018 -0.08713519948501254
9597500 0.6585056406117217 -0.0874660121687351
9645000 0.6585469534441011 -0.08788168797563582
9692500 0.6585270189952117 -0.08843059029293891
9740000 0.6583840943626816 -0.0888686767116942
9787500 0.65831041109768 -0.08934767936126302
9835000 0.6581991893336873 -0.08958301930140787
9882500 0.6581953760836492 -0.09003196913245494
9930000 0.658078396059577 -0.09057556353509086
9977500 0.6580406116691911 -0.09095043372971137
10025000 0.6579074040216699 -0.09128365656247998
10072500 0.6580184420742102 -0.09169132076900728
10120000 0.6579354203992398 -0.0922066029395443
10167500 0.6578663947486898 -0.09274296291674916
10215000 0.657733892623539 -0.09313347769252256
10262500 0.6576800595317667 -0.09349399542398484
10310000 0.6576367256117207 -0.09391654438409296
10357500 0.6575080166321027 -0.09439193656505071
10405000 0.657403548821626 -0.09480443389950467
10452500 0.6573187675925026 -0.09513810718076642
10500000 0.657342048741131 -0.09556592499081401
10547500 0.6573850025864398 -0.09601589774858128
10595000 0.6572940150351586 -0.09653584125049813
10642500 0.657125141367891 -0.09693279036328148
10690000 0.6570097192454188 -0.09735043070482906
10737500 0.6570456353682063 -0.0976967215815316
10785000 0.6569103325185845 -0.09818544462540961
10832500 0.6568258809863567 -0.09869926516963891
10880000 0.6567621652791551 -0.09893437452068354
10927500 0.6567846095894134 -0.09930966211865988
10975000 0.6567513184717294 -0.09976802799420435
11022500 0.6566834540238314 -0.1002885863975878
11070000 0.656538562148237 -0.10076070898965009
11117500 0.6564391287585669 -0.10116803900109209
11165000 0.6564046920692357 -0.10144684937810022
11212500 0.6563234044816137 -0.10206760055392368
11260000 0.6562062865960666 -0.10245517670320504
11307500 0.6560757430016668 -0.10273835178469917
11355000 0.6561225132426474 -0.10303869731024909
11402500 0.6561798022821799 -0.1036016359553537
11450000 0.6560478809844807 -0.10413528385684805
11497500 0.6558894573222226 -0.10458069420180956
11545000 0.6557767858193118 -0.10490643557464614
11592500 0.6557471666647802 -0.10531496754032657
11640000 0.6557161037114366 -0.10576214227900646
11687500 0.6555570893356546 -0.1062548624761951
11735000 0.6555280679051941 -0.10660392604221991
11782500 0.6554322749379046 -0.10691441002546535
11830000 0.6554811011044847 -0.10736938775456481
11877500 0.6554404422289798 -0.10787532255259938
11925000 0.6552107388112546 -0.10835851319497826
11972500 0.6551156633295271 -0.10873347968979571
12020000 0.6550575463788217 -0.10910393222727621
12067500 0.6550515116231753 -0.1095589382100785
12115000 0.654985976276267 -0.10997884542509695
12162500 0.6547659167325657 -0.11042568474148654
12210000 0.654705833740607 -0.11073189383107464
12257500 0.6547628076189768 -0.1110899841845223
12305000 0.6547083482761406 -0.11167899341876639
12352500 0.6545838625524478 -0.1121351474082398
12400000 0.654444913075538 -0.11253998046341714
12447500 0.6543589202429374 -0.11291132576453315
12495000 0.654321702333958 -0.11340837857217315
12542500 0.6543254797210084 -0.11382060549864434
12590000 0.6541093184055685 -0.11430044069250796
12637500 0.6540390457711063 -0.11459046789281145
12685000 0.6540892995784311 -0.11492833196991133
12732500 0.6540933048388685 -0.11539829940570577
12780000 0.6539475690477107 -0.11605215578895596
12827500 0.6537269588774034 -0.11639332032973801
12875000 0.6536878493123559 -0.11666608900895425
12922500 0.6537070047765221 -0.11708090322926593
12970000 0.653614765386591 -0.11757219372700259
13017500 0.6534097197650143 -0.11801248134562634
13065000 0.6533136579164381 -0.11837497152724867
13112500 0.6533658813483202 -0.11870970124190135
13160000 0.6533215670218885 -0.11917107371547027
13207500 0.653185758806146 -0.11981205486325934
13255000 0.6530381414491362 -0.12014684882221745
13302500 0.6529369998517529 -0.12043658393127751
13350000 0.6528467167573649 -0.12087175127410231
13397500 0.6528750055686877 -0.12137151080944404
13445000 0.6527423526104187 -0.12178385253270635
13492500 0.6525301130468194 -0.12209145340332288
13540000 0.6525377755487306 -0.12247491398887525
13587500 0.6525371566085496 -0.12296174801603302
13635000 0.6525302933636163 -0.12353439465332032
13682500 0.6522701314999354 -0.12400919648044184
13730000 0.652119854488271 -0.12422568596488459
13777500 0.6521505521478062 -0.12465345924854472
13825000 0.6520968652864422 -0.12510511173184494
13872500 0.6519104003071794 -0.12565787732498848
13920000 0.6517845377624569 -0.12599723733700932
13967500 0.6517864225396417 -0.1262600747133398
14015000 0.6517548843463256 -0.1266692816074555
14062500 0.6517183408901867 -0.1272977490760341
14110000 0.6515261369780873 -0.12773060933332436
14157500 0.6514022895019729 -0.12813506611569497
14205000 0.6513502360054635 -0.12844269203662298
14252500 0.6512770892125901 -0.12892781836626513
14300000 0.6511975996333953 -0.12938419525609735
14347500 0.6510335905666929 -0.12975958756636463
14395000 0.6508775158185127 -0.13002881725006
14442500 0.6509781873026335 -0.13049375460662724
14490000 0.6509459690743885 -0.13098694677268063
14537500 0.6507692693032419 -0.13160394027499359
14585000 0.6505910695548481 -0.13191573959188993
14632500 0.650522738743347 -0.13222051207730823
14680000 0.6504740683867868 -0.13264989677376612
14727500 0.650375019294515 -0.13314683090348545
14775000 0.6502244693119501 -0.13361178237309218
14822500 0.6501009988286612 -0.13390371880872004
14870000 0.6501003841383788 -0.13424315900723746
14917500 0.6500903361370326 -0.13476465882846936
14965000 0.649996962125697 -0.13526993708518043
15012500 0.6497841052245631 -0.1356223385989762
15060000 0.6496866714146255 -0.13597169225859246
15107500 0.6496265282720532 -0.13641137977932413
15155000 0.6495866508747882 -0.1368938335577841
15202500 0.6493799689861651 -0.13727474146741644
15250000 0.6492762735143036 -0.137611674019248
15297500 0.6492540912589376 -0.13796082547701324
15345000 0.6492428526311389 -0.13848032816551076
15392500 0.6491464925868619 -0.13895834115466882
15440000 0.6490169053553067 -0.13947900737247496
15487500 0.6488529205744371 -0.13977265087845536
15535000 0.6488414864855443 -0.14011996530885124
15582500 0.6487279318667767 -0.14063919251334087
15630000 0.6485641055257664 -0.1410438449286293
15677500 0.6483494786619957 -0.1413600281074574
15725000 0.648426160285068 -0.1417297440418684
15772500 0.6484214211941487 -0.14227419737730193
15820000 0.6483120162421472 -0.1428460658824898
15867500 0.6480334817498937 -0.14320836172320042
15915000 0.6479425489240017 -0.14350460926506872
15962500 0.6479766458792955 -0.14384623987728046
16010000 0.6478473913299305 -0.14440985340754756
16057500 0.6476817744953564 -0.14489545168791174
16105000 0.6474886509622165 -0.14516884590093931
16152500 0.6474761700745424 -0.14547266823237068
16200000 0.6475008330786012 -0.1459212734943143
16247500 0.6474130338571025 -0.146508431847096
16295000 0.6472012974728454 -0.14694315584083242
16342500 0.647029439607587 -0.1472185764838519
16390000 0.6469496104462298 -0.1475629192039505
16437500 0.6469368481096021 -0.14806092788142514
16485000 0.6468140361100111 -0.14861131113411355
16532500 0.6465556974391836 -0.14888599554781531
16580000 0.6465745412642286 -0.1491747355478939
16627500 0.6465765687545638 -0.14975091392858186
16675000 0.6465029727644721 -0.15023515474421545
16722500 0.646307508656505 -0.1507621506235625
16770000 0.6461126810136423 -0.1510701138927318
16817500 0.6460819789031579 -0.1513565840252726
16865000 0.645991486384897 -0.15186391483988182
16912500 0.6459015538689729 -0.1523579875248489
16960000 0.645672114660724 -0.15271104679736736
17007500 0.6455697029302169 -0.15297656144682728
17055000 0.6455725087050093 -0.15341811146890413
17102500 0.6455663428238393 -0.15393173675680913
17150000 0.6453340135423407 -0.15445423046207013
17197500 0.6451023071017704 -0.15482882796376674
17245000 0.6451265243358671 -0.15514428342306713
17292500 0.6451142435194472 -0.15559191651718354
17340000 0.6448780712843776 -0.15610205013085784
17387500 0.6447206845755048 -0.156509546256036
17435000 0.6445833716638504 -0.15673677428113508
17482500 0.6446165092410893 -0.1571757599356185
17530000 0.6445986092868423 -0.15769536500786907
17577500 0.6444504875450981 -0.1581515700362839
17625000 0.6442051351969927 -0.15860463032925878
17672500 0.6441236748012326 -0.15888448448447084
17720000 0.6441166348438025 -0.15929618369292478
17767500 0.6438942189692107 -0.15978837967407394
17815000 0.6437495341901557 -0.16020433024008476
17862500 0.6435948322831286 -0.16045067224411322
17910000 0.6436517759492852 -0.16083505158367284
17957500 0.6436462349692441 -0.16135461058959685
18005000 0.6434160161735671 -0.1619192877570471
18052500 0.6432314133235744 -0.16224207068086238
18100000 0.6431585859421441 -0.16253606244422228
18147500 0.6430557968617963 -0.16302727477143475
18195000 0.6429496874537982 -0.16351536948560683
18242500 0.6427769060099788 -0.16396151798443082
18290000 0.642604276111543 -0.1642081010463751
18337500 0.6426620753079447 -0.16453264752356297
18385000 0.6426977347937023 -0.165064773789139
18432500 0.6424383771207663 -0.16564992008965376
18480000 0.6421682276162425 -0.16605757867943152
18527500 0.6420196343209319 -0.16630288700623633
18575000 0.6421021628015415 -0.16672446752539938
18622500 0.6420617358909215 -0.16726917699182087
18670000 0.641759573189957 -0.1676604894501553
18717500 0.6415897750757126 -0.16798419900007383
18765000 0.6416097001094682 -0.16822219097056754
18812500 0.6415715223911946 -0.1687385667438027
18860000 0.641500889810408 -0.16933813747961418
18907500 0.6412126023000747 -0.16976237593002505
18955000 0.6410668952665386 -0.1699174483844987
19002500 0.6410209583955766 -0.17036098818638326
19050000 0.6409093379791398 -0.17089620832970584
19097500 0.6407322866289301 -0.1713509698424095
19145000 0.6404727156158478 -0.17164753250694118
19192500 0.6404531725266583 -0.1719102974585676
19240000 0.6405794154005203 -0.17243187235020158
19287500 0.6404157074089722 -0.17295613304037025
19335000 0.6401630422123005 -0.17343755226538038
19382500 0.6400137078876714 -0.17368686025235835
19430000 0.6399420655478001 -0.17400883471435327
19477500 0.6399086375119002 -0.17451098212971866
19525000 0.6396640317657748 -0.17502732361961665
19572500 0.6394692109267214 -0.17537770831922017
19620000 0.6394115633603262 -0.17570601438067196
19667500 0.6394255505527492 -0.1760969115758944
19715000 0.6393222573752676 -0.17666771377200813
19762500 0.6391023332212608 -0.17712272929770828
19810000 0.6388877178947592 -0.17739733548078535
19857500 0.638830816188307 -0.1777343748172953
19905000 0.6388663386448772 -0.17820731669372483
19952500 0.6386307787850319 -0.17876256595562193
20000000 0.6384226233083561 -0.17906176214152714
