# HZ S RI R 50
1000000 0.9551871371124226 -0.2937491412560248
1047500 0.9510168581064187 -0.30752680107200625
1095000 0.9463904001490856 -0.3212058050958607
1142500 0.9415091183113268 -0.33487280190690427
1190000 0.9365681467404708 -0.34844143629757907
1237500 0.9313096621097896 -0.36196057716181035
1285000 0.9260937256027257 -0.3755946153136053
1332500 0.9204075887251593 -0.3891482551580606
1380000 0.9144267677590092 -0.4026053645873315
1427500 0.9084238088196515 -0.41583919009329917
1475000 0.9022914664181095 -0.42923428149708726
1522500 0.8959105640541745 -0.44273953598198584
1570000 0.889076314550151 -0.45601107078544617
1617500 0.8819370309637627 -0.46917179082076194
1665000 0.874834878883265 -0.4820602032174669
1712500 0.8676611763373843 -0.49519386173171226
1760000 0.8599983150296749 -0.5083934154779894
1807500 0.8521652815590781 -0.5214158380054694
1855000 0.8439382543551022 -0.53406984873523
1902500 0.835723054187582 -0.5467444204920763
1950000 0.827441148773669 -0.5595248988026952
1997500 0.8187140359109167 -0.5724087328392403
2045000 0.8094519663248233 -0.585013313904013
2092500 0.8002887904357927 -0.5972190515624487
2140000 0.7909960005190494 -0.6094705996291321
2187500 0.7814553431243707 -0.622042591086634
2235000 0.7711642885246193 -0.6341450998448712
2282500 0.7610367563387874 -0.6459968952931355
2330000 0.7508583809082556 -0.65792171923806
2377500 0.7404778794682461 -0.6698671259126248
2425000 0.7296215742772746 -0.6818106096934501
2472500 0.7182600867607029 -0.6935056726431589
2520000 0.7069358786306725 -0.7047561460492616
2567500 0.6954495917744845 -0.716183227188206
2615000 0.6837227773005231 -0.727476774691813
2662500 0.6715306770147297 -0.7386489145728441
2710000 0.6590869582696314 -0.7494789390563126
2757500 0.6465576641452748 -0.7601806794620044
2805000 0.6340989909045224 -0.7709122235483405
2852500 0.621009168491667 -0.7815900037607868
2900000 0.6075969048858169 -0.791945306863071
2947500 0.5940200983276721 -0.8018276737958223
2995000 0.5804523524097993 -0.8117320645044321
3042500 0.5663343401382166 -0.8217010551006073
3090000 0.5521183739719684 -0.831352997935181
3137500 0.5373569356171768 -0.8407057221585726
3185000 0.5225862066750789 -0.8496380663217802
3232500 0.5079221434918276 -0.8586864590604775
3280000 0.49268048880405924 -0.8676551256353011
3327500 0.47713727880582213 -0.8761467938096446
3375000 0.46137140638882845 -0.8844342219353392
3422500 0.44550497649691057 -0.8923220026088062
3470000 0.42944412432008 -0.9000742227350268
3517500 0.41316307496694843 -0.90789822410234
3565000 0.39634674349664445 -0.915294377653575
3612500 0.3793234330145168 -0.922037881041512
3660000 0.3626245495659809 -0.9286971740494495
3707500 0.3454071666123807 -0.9352891957304041
3755000 0.32779781844781664 -0.9416162917708916
3802500 0.31002371615458585 -0.947261508513847
3850000 0.2922202200950863 -0.9528318242841946
3897500 0.2742971609118175 -0.95807858444971
3945000 0.25609445447614404 -0.9632234433794098
3992500 0.2372292635814373 -0.9679929684718914
4040000 0.21853882290484908 -0.9718892955840014
4087500 0.20007804910641844 -0.9756845651477453
4135000 0.18122453065913635 -0.979427861073153
4182500 0.16184554979362617 -0.9828678872940468
4230000 0.1423902465294994 -0.9856309752957844
4277500 0.1229521944793154 -0.9878829211081741
4325000 0.10355637650354582 -0.9900623792786218
4372500 0.0839346379315112 -0.9923084132438881
4420000 0.06370685559236922 -0.9934711318098577
4467500 0.04370056181085245 -0.9943617063129804
4515000 0.023759133134404253 -0.9945453408803248
4562500 0.0036834961419578926 -0.9948907389549093
4610000 -0.016674684583148323 -0.9950427752726801
4657500 -0.03724314110314653 -0.994215714183486
4705000 -0.05763966591798654 -0.9928390970120659
4752500 -0.07814160700710031 -0.9912199404610258
4800000 -0.09857784868911144 -0.9896095230774298
4847500 -0.11930836699301837 -0.986990361342038
4895000 -0.1401314253998722 -0.9841936373317585
4942500 -0.1605111693640556 -0.9807149006399905
4990000 -0.18105809065146333 -0.9770715023407459
5037500 -0.20186904288423183 -0.973132398900896
5085000 -0.22261196368702085 -0.9684434604691289
5132500 -0.24332634414339882 -0.963028207461285
5180000 -0.2637119870989541 -0.9574425477850351
5227500 -0.28430609251513084 -0.9514757933093843
5275000 -0.304870633422813 -0.945194574969903
5322500 -0.32537361776398166 -0.9380441763960049
5370000 -0.3455362991502074 -0.9305266632880561
5417500 -0.3654215599089505 -0.9224939240561124
5465000 -0.38554214055234654 -0.9143763718797205
5512500 -0.40558241184113886 -0.905636496716834
5560000 -0.4254865789207111 -0.896173015184701
5607500 -0.44493841189424704 -0.8863064723226748
5655000 -0.46427297518840643 -0.8763689592641517
5702500 -0.4835875274932532 -0.8657040168886406
5750000 -0.5028026727932555 -0.8545441106770649
5797500 -0.5216784179594678 -0.8429675361220395
5845000 -0.540032744473493 -0.8310472214928359
5892500 -0.558411761334167 -0.8189290299553862
5940000 -0.576559682843726 -0.8059112328815432
5987500 -0.5945670716890602 -0.7926624461563345
6035000 -0.6119999520501695 -0.778853506207783
6082500 -0.6292115423122927 -0.7649684067272227
6130000 -0.6462024362038092 -0.7505826947832953
6177500 -0.6629796916793833 -0.7357591013420155
6225000 -0.6792605847132928 -0.7203226912074006
6272500 -0.6950660584560734 -0.7048797441698998
6320000 -0.7107073553085014 -0.6890327895100724
6367500 -0.7259983675777018 -0.6729113147148924
6415000 -0.7410464623630485 -0.6561803204149849
6462500 -0.7554955754302727 -0.6391008099610753
6510000 -0.7694804545611652 -0.6218942861110808
6557500 -0.7832200599033072 -0.6044430044155198
6605000 -0.7967091622762992 -0.5866125405322004
6652500 -0.8095057447857039 -0.5684547407010341
6700000 -0.8219257440144788 -0.5501308823768615
6747500 -0.8340021646689919 -0.5315898488685599
6795000 -0.8457295121165214 -0.5128288863596022
6842500 -0.8569421476493531 -0.49366318900551975
6890000 -0.8676059926491141 -0.47435608211452424
6937500 -0.8778597563219968 -0.4548241899547124
6985000 -0.8876800054959467 -0.43533084548675416
7032500 -0.8970910182138214 -0.41560919933224816
7080000 -0.9060643216825963 -0.39556519741281687
7127500 -0.9144035339886922 -0.375409324178967
7175000 -0.9223884506342785 -0.3553343841989017
7222500 -0.9298874085428194 -0.33508717153076506
7270000 -0.9370474395628983 -0.31465310480151915
7317500 -0.9435879612097652 -0.29409754978735075
7365000 -0.9496055405406579 -0.27360578616096876
7412500 -0.9552819490195257 -0.25313917807341063
7460000 -0.9605928154436203 -0.23241702058720295
7507500 -0.9652845776778354 -0.21184694697983433
7555000 -0.9695622503769777 -0.19123852924611445
7602500 -0.9733996656795626 -0.17063837213700167
7650000 -0.9767294328218354 -0.15004975431401887
7697500 -0.9798039518564774 -0.12943787922407002
7745000 -0.9822447951840195 -0.10889564081350667
7792500 -0.9843048603984806 -0.08842888171368293
7840000 -0.9858895356562946 -0.06811241023619397
7887500 -0.9870818433871292 -0.04782648054350704
7935000 -0.9877879921810139 -0.027555870114932355
7982500 -0.9882112995495893 -0.00738508068785488
8030000 -0.9881725646128137 0.012620530235907198
8077500 -0.9875926973358353 0.03249495334176807
8125000 -0.9868430391487891 0.05218308532577912
8172500 -0.9856343575628658 0.0718364827565221
8220000 -0.9840674725420834 0.09128070567071218
8267500 -0.9820279505005164 0.11053587061975617
8315000 -0.979725033478669 0.1297032715774892
8362500 -0.9770163591028236 0.14860440961455096
8410000 -0.9739444656131777 0.16745193796639513
8457500 -0.9705388152923876 0.18594003112485952
8505000 -0.9669355748915913 0.20433663324014706
8552500 -0.9628788960991311 0.22252010630882182
8600000 -0.9586149542388164 0.240550060689566
8647500 -0.9539721426767284 0.25824467760819414
8695000 -0.9490862304577481 0.27572287006395924
8742500 -0.9439070268295907 0.29316225278564084
8790000 -0.9383669438151129 0.31011662816143565
8837500 -0.9325629850875873 0.3269501412416819
8885000 -0.9267148042676073 0.3436191744714327
8932500 -0.9204586338592389 0.3600135206495962
8980000 -0.9139004228418983 0.37615109023033194
9027500 -0.9071885218199748 0.39200026745272687
9075000 -0.9002589614932599 0.40763878729558006
9122500 -0.8932603704533729 0.423082932836418
9170000 -0.8859207626471804 0.43830001610651204
9217500 -0.8781954930436269 0.45323317027451554
9265000 -0.8705099614207589 0.4677907667465224
9312500 -0.862572496703435 0.4821135270999799
9360000 -0.8546124239559454 0.4962422141981225
9407500 -0.8463703399991759 0.5102227946831088
9455000 -0.8379115256767418 0.5237588358195812
9502500 -0.8293084320284339 0.5371175406281619
9550000 -0.8207947634833123 0.550314260046819
9597500 -0.8119786112848398 0.5632422400603035
9645000 -0.8029731169114209 0.5757992045311064
9692500 -0.7939265280458262 0.5882139623342697
9740000 -0.7847534063201622 0.6003222163257528
9787500 -0.775434385029255 0.6122192480565638
9835000 -0.7660233328831677 0.6237251400593383
9882500 -0.7566449030968381 0.6350386327030944
9930000 -0.7472400842913112 0.6462694715305034
9977500 -0.7376425417243434 0.6573258299994501
10025000 -0.7278093255836269 0.6678869036849566
10072500 -0.7179604746239282 0.6782663764282413
10120000 -0.7082524947257866 0.68840589830416
10167500 -0.6983642908650737 0.6984127351187384
10215000 -0.6883330632277885 0.7082005474398987
10262500 -0.6783901250760322 0.7175356967948838
10310000 -0.6685591812549843 0.7266528827373832
10357500 -0.6584301047896444 0.7359406560007372
10405000 -0.6484273907264859 0.744826227790257
10452500 -0.638150395519825 0.7533481096097128
10500000 -0.6280080852246619 0.7615966743351681
10547500 -0.6179368256478269 0.7697758824366411
10595000 -0.6079745306727661 0.7777990442673515
10642500 -0.5976782167726358 0.7856764271677495
10690000 -0.5874382606946971 0.7932034979602081
10737500 -0.577291620569963 0.8004844384008251
10785000 -0.5673095319734599 0.8076951113125952
10832500 -0.5570377843325935 0.8147603185321951
10880000 -0.5467275510170913 0.8215271783157518
10927500 -0.5365737795937284 0.8281657942352765
10975000 -0.5264941548298023 0.8343849327647195
11022500 -0.5165434460594349 0.8407425764923048
11070000 -0.5062866644242454 0.8468387754858961
11117500 -0.4962208092473219 0.8527299796265981
11165000 -0.48617279860466917 0.8582088774821265
11212500 -0.47612457460056545 0.863856887877059
11260000 -0.4663670684272673 0.8693138200316951
11307500 -0.4562511677696825 0.8746717891175668
11355000 -0.4461719233506912 0.8794766370190423
11402500 -0.4362077928334081 0.8843056195325081
11450000 -0.4265883153052236 0.8890777742588932
11497500 -0.416670961563827 0.8935828399093166
11545000 -0.4067937759392094 0.8980169431328214
11592500 -0.39714429605405327 0.9022091084034739
11640000 -0.38738866347414247 0.90637846778931
11687500 -0.3777951321786572 0.9105385870867081
11735000 -0.36819028300776624 0.9144463229110218
11782500 -0.3586363587637638 0.9180844085880178
11830000 -0.3490031063040528 0.9214439511974337
11877500 -0.3396640657090606 0.9250944128588756
11925000 -0.3303251574292661 0.9284460893659395
11972500 -0.3208688553816832 0.9316440839946388
12020000 -0.3115624093394593 0.934647202049055
12067500 -0.30238853500678675 0.9376971662057089
12115000 -0.29315321207393735 0.9405056551072907
12162500 -0.2840289637914911 0.9432813764015079
12210000 -0.2748073138793542 0.9458342758402262
12257500 -0.2657449518946898 0.9483513054826639
12305000 -0.2568188763858948 0.9507273074299807
12352500 -0.24794801648178047 0.9531113789293937
12400000 -0.23904247151068236 0.9554199224917518
12447500 -0.23014742334423294 0.9575597499929962
12495000 -0.22145391679286613 0.9594331558418603
12542500 -0.2128293712500513 0.9613230527827515
12590000 -0.2041832701938601 0.9631016419575962
12637500 -0.1956139653859194 0.9650554008522233
12685000 -0.1871235294417982 0.9666798379795659
12732500 -0.1786089289863078 0.9680386542170848
12780000 -0.1704138838279393 0.9694740692965205
12827500 -0.16206074874520734 0.9711571703406169
12875000 -0.1536474755525385 0.972355543699112
12922500 -0.14537912846772177 0.9735149606306055
12970000 -0.13738435635656485 0.9746530772162335
13017500 -0.12937074448247315 0.9759120129509261
13065000 -0.12117179932026534 0.9770053392657996
13112500 -0.11320182644523595 0.9777290544350511
13160000 -0.10532812138742033 0.9785524505918204
13207500 -0.09746055932510685 0.9793865298692637
13255000 -0.08977320393089251 0.9800908340635375
13302500 -0.08212050128959189 0.9808101032413541
13350000 -0.07436678844783115 0.981590920779903
13397500 -0.06672932397783178 0.9819610901442131
13445000 -0.059064304141754856 0.9824853228423079
13492500 -0.05163289991203618 0.9829803109979659
13540000 -0.044204536779030135 0.9832210282578329
13587500 -0.03677729099118302 0.9835060067843507
13635000 -0.029435810078088945 0.9836849563192573
13682500 -0.022092340250782473 0.9838971880798566
13730000 -0.015131714241766495 0.9839074243122856
13777500 -0.007975290063235356 0.9840546060877587
13825000 -0.0008117057749962767 0.9840195757814718
13872500 0.006277825314125623 0.9839988793051745
13920000 0.013245222292196488 0.9839888305898281
13967500 0.020035122265086063 0.9838040439231704
14015000 0.02694340219160115 0.9834933928804578
14062500 0.033716738296446475 0.9832861490083977
14110000 0.040329635222022056 0.9829919068356828
14157500 0.047095972490602246 0.9827463205342855
14205000 0.053725095029535166 0.982375787742417
14252500 0.060334497622941324 0.9821332109814568
14300000 0.06686606462257742 0.9816424638419896
14347500 0.07340775910295581 0.9811309677999637
14395000 0.07963650735611055 0.9805675171250399
14442500 0.08605874064854695 0.980060703541847
14490000 0.09234862179560421 0.9794915150491432
14537500 0.09860806107909934 0.9787717817904076
14585000 0.10486381588428448 0.9782957297405594
14632500 0.11086666483562357 0.9776140677309649
14680000 0.1170881158237946 0.9770456396465063
14727500 0.12323240314680808 0.9762812584242412
14775000 0.12919096385502943 0.9753971030436932
14822500 0.13506642151277576 0.9744916689345601
14870000 0.14101929888164735 0.9736188527340655
14917500 0.14678786293983415 0.9729077016626976
14965000 0.15269109846957632 0.9720128209256883
15012500 0.1582626528039068 0.9710566204285951
15060000 0.16395666016709812 0.9702273773880655
15107500 0.16956362229897584 0.9692339176536404
15155000 0.17530357246460215 0.9683828908564067
15202500 0.1809315029425422 0.9672254273214898
15250000 0.1863837343551623 0.9662752699832212
15297500 0.19185619111185181 0.9652125597257741
15345000 0.19728216010975097 0.9641889026765968
15392500 0.2026956386864928 0.9629812138275357
15440000 0.20818849975977266 0.9620079555799805
15487500 0.21325848802079791 0.9607411406406594
15535000 0.2184185230088753 0.9596830894979776
15582500 0.22367536710569372 0.9585148037569479
15630000 0.22888720378502958 0.9573031705157894
15677500 0.2339479857032675 0.9560189723465796
15725000 0.23897132824222733 0.9546932973683623
15772500 0.2439405768122215 0.9535491274543897
15820000 0.2490228886459514 0.9523331556227715
15867500 0.253835344356638 0.9510258616579715
15915000 0.2587285942884632 0.9495650298612996
15962500 0.2635665420539889 0.9485860616338979
16010000 0.2686114055472381 0.9472291419823655
16057500 0.2733288026829414 0.9458438246917377
16105000 0.27809105503543013 0.9443368104766501
16152500 0.28259440085604326 0.9430621017136429
16200000 0.28733462687366695 0.9417082322483058
16247500 0.29200122336593076 0.9402175317588516
16295000 0.2967460425688412 0.9388537666058242
16342500 0.30107360800207306 0.9373856003171152
16390000 0.3055501122518051 0.9361268964036826
16437500 0.31024907125761114 0.9347634019085123
16485000 0.3147783738916158 0.9331998312190032
16532500 0.31891042313773704 0.9318443596352702
16580000 0.32322055313735826 0.9302321217409558
16627500 0.3275133742615898 0.9288486548246265
16675000 0.33192883539644685 0.9274105738533386
16722500 0.3362204751941185 0.9256680472941415
16770000 0.3403245896236007 0.9243827372258666
16817500 0.3443356410465667 0.9227622161538553
16865000 0.34859765770143764 0.9213999029940813
16912500 0.3528341465798696 0.9198007432529937
16960000 0.35691097974499875 0.9181980644379173
17007500 0.3607976737677584 0.9168105763718092
17055000 0.3648848990444726 0.9153424180689584
17102500 0.3689791295339618 0.9137779565551827
17150000 0.3728839576284013 0.9121730620119541
17197500 0.3767965273634399 0.9106371707481081
17245000 0.38050668170716256 0.9091234916515943
17292500 0.38450132952025706 0.907739780029728
17340000 0.38849363573520296 0.9060385133284978
17387500 0.3922327657104998 0.9043760461192133
17435000 0.3959463919303694 0.9028220344804823
17482500 0.3996217230661877 0.9012807405941997
17530000 0.4033809363237653 0.8996571545936339
17577500 0.4070756154871668 0.8979296058266378
17625000 0.4105846914338562 0.8962763797810089
17672500 0.4141781547683485 0.8946040966443479
17720000 0.4176994912086718 0.8931816497395798
17767500 0.4214709202336617 0.8914007771166106
17815000 0.4250121729490168 0.8897291432208997
17862500 0.4283742433212307 0.8879813430932019
17910000 0.4318181193276472 0.8864239556282109
17957500 0.435424668803527 0.884818880713606
18005000 0.43881437354551744 0.8830611627261741
18052500 0.4421586665754335 0.8814361091826363
18100000 0.4454062829271179 0.8797603328531001
18147500 0.44869071764415897 0.8781317900344909
18195000 0.4521736147167671 0.8764842386633899
18242500 0.4553802666461424 0.8748014590573331
18290000 0.4587452006011155 0.8731078230587613
18337500 0.46168270656431976 0.871556387999421
18385000 0.4650901399837134 0.8698670534487738
18432500 0.4683877956903747 0.8682585677245992
18480000 0.4715274329890628 0.8662371532260743
18527500 0.4744345281846328 0.864767586671543
18575000 0.47758788480896747 0.8630967723347382
18622500 0.4807335868065394 0.8616445402865239
18670000 0.48394540512539186 0.8597809421729612
18717500 0.4869067462540617 0.8580719131564116
18765000 0.48977348764511036 0.8566040361055814
18812500 0.49273001642516356 0.854914695302975
18860000 0.4959924140733843 0.8532580485990857
18907500 0.498777861530584 0.8514804923791374
18955000 0.5016351370658496 0.8497684762081875
19002500 0.504420115067496 0.8482147517796954
19050000 0.507433583802704 0.8467419744839636
19097500 0.5104589217010713 0.8448651502857826
19145000 0.5132182515867624 0.8430269130679765
19192500 0.5159059941158726 0.8414041414019386
19240000 0.5186539049155267 0.8398800030821416
19287500 0.5216083375888871 0.8382766504079141
19335000 0.5243959988197063 0.8363885030957039
19382500 0.5269990988593466 0.8348111992539062
19430000 0.5296848419490773 0.8332875070883171
19477500 0.5323934380414663 0.8317321264925136
19525000 0.5352003630845338 0.8299193726654822
19572500 0.5379074390884369 0.8280329429584108
19620000 0.5402994705616675 0.826420998621136
19667500 0.5429198098381302 0.8248526085995279
19715000 0.5456918660083043 0.8232266134195032
19762500 0.5482568318949076 0.8214536423892598
19810000 0.5507271786603746 0.8197081362586828
19857500 0.5530459522803546 0.8182114566687747
19905000 0.5557331928644398 0.8167108258707161
19952500 0.5583317861473034 0.8150713308001845
20000000 0.5607809993370763 0.8131074075460349
