# HZ S RI R 50
1000000 -0.4414641328360394 0.8857038735297399
1047500 -0.4026113789882664 0.9033295327802277
1095000 -0.3643934326814835 0.9192609562666897
1142500 -0.3264357360099678 0.9327246871771078
1190000 -0.2889488590069224 0.9445560214600724
1237500 -0.25205893712786737 0.9546796787530221
1285000 -0.21556468963529668 0.9632231367924136
1332500 -0.1799189628891708 0.9701048324040652
1380000 -0.14469243369309 0.9757504863551895
1427500 -0.11057040867002982 0.9798164888495955
1475000 -0.07691533618478326 0.9827769004725869
1522500 -0.044244916530434115 0.9846709378248968
1570000 -0.012157433802362031 0.9853372206709968
1617500 0.019030522400289365 0.985047518031585
1665000 0.04928417282497414 0.9837936360923654
1712500 0.07854584214440505 0.9818602748561268
1760000 0.10704564876807014 0.9790534570356381
1807500 0.13512025383322973 0.9754297869240953
1855000 0.1617596579670585 0.9712980560483633
1902500 0.18783003237751755 0.9666773782080229
1950000 0.21306372842801666 0.9614504967110111
1997500 0.23764864045277947 0.955807075440731
2045000 0.26145402095466813 0.9495346910493841
2092500 0.28436739968245145 0.9428877845134783
2140000 0.3065728967171326 0.9360390043563342
2187500 0.3279170780043313 0.9288072453929237
2235000 0.3487359709964616 0.9212684035270062
2282500 0.36894478326553476 0.9136033409860245
2330000 0.38833667450498727 0.9055712382792144
2377500 0.40697963652599295 0.8975460193966198
2425000 0.42544347014693434 0.8893284992237492
2472500 0.4431631794276478 0.8807463177626375
2520000 0.4601900440395091 0.8718296258038468
2567500 0.4764218960626004 0.8632347999074793
2615000 0.4923417949238289 0.8547141594008343
2662500 0.5078489576671953 0.8457838695443498
2710000 0.5228581699822465 0.8367995463766835
2757500 0.5370689739409842 0.8277757487749344
2805000 0.5508345830800611 0.8189453185237068
2852500 0.5644661062822389 0.8100101806388933
2900000 0.5775189928254368 0.8010209893452453
2947500 0.590139195109928 0.791812310925868
2995000 0.6022519837278846 0.7826967965563252
3042500 0.6139946639152547 0.7739041330214916
3090000 0.6254409596708809 0.7649959684924689
3137500 0.6366791987069792 0.7559772874898514
3185000 0.6471514029758063 0.7470580217317417
3232500 0.6573707565391815 0.7382255568653812
3280000 0.6676214769538085 0.7294830420255418
3327500 0.6773725487735612 0.7206953270062323
3375000 0.686752991008189 0.7118051498376189
3422500 0.6957111546617095 0.703178391662024
3470000 0.7045778291459905 0.6945800716751716
3517500 0.713263694978116 0.6860291676035551
3565000 0.7215975431119058 0.6775340960114463
3612500 0.7294397863354646 0.6690637482677293
3660000 0.7370928466911186 0.6607882615870289
3707500 0.7447303454899988 0.6526364788421429
3755000 0.7521480738301779 0.6443527099360943
3802500 0.7593007867615831 0.6361040032036167
3850000 0.7660935377665274 0.6278866544358196
3897500 0.7727998331858379 0.6201078599685272
3945000 0.779237010668514 0.6120542965310158
3992500 0.7856564221764392 0.6042015633807661
4040000 0.7916175684037706 0.596241042226455
4087500 0.7974597014184978 0.5886675088395449
4135000 0.8033342679898313 0.5811404912625882
4182500 0.8089834689188317 0.5734673305854642
4230000 0.814372980618227 0.565931173187528
4277500 0.8197702567742643 0.5584833001638534
4325000 0.8247347933884138 0.5510926895888753
4372500 0.8298052644282902 0.543726100299245
4420000 0.8346290002399912 0.5365130567245371
4467500 0.8392554294095989 0.5292035801717743
4515000 0.8438286443563133 0.5222110443230188
4562500 0.8481733189640699 0.5152830956114726
4610000 0.8525637389827229 0.5081981127978574
4657500 0.8567876135947725 0.5013115594452596
4705000 0.8608123757547436 0.4944801644871202
4752500 0.8647242375927349 0.48774722941908494
4800000 0.8687778900112789 0.4810377067364026
4847500 0.8724484056084092 0.47435965500902494
4895000 0.8760025848367208 0.46763885951494616
4942500 0.8795001487136347 0.4611526224285357
4990000 0.882936753945706 0.45483433014507796
5037500 0.8864398334388973 0.44842705143111544
5085000 0.8897557332199135 0.4419181169427944
5132500 0.8928213619453034 0.43572486034700353
5180000 0.8958478795621434 0.4295351597844647
5227500 0.8989375006578398 0.42338571011273274
5275000 0.9019445976606788 0.41720598070325626
5322500 0.9047486667023044 0.41110802238066946
5370000 0.907388856419926 0.4052047715254917
5417500 0.9100842454965027 0.3994638347337144
5465000 0.912921696597608 0.3934239970112203
5512500 0.9154378251463994 0.38756308541903345
5560000 0.9179282290587919 0.38179707794774537
5607500 0.9203458769961754 0.3760887317404322
5655000 0.9226734354549013 0.37044036011779774
5702500 0.9250933246891873 0.36478661645259886
5750000 0.9271887117007926 0.3591723799923211
5797500 0.929323867049367 0.3535815163037226
5845000 0.931440963832271 0.3482008239740514
5892500 0.9336643278554849 0.34285298690032545
5940000 0.9356594903392967 0.33742826677356685
5987500 0.9375905809420623 0.3320395168342065
6035000 0.9394488554768152 0.32680527572560575
6082500 0.9412933925790122 0.32145192370505904
6130000 0.9432650762478677 0.31623700642312214
6177500 0.945021959616642 0.31097744433234686
6225000 0.9464947360828019 0.30589446106051627
6272500 0.9481626822935926 0.30092189023595173
6320000 0.9498807279167598 0.29590831341377094
6367500 0.9514644560758632 0.2908677673863024
6415000 0.9529924695739468 0.28596173076782394
6462500 0.9545242948149101 0.2810902911135168
6510000 0.9560586584895332 0.2761508531430735
6557500 0.9575381368423661 0.2712472967277574
6605000 0.958885764292914 0.2664233431429087
6652500 0.9601759247359862 0.2615755235989988
6700000 0.9614546080004754 0.2569750686880624
6747500 0.9627672006539866 0.25234347565874277
6795000 0.9640797362749657 0.2476588767514427
6842500 0.9652954834677098 0.24297410086583213
6890000 0.9664906437375065 0.23843655388033286
6937500 0.9675714668421822 0.23389963071649517
6985000 0.9686945606132481 0.22923199242414885
7032500 0.9697687098435296 0.2247213760233242
7080000 0.9707509898940305 0.2202677427016126
7127500 0.9717258596065473 0.21595412369835393
7175000 0.9728076095373359 0.2116370290747287
7222500 0.9738827467255203 0.20715319599725093
7270000 0.9747287444890935 0.20284793733596568
7317500 0.9755741910050996 0.1985516220923925
7365000 0.9765323394929593 0.194340385404102
7412500 0.9774294849851316 0.19005677845665292
7460000 0.9782404485689068 0.18573555464336766
7507500 0.9789474207772908 0.1815552615031415
7555000 0.9796801801809627 0.177424473763348
7602500 0.9804509481186315 0.17338763595427326
7650000 0.9812801322325206 0.1692906403923265
7697500 0.9819807550685391 0.16506000119318504
7745000 0.9824334294581896 0.16104935759673353
7792500 0.9832104339133678 0.1571379860819402
7840000 0.9840182953459192 0.15313461531234412
7887500 0.9847165740812411 0.14900531171621262
7935000 0.9852144429323898 0.14512091827825377
7982500 0.985790864271815 0.14123706314395365
8030000 0.9863707617376787 0.13740152858735477
8077500 0.9869923143347579 0.13355130649981417
8125000 0.9874812192245267 0.1296094536376167
8172500 0.9879388902162473 0.12579987364735729
8220000 0.9885031758413864 0.12198685416955993
8267500 0.9889686112213111 0.118256783376057
8315000 0.9894068701929608 0.11452750955889872
8362500 0.9898808545900557 0.11079733528453913
8410000 0.9903256342311939 0.10705106630064255
8457500 0.9906501541865808 0.10326010359010881
8505000 0.9910750451765888 0.09955997457045673
8552500 0.9914251808526855 0.0959956725952156
8600000 0.9916839281282667 0.09239847249715143
8647500 0.9920452501720365 0.08870808956142862
8695000 0.992458187153575 0.08516257360394536
8742500 0.9927516050092131 0.081655639114032
8790000 0.9930422677898401 0.07811233924689834
8837500 0.9934365456054336 0.0745028638792058
8885000 0.9936359647308417 0.07105626291924286
8932500 0.9939017084948947 0.06753752163803063
8980000 0.9940452676980808 0.06399667173240792
9027500 0.9943221455301854 0.060536885357353874
9075000 0.9944823109892488 0.05713135962946368
9122500 0.9946897301726497 0.05370278505826397
9170000 0.9947604160222072 0.05036026294958591
9217500 0.9951304379774661 0.046977411851216754
9265000 0.9952604473407585 0.043685434918615734
9312500 0.9954122964223815 0.040207375650105064
9360000 0.9955487371390402 0.03683468654201546
9407500 0.995693996477963 0.03356969236452215
9455000 0.9956659167062009 0.03030095167865427
9502500 0.9958269433116228 0.02694727697704431
9550000 0.9958508674801293 0.023756210559951557
9597500 0.9960821185514853 0.020504924162150964
9645000 0.9961182325323422 0.01727650101855463
9692500 0.9961622409078721 0.014084620807194236
9740000 0.9962228207759978 0.01084649436379659
9787500 0.9962482524184738 0.007615565220187411
9835000 0.9961899302751261 0.004433667961129065
9882500 0.9960862566267437 0.001200945373328054
9930000 0.9958720653610298 -0.0019621055852305494
9977500 0.9958077027495501 -0.005074382077906981
10025000 0.9958148319486348 -0.00805363383893077
10072500 0.9960363277597005 -0.010999307059074453
10120000 0.9961895548925284 -0.014181827245204892
10167500 0.9961957424256688 -0.01727396081992811
10215000 0.9960763663027391 -0.020433856884483837
10262500 0.9960318980900789 -0.023504674007286702
10310000 0.9959496779946325 -0.02646294115622984
10357500 0.9958383554219988 -0.029443712443543067
10405000 0.9956605060035154 -0.0324895201971624
10452500 0.9955533746631171 -0.03541109561703777
10500000 0.9954928592489529 -0.038393506564944974
10547500 0.9955055405809877 -0.041363571939620494
10595000 0.9954454988994927 -0.044370082009390244
10642500 0.9952398838517039 -0.04739122437430741
10690000 0.9949976469251387 -0.050284814899766245
10737500 0.9948729630934445 -0.05313270601784575
10785000 0.9946242457146058 -0.056136071360368626
10832500 0.9944155425062416 -0.05902069157216323
10880000 0.9942038930260625 -0.06181954124919348
10927500 0.9941183759551628 -0.0645113314750198
10975000 0.9941262816906802 -0.06738915530379808
11022500 0.9939167434847092 -0.07040289261256093
11070000 0.9936029782175253 -0.07324888472487472
11117500 0.9933787846966851 -0.07606878003887062
11165000 0.9931098669206919 -0.07878494404378321
11212500 0.992955526313316 -0.08163952492629464
11260000 0.992635541331775 -0.08452160475581494
11307500 0.9923736682864237 -0.08727662662627585
11355000 0.9921107319054024 -0.08983361645645228
11402500 0.9920426929069077 -0.09268109356283716
11450000 0.9917540348372029 -0.09549013631909008
11497500 0.9913913479780753 -0.09836021402108377
11545000 0.9910332712800911 -0.10100870741586368
11592500 0.9907700297663656 -0.10358365932487591
11640000 0.9905869095934845 -0.10638987854560115
11687500 0.9901735706033244 -0.10917344953685505
11735000 0.9898262037411965 -0.11180579150370935
11782500 0.9895369721580592 -0.11436842720942067
11830000 0.9892808720609952 -0.1170305130137897
11877500 0.9891369571256003 -0.1197893678940152
11925000 0.9886308462705513 -0.12252732090822256
11972500 0.9882571685873364 -0.12506020348500183
12020000 0.9879357443448152 -0.12761458921879557
12067500 0.9876567568691436 -0.1302416483353318
12115000 0.9872998225427524 -0.13296849602202637
12162500 0.9867885719508678 -0.1356949061241787
12210000 0.9864208658378326 -0.13795288787231932
12257500 0.9862540111805196 -0.14047371027701908
12305000 0.9858721896961274 -0.14337182321225486
12352500 0.985401639693529 -0.14602493065864725
12400000 0.9848833842785469 -0.1484453940373294
12447500 0.9845454555624157 -0.15088075118459007
12495000 0.9843183680423266 -0.15345604217749773
12542500 0.9839097601957221 -0.1561028550258077
12590000 0.9832428660354126 -0.15867418024609986
12637500 0.9828279853881275 -0.16100042927010907
12685000 0.9826861894288048 -0.16333538460802052
12732500 0.9822633106024263 -0.166069302374714
12780000 0.9817521481517713 -0.16877010370441786
12827500 0.9811402326383515 -0.1710522746177345
12875000 0.9807637408743228 -0.17346568256532852
12922500 0.9804174919644324 -0.17593245837704088
12970000 0.9799041826795992 -0.1786121605052104
13017500 0.9792684936110665 -0.1810391839273768
13065000 0.978749633923143 -0.18330727005042202
13112500 0.9785114993311043 -0.1856277529978948
13160000 0.9781237894720717 -0.18821011143784597
13207500 0.9774766554421856 -0.1909248663374201
13255000 0.9768146249862772 -0.1931136559393753
13302500 0.9763942766456258 -0.1953342872739932
13350000 0.976057605492203 -0.19778559276124888
13397500 0.9756048918112362 -0.200356940351064
13445000 0.9749231997412818 -0.20268470678211276
13492500 0.9743600396490026 -0.20485518616752707
13540000 0.9741118958906466 -0.20719827108999175
13587500 0.9736799426221152 -0.2097876495096769
13635000 0.9730284692219754 -0.2122539981825235
13682500 0.9722362852711889 -0.21464044438758434
13730000 0.9716691609781271 -0.21680932129438243
13777500 0.9712281938842056 -0.21910659710349947
13825000 0.9706968240079208 -0.221596092448545
13872500 0.9698255149844812 -0.22406986651327054
13920000 0.9691106068304065 -0.2262032848508484
13967500 0.9685905703074157 -0.2282230562079139
14015000 0.9680844396832784 -0.23058387367468966
14062500 0.9676939845088743 -0.23309438896169404
14110000 0.9671251229196511 -0.23532561667509214
14157500 0.966817881615504 -0.23738281075896916
14205000 0.9664258042817454 -0.2395885063649736
14252500 0.9659322389943865 -0.2421998225255073
14300000 0.9650916134059012 -0.24453250760841846
14347500 0.9645679070789813 -0.2464567226683518
14395000 0.9641902233414499 -0.24857692603313525
14442500 0.9638250929696303 -0.2510031972332842
14490000 0.9630977178203363 -0.2534531390140295
14537500 0.9622694579761437 -0.25567630702225497
14585000 0.9616622646917081 -0.25764297553828064
14632500 0.9612645262016157 -0.259861247676418
14680000 0.9607379188076572 -0.26231367781364695
14727500 0.959871742029447 -0.2646423923405071
14775000 0.9591674997929049 -0.26669142596331497
14822500 0.9585844934783291 -0.26859627101132627
14870000 0.9582384047808776 -0.2709106133748043
14917500 0.9576163332001965 -0.2733947164768172
14965000 0.9567267940842192 -0.27555200233890575
15012500 0.9559661404604133 -0.2774671764890061
15060000 0.955523508058825 -0.2794725373561038
15107500 0.9550553075605748 -0.28187268109651925
15155000 0.9542553650832469 -0.2842477093530674
15202500 0.9533815385757394 -0.28613987202975916
15250000 0.952866374809494 -0.2880588736464035
15297500 0.9523734132591087 -0.29022743694752257
15345000 0.9517940678031626 -0.2926462615144136
15392500 0.9508386504619757 -0.2948930265211281
15440000 0.9501235323713929 -0.2967679514090876
15487500 0.9495737306028197 -0.29877766698851116
15535000 0.9490980096000171 -0.30097972716048954
15582500 0.9482625709681572 -0.30331175247222614
15630000 0.9474205281698733 -0.30532968963943924
15677500 0.9465996283233499 -0.3071759241286099
15725000 0.9462438185998778 -0.30923808864690816
15772500 0.9455666411683593 -0.31166586950183944
15820000 0.9447372477775806 -0.31384730730326765
15867500 0.9439127535154307 -0.3157428645048438
15915000 0.9433543665660347 -0.3176862413684212
15962500 0.9428398107018438 -0.3197406300949206
16010000 0.9419329820025376 -0.3221047118741112
16057500 0.9410110522358117 -0.32418008255073416
16105000 0.9402473958154991 -0.3259371938562617
16152500 0.9398466715732415 -0.32784913885953204
16200000 0.9391594092362225 -0.33013898164804467
16247500 0.9383605965445102 -0.3323883192417469
16295000 0.9373379141915813 -0.3342759559919709
16342500 0.9366962235542544 -0.3360599712062221
16390000 0.9360891331976717 -0.33809046973559803
16437500 0.9354155819474034 -0.340417224186933
16485000 0.9343449451937311 -0.34234586072067524
16532500 0.9335123662943331 -0.344200135570518
16580000 0.9329847563290785 -0.3461491646006343
16627500 0.9324475474448302 -0.3483488679521705
16675000 0.9315457708323295 -0.35046891227012844
16722500 0.9306182605563716 -0.35236182212016565
16770000 0.929778237612532 -0.3542285973491091
16817500 0.9293565022589756 -0.35604665157414384
16865000 0.9284082789156212 -0.3583371801567969
16912500 0.9275726230959835 -0.36050153862874373
16960000 0.9264411661626609 -0.3621817001293687
17007500 0.9257754014162858 -0.36377385358450653
17055000 0.9253567800055482 -0.3658710861133743
17102500 0.9245926472566864 -0.3680515563087735
17150000 0.9235183542636394 -0.3698829341864909
17197500 0.9227345677191184 -0.37171894919382004
17245000 0.9221702740699704 -0.373549578359912
17292500 0.9214163872364943 -0.3758162681738197
17340000 0.9204059128194224 -0.37775288318059047
17387500 0.9194220480414587 -0.3795330817683036
17435000 0.9187040827122971 -0.38117931437267816
17482500 0.918197218180396 -0.38318468534706795
17530000 0.9173950623243183 -0.3852967772844696
17577500 0.916458171574788 -0.38721924946369873
17625000 0.91550043038719 -0.38892533194496964
17672500 0.9149011926313296 -0.3907340085613479
17720000 0.9141634155312687 -0.39272288094627356
17767500 0.9131812803589219 -0.39480053936831716
17815000 0.9122027402752867 -0.3965157365137787
17862500 0.9113663018620914 -0.39814748943500794
17910000 0.9108146546215221 -0.40006767697242746
17957500 0.9100640936190856 -0.4021241334726131
18005000 0.9090060881567423 -0.40417376947341155
18052500 0.9079946045280038 -0.4058653376166583
18100000 0.9073843158726569 -0.4076450637667162
18147500 0.9065246711565332 -0.40959669287384337
18195000 0.9056442820091274 -0.41167303234655844
18242500 0.9045955664255528 -0.4134163698547141
18290000 0.9038065844970647 -0.4150071835855071
18337500 0.9032531483948026 -0.4168464650879479
18385000 0.9023888564266113 -0.41887845082830377
18432500 0.9013985629470017 -0.4208604083318758
18480000 0.900183127937443 -0.42266373518183886
18527500 0.8994240820824364 -0.4242760554721932
18575000 0.8987435490203962 -0.4260907678341203
18622500 0.8979357409406956 -0.4281836944708012
18670000 0.896748887917098 -0.42997354966209317
18717500 0.8958405956667375 -0.43156990806753326
18765000 0.8951583092874795 -0.43316327676130706
18812500 0.894422204100277 -0.43513286935247164
18860000 0.8934148035185674 -0.43718154949154303
18907500 0.8922797154749286 -0.43887550478107185
18955000 0.8913590823495355 -0.44037086157910593
19002500 0.8907468813024738 -0.44214342646264365
19050000 0.8897864639421639 -0.4442903200367308
19097500 0.8886926868426948 -0.446060943949114
19145000 0.8875686802213847 -0.44759873792139593
19192500 0.8868451939338544 -0.4491552186420564
19240000 0.8862643364975251 -0.45111137489135
19287500 0.8852180788766623 -0.45308301858458006
19335000 0.8840616962077738 -0.4548607965063273
19382500 0.883161489549454 -0.4562267105783855
19430000 0.8824364606093895 -0.45812671142795464
19477500 0.8815703781735791 -0.4599735686030432
19525000 0.8804220363034229 -0.46185335314287607
19572500 0.8793423515298736 -0.46337686279527707
19620000 0.8785144147686049 -0.46500755261367666
19667500 0.8779138227699403 -0.46678293556404865
19715000 0.8769574835405006 -0.46877182213035595
19762500 0.8757308957990849 -0.4704146799259834
19810000 0.8747403099641217 -0.4720004610867348
19857500 0.8740370205208433 -0.47368850602132506
19905000 0.8732523696287688 -0.4755006714362541
19952500 0.8721569769919411 -0.47731859511637215
20000000 0.8709821575968268 -0.4788455039769283
