# HZ S RI R 50
1000000 0.9623366760733586 -0.26986174287112313
1047500 0.9589533770048622 -0.2827172491338094
1095000 0.9549455454067896 -0.2952122956790769
1142500 0.9507596773522915 -0.30770942091418324
1190000 0.9467518991792814 -0.3203422601946077
1237500 0.9423450948299866 -0.3329898804313446
1285000 0.9378833789614192 -0.3456384346322543
1332500 0.9329818441273565 -0.3581250138539527
1380000 0.9280543205450847 -0.37058126759847704
1427500 0.9229114940701345 -0.3829952068816112
1475000 0.9176721017714815 -0.39546745049190646
1522500 0.9123145310046544 -0.40800429166350444
1570000 0.9064781165879137 -0.42032954461489824
1617500 0.9005524320741098 -0.4326628769299361
1665000 0.894598001169929 -0.44482984575768336
1712500 0.8884608524832439 -0.4571445699243732
1760000 0.8820383894411855 -0.469473372351148
1807500 0.875347072835522 -0.4817212450454207
1855000 0.868353465388408 -0.4937102434006897
1902500 0.8614277817285662 -0.5055788339394949
1950000 0.8543945302556527 -0.5176668183642387
1997500 0.8469661552851704 -0.5298424769196428
2045000 0.8392191865975336 -0.5417592182031816
2092500 0.8315150577613578 -0.5534181022749687
2140000 0.823528379364252 -0.565176959405542
2187500 0.8154350941465783 -0.5770948310520378
2235000 0.8067500953180947 -0.5886999574996551
2282500 0.7980341334794816 -0.6001675539306446
2330000 0.7893660975016996 -0.6115850980172282
2377500 0.780339991942809 -0.6231617770573351
2425000 0.7710798182618037 -0.6345228274747485
2472500 0.7616223182189197 -0.6457883691024469
2520000 0.7520521682247376 -0.6568934938510176
2567500 0.742185435930998 -0.6680829023540618
2615000 0.7319830973349278 -0.6791206657209874
2662500 0.7216679876550127 -0.6900544066421309
2710000 0.7110373377311822 -0.7007219846896671
2757500 0.7001956622513418 -0.7115728918088591
2805000 0.689441936945515 -0.7220606175875478
2852500 0.6781033138060953 -0.7326435750718739
2900000 0.666753116041812 -0.7429578348120593
2947500 0.6551487071192726 -0.7530627371654421
2995000 0.6434468945717133 -0.7631967945060768
3042500 0.6312420418029113 -0.773375342298823
3090000 0.6189342852536124 -0.7831377543988598
3137500 0.6061430037944374 -0.7928406196469543
3185000 0.5934356746032078 -0.8022482669533979
3232500 0.5806200758071335 -0.8116814460646524
3280000 0.5673379961256648 -0.8209352562177321
3327500 0.5538230696515138 -0.8300569898207445
3375000 0.540214777875544 -0.8389559868568742
3422500 0.526412708544133 -0.8476164659314616
3470000 0.5123486613734489 -0.8560622813871547
3517500 0.4980273643191621 -0.8646423304304192
3565000 0.4833934177260823 -0.8727700833690544
3612500 0.4683468239253758 -0.8806058848004239
3660000 0.45363110514097255 -0.8882805928043725
3707500 0.4384209919305459 -0.8958343928814895
3755000 0.4229638833934085 -0.9031698811129444
3802500 0.4072259125495839 -0.9101552114519457
3850000 0.391574200791749 -0.9169988375508129
3897500 0.3754678497703686 -0.9237616382359487
3945000 0.359210686327283 -0.9300754379747218
3992500 0.3425547777183061 -0.9363898684515809
4040000 0.32575596038019583 -0.9419510632792629
4087500 0.30918132288493994 -0.9473758081904706
4135000 0.2921627309832207 -0.9527786402189992
4182500 0.27478054441811367 -0.9579754129026077
4230000 0.25721715037770154 -0.9626585064344395
4277500 0.23955375451279978 -0.9667977711877648
4325000 0.2220372133000479 -0.9710771296761588
4372500 0.2040368337782127 -0.9752645683411184
4420000 0.18559600165054224 -0.9786472731640092
4467500 0.16725816028399765 -0.98171268873821
4515000 0.14885097011010906 -0.9842673900324801
4562500 0.1302800761436448 -0.9870158118236325
4610000 0.11158085565598588 -0.9895496833708493
4657500 0.09243393267701887 -0.9911445220860028
4705000 0.07334449294498857 -0.9923621419140018
4752500 0.054306786487472614 -0.993473850813414
4800000 0.03499635071932488 -0.9944689432972957
4847500 0.015496671852135695 -0.9948548738616678
4895000 -0.00422661390388678 -0.9947130013235036
4942500 -0.023564378343619505 -0.9940788251434153
4990000 -0.04308800796196349 -0.9933886625091276
5037500 -0.06303403501956695 -0.9924832425576087
5085000 -0.08284954827133105 -0.9909091185702896
5132500 -0.10293471786971065 -0.988784498758273
5180000 -0.12271013111515218 -0.9861635960247089
5227500 -0.14269275365478137 -0.9834770049728259
5275000 -0.16281387253957005 -0.9803914353520146
5322500 -0.1830422031675389 -0.9765330942318649
5370000 -0.20302793123226662 -0.9723531426399702
5417500 -0.22279436292532945 -0.967694358054202
5465000 -0.24281982047017264 -0.9630502086912991
5512500 -0.2629269555860588 -0.9575823923478552
5560000 -0.28295893339302725 -0.9514130203221315
5607500 -0.3026645843113438 -0.9451585711986872
5655000 -0.3224156222052245 -0.9386022892548064
5702500 -0.3424193808814813 -0.9315447123078328
5750000 -0.36214591835028453 -0.9237125749466751
5797500 -0.3816785772987784 -0.9155595926837604
5845000 -0.40094666326207 -0.9071821155693471
5892500 -0.42026547626484334 -0.8983873865004364
5940000 -0.4396146992603706 -0.8889214768792625
5987500 -0.45874027940111206 -0.8789598840133829
6035000 -0.477435424596064 -0.8685056704926782
6082500 -0.4960341861442079 -0.8580504827588057
6130000 -0.5145712722594972 -0.8470109712317929
6177500 -0.5330362730284182 -0.8354364643936659
6225000 -0.5511079579169187 -0.8231887807058941
6272500 -0.5687130953323453 -0.8108413549480256
6320000 -0.5863392348077225 -0.7982291338361142
6367500 -0.6036553038159841 -0.7850956913711331
6415000 -0.6209189902279602 -0.7713434618468373
6462500 -0.6375921667410643 -0.7572408100747744
6510000 -0.6539453393178263 -0.7428473249897998
6557500 -0.670109998001903 -0.728186970016177
6605000 -0.6862699058733471 -0.713231339649074
6652500 -0.7017001018046145 -0.697639847951509
6700000 -0.7167944150385123 -0.6817551523294039
6747500 -0.7315968201050805 -0.6657860969179922
6795000 -0.7462215471010275 -0.649318407189844
6842500 -0.7604460065491047 -0.6323689112202855
6890000 -0.7740788282443873 -0.6152020472654112
6937500 -0.7874336889463726 -0.5978434474488287
6985000 -0.8004576368523073 -0.5803839409778717
7032500 -0.8131395156772786 -0.5624182953237393
7080000 -0.8253006834837263 -0.5441067839646315
7127500 -0.8370024483029221 -0.5256109793299976
7175000 -0.848288983643816 -0.5069946108738903
7222500 -0.8592168972134463 -0.48830475988479705
7270000 -0.869752919402454 -0.4690008131140266
7317500 -0.8797648920301099 -0.4497203187848172
7365000 -0.889208725616419 -0.4302717627797356
7412500 -0.8984216523846035 -0.4107874177236856
7460000 -0.9072181363969023 -0.39095941782966703
7507500 -0.9155294442751061 -0.3710525353271555
7555000 -0.9232299961604051 -0.35102443306539516
7602500 -0.9305755749719382 -0.3308631571965642
7650000 -0.937389266177646 -0.31076052760025186
7697500 -0.9439543809411554 -0.29039250672112715
7745000 -0.9498971944220166 -0.27002893540469053
7792500 -0.9554229678080892 -0.24964737666686782
7840000 -0.960450452975735 -0.22931734196590922
7887500 -0.9650647074002292 -0.20889349699235663
7935000 -0.9693339731205879 -0.18835595404077166
7982500 -0.9730410535143681 -0.167803692486743
8030000 -0.9763046369466848 -0.1473403244946159
8077500 -0.9790646792687803 -0.12697635971231472
8125000 -0.9816414252102527 -0.10685520598918781
8172500 -0.9835068567793898 -0.08620940236140864
8220000 -0.9851478292046693 -0.06597715903998694
8267500 -0.9862178018603147 -0.045815390283170485
8315000 -0.9870035008216687 -0.025676502747990954
8362500 -0.9872915266006362 -0.0058221197949350255
8410000 -0.9871782599847838 0.014217723986519406
8457500 -0.9866498866994077 0.034063159471482585
8505000 -0.9857415493136452 0.05371425050741262
8552500 -0.9845435222629046 0.07309016415828745
8600000 -0.9829522506033337 0.09251856289268134
8647500 -0.9809670766924281 0.11176012195006901
8695000 -0.9785950499039895 0.13081021537655352
8742500 -0.9758797451389998 0.14963422263584258
8790000 -0.9728118989200956 0.16827758520596292
8837500 -0.9695075254257866 0.1868761148909118
8885000 -0.9657806335192386 0.2052667883680459
8932500 -0.9616679856514506 0.22339246884645952
8980000 -0.9573870743980787 0.24120861349557543
9027500 -0.9528233405962596 0.25884748354656306
9075000 -0.947870622629462 0.2764922451942724
9122500 -0.942713388439894 0.29384616852155554
9170000 -0.9371403145945602 0.31077378418943213
9217500 -0.9313656325810719 0.3275792223917295
9265000 -0.9254801433774265 0.34413024197550485
9312500 -0.9191350695019659 0.3606425625184461
9360000 -0.9126300943921504 0.3766684071288012
9407500 -0.9057961750854092 0.3924152463798777
9455000 -0.8988160597531636 0.40795798159996827
9502500 -0.8918604997791661 0.42353697412274066
9550000 -0.8844674239977139 0.4386872691176241
9597500 -0.8768998331358246 0.4535848451379846
9645000 -0.8692226826253091 0.46808341953626575
9692500 -0.8613661212738292 0.48257683006595564
9740000 -0.8532147393375569 0.4967875703481299
9787500 -0.8448988067286665 0.5105683331371467
9835000 -0.8364193515247528 0.5241404976327556
9882500 -0.8279202622110872 0.537468753233854
9930000 -0.8192748775592211 0.5506623613633208
9977500 -0.8104807320421252 0.5637187019860025
10025000 -0.8014857523846635 0.5762826868063767
10072500 -0.7923191249679301 0.588609957235493
10120000 -0.7831299079367696 0.6006760533405977
10167500 -0.7740651896412486 0.6126221910269156
10215000 -0.7644718145094872 0.6242613260142695
10262500 -0.7550447069581181 0.635598553676014
10310000 -0.7455046268271543 0.6465403793337388
10357500 -0.7358972065684256 0.6576452006844126
10405000 -0.7262800422162139 0.6683178931275282
10452500 -0.7163367680565202 0.6788271803278388
10500000 -0.7065026178965602 0.688815815725765
10547500 -0.6966083139692821 0.6987743378780474
10595000 -0.6867579195754814 0.7085399127536286
10642500 -0.6766509138833833 0.7181041301379802
10690000 -0.6666054674060519 0.7271180676020744
10737500 -0.6566799897750172 0.7362750669304632
10785000 -0.6466204951295532 0.7451436341515625
10832500 -0.636449856485906 0.7538415475841039
10880000 -0.6261089257934943 0.7622084006531588
10927500 -0.6159311313849579 0.7702935559338091
10975000 -0.6058172096628723 0.7780963351378223
11022500 -0.5958278902574571 0.7859591623494953
11070000 -0.585397529793514 0.7936124001928672
11117500 -0.5752453447151785 0.8010202024042752
11165000 -0.5650062254428772 0.8079116034898381
11212500 -0.5547708195000209 0.8149644650397103
11260000 -0.5447016066094339 0.8218047174804896
11307500 -0.5344133992355646 0.8286361271096446
11355000 -0.5240707325558213 0.834774715198648
11402500 -0.5139213766779233 0.8409737348219726
11450000 -0.5039865500960786 0.8471509853268008
11497500 -0.4938044861947563 0.853016676201819
11545000 -0.48361670078527186 0.8585881948444889
11592500 -0.4736028005972095 0.8640254968892045
11640000 -0.4636718987923904 0.8695363096866316
11687500 -0.45368099783892496 0.8747999485588132
11735000 -0.44356196090851924 0.8798655423314728
11782500 -0.43363001769058157 0.8845466097862458
11830000 -0.4237182408219292 0.8891494225422776
11877500 -0.4139688282622632 0.8938960530060571
11925000 -0.4041416619190218 0.8984070130947085
11972500 -0.3942547116310995 0.9026239818057813
12020000 -0.384594331111158 0.9066206935591651
12067500 -0.37499199896235114 0.9107080272957342
12115000 -0.3653998887062178 0.9145148684030601
12162500 -0.35578481050429533 0.9183227839611835
12210000 -0.34608890090292277 0.9217709382466275
12257500 -0.3365606205480249 0.9252323846385341
12305000 -0.3272364403766579 0.9284822549239831
12352500 -0.3177932374813146 0.9318434309451052
12400000 -0.3083778695176892 0.9351089217843788
12447500 -0.29911675102372587 0.937979918604152
12495000 -0.28989210520643754 0.9406769962011396
12542500 -0.2808019702694126 0.9435814094778177
12590000 -0.2715952585055685 0.9461413133674407
12637500 -0.2625161985008692 0.9486383478937866
12685000 -0.2536170062054476 0.9508831945796525
12732500 -0.2445959888856751 0.9531493946127615
12780000 -0.23576999145313682 0.9552983342393311
12827500 -0.22693667442391333 0.9576504553465567
12875000 -0.21813951869002957 0.9595001127577366
12922500 -0.2094070930771444 0.961385920551111
12970000 -0.20089248516500596 0.9631569694435195
13017500 -0.192282131128341 0.965070297599253
13065000 -0.1835939923680801 0.9666998442839719
13112500 -0.1750513061536547 0.9678941582002074
13160000 -0.16680138910248282 0.9694244098822862
13207500 -0.158447684381052 0.970835742046401
13255000 -0.1501200766166988 0.9720834774116801
13302500 -0.14190601719423823 0.9733169547626717
13350000 -0.13378623746711676 0.974488652949062
13397500 -0.1256682244614396 0.9754663498501217
13445000 -0.11753125057839121 0.97654577384766
13492500 -0.1095371900584652 0.9774116065388636
13540000 -0.10158296343026918 0.9782725326522304
13587500 -0.09381508167998948 0.9789124460159446
13635000 -0.08593023325222905 0.9797220684049636
13682500 -0.07812326010957812 0.9803161933205619
13730000 -0.07046734892866872 0.9808027603951742
13777500 -0.063006513690677 0.9813567281270036
13825000 -0.055344258053240496 0.9817528592901624
13872500 -0.04779061211449487 0.9821758174274171
13920000 -0.04030434419640185 0.9826332022778771
13967500 -0.03296917535939887 0.9827203126564176
14015000 -0.025775782237908773 0.982925543444215
14062500 -0.018494513692300728 0.9831241717564987
14110000 -0.011134805414754567 0.9833698324140848
14157500 -0.00397760229747119 0.9831969408010672
14205000 0.002987164804772992 0.9831234046992213
14252500 0.009954916293109463 0.983321502360972
14300000 0.017076434754063605 0.9832593479951703
14347500 0.02402550119082603 0.9829921601792254
14395000 0.03083673889164555 0.9827303514762354
14442500 0.03744396741442451 0.9824738260381728
14490000 0.04441999553293228 0.9822729352708113
14537500 0.05110813446384 0.9819340756342343
14585000 0.057775406688677484 0.9815924670923843
14632500 0.06426057558547786 0.9811142834157417
14680000 0.07071631583114378 0.9807897167405254
14727500 0.07738051029998548 0.9803578874185377
14775000 0.08380116512401235 0.9797480753389541
14822500 0.09015277581490692 0.9790548863864668
14870000 0.09638411758884453 0.9783882631192895
14917500 0.10259839853171232 0.9779608758302119
14965000 0.10887571275718996 0.9774103896399728
15012500 0.11509132354177683 0.9766929410542986
15060000 0.12107870897638301 0.9759149933675858
15107500 0.1270047916146567 0.9751642052902616
15155000 0.13322593259662915 0.9745098088135282
15202500 0.13928947099690758 0.9736367676536261
15250000 0.14505414372525657 0.9727551638863738
15297500 0.15083387512194166 0.9717759703120614
15345000 0.1565715862687154 0.9709171943403975
15392500 0.1624267065313692 0.9699906165210049
15440000 0.16829860266613514 0.9690475063913097
15487500 0.17371036776684112 0.9679420065027283
15535000 0.179204125717693 0.9668857031027441
15582500 0.18486948960217991 0.9659969694887721
15630000 0.19049965716589629 0.964895357436907
15677500 0.1959101207421215 0.9636990639358612
15725000 0.20125266999832703 0.9625828480511686
15772500 0.20651452581429441 0.9616782219742234
15820000 0.21188454255602773 0.9605076917227164
15867500 0.21722078198724573 0.9592631046143316
15915000 0.22248760302917867 0.9579590966959676
15962500 0.22752222621108326 0.9570863313412084
16010000 0.23286741366209404 0.9558306490520748
16057500 0.23798521019959248 0.9545117037940531
16105000 0.24300988474960192 0.9531671227765762
16152500 0.24789911589975797 0.952036777759695
16200000 0.2529325563381427 0.9508381805677081
16247500 0.2579596210574194 0.9494584663472677
16295000 0.262978482644698 0.9480977513942203
16342500 0.26762798472852606 0.9466624177620625
16390000 0.2723455437937413 0.945419306992287
16437500 0.2772762792319743 0.9441670815660738
16485000 0.2821734087297512 0.9427295973652219
16532500 0.28672221263123193 0.9413719076070739
16580000 0.29124316634162756 0.9398271278080454
16627500 0.29588574981968735 0.938463925425765
16675000 0.3006174789244451 0.9371778906727259
16722500 0.30521186791331784 0.9355495083580535
16770000 0.3095363153946284 0.93410783526385
16817500 0.3137976985939759 0.9326304755649119
16865000 0.3183776241080381 0.9311786088567198
16912500 0.3229061225572719 0.9296959601576253
16960000 0.32721599808351604 0.9282530830159043
17007500 0.33134446824194164 0.9267052231712295
17055000 0.3356420259048833 0.9253449228566127
17102500 0.340074467137772 0.9236702712067375
17150000 0.34422909769553356 0.9222779959253458
17197500 0.3483852359999339 0.9206200951576502
17245000 0.352349323885604 0.9191828283460929
17292500 0.3564996106295354 0.9177806356775686
17340000 0.3607489127752179 0.9160068217429486
17387500 0.3646687474703756 0.9144021665229224
17435000 0.3687320332643777 0.9128797176058109
17482500 0.3725380158341766 0.9113028971786639
17530000 0.3766235638083428 0.9099056350738387
17577500 0.3805136875188502 0.9081842544600013
17625000 0.3841895387872531 0.9065839698000916
17672500 0.38801287754090236 0.9050695139976218
17720000 0.3918212366607838 0.9035689551244098
17767500 0.39576999713759925 0.9018821640283349
17815000 0.39950247371849806 0.9001592409752635
17862500 0.4031281065612406 0.8985870778070677
17910000 0.40672726813161225 0.8971457781719336
17957500 0.41058049399890584 0.8956578999564515
18005000 0.414193733313726 0.8939723678650291
18052500 0.4177127383402195 0.8922833527102801
18100000 0.42108496512917964 0.8906248688742002
18147500 0.42471540205811376 0.88904096732433
18195000 0.4283542882182831 0.8874625290967632
18242500 0.4318766173443068 0.8856739800448872
18290000 0.4353639176143253 0.8839627592950312
18337500 0.43861103211729807 0.8825590616639543
18385000 0.44214033309563844 0.8808563034263308
18432500 0.44557274076505166 0.8792060387751918
18480000 0.4490219874417825 0.8773470030865117
18527500 0.45211610336912667 0.875798664143216
18575000 0.4554393736082905 0.8741863299170256
18622500 0.45880550919248775 0.8726349111077
18670000 0.46212342667593176 0.8708634229961366
18717500 0.4652774622072401 0.8690049836110234
18765000 0.46830246770944933 0.8674982076740531
18812500 0.4714834167525776 0.8659431055659638
18860000 0.4748872067009147 0.8643206982760953
18907500 0.47791141584283875 0.8624747199382296
18955000 0.48084967166979015 0.8607310382052911
19002500 0.4839032610180814 0.8592206281026522
19050000 0.48713629963642685 0.8576189115827599
19097500 0.49026718605649394 0.8558164064302812
19145000 0.49321248601929024 0.8541069963185084
19192500 0.49606663097892295 0.8523251432138971
19240000 0.4990095153905922 0.8509295813324954
19287500 0.5020870645590334 0.8493145920162744
19335000 0.5050778458598448 0.84747019486497
19382500 0.5078692742097648 0.8458385414443195
19430000 0.5106459832089928 0.8443093573088315
19477500 0.5134946859081242 0.8426988675350094
19525000 0.5165735457073284 0.840947974544741
19572500 0.5194232251814748 0.8390682836581649
19620000 0.5218508786597965 0.8374384867700057
19667500 0.5246264082095281 0.8358716560765223
19715000 0.5275817383979533 0.8342418755379098
19762500 0.5302642524992668 0.8324984331564133
19810000 0.5329239325323343 0.8306794161357584
19857500 0.5354276505719103 0.8289952702328033
19905000 0.5381529679349666 0.8274610189511918
19952500 0.5409017260614448 0.8258975208762692
20000000 0.5434874237788854 0.8239504742658204
