# HZ S RI R 50
1000000 0.972788701507797 -0.23670420289553473
1047500 0.9703131460819646 -0.24792689678699595
1095000 0.9671491665048537 -0.25895765294335044
1142500 0.9640097453282856 -0.26978503527491227
1190000 0.9609444195851309 -0.2808310897642286
1237500 0.9575688194210399 -0.2917848492196598
1285000 0.9542648464867135 -0.3027907572411279
1332500 0.9505791551252721 -0.3138212379341585
1380000 0.9468712554644522 -0.32481919455051717
1427500 0.9428561807198725 -0.3356762955254834
1475000 0.9391401967589185 -0.3465013741102372
1522500 0.9351394484373975 -0.35760598541091376
1570000 0.9306485154873896 -0.368497311409113
1617500 0.926263460058105 -0.37929718423241243
1665000 0.9216881625423484 -0.38992639205106
1712500 0.9171252116592902 -0.4008812839242704
1760000 0.9122308964460967 -0.41166356754572925
1807500 0.9072179741614651 -0.42244479791611067
1855000 0.902022191327925 -0.43314132714894227
1902500 0.8968087997666728 -0.44376735675316353
1950000 0.8914349002459423 -0.4545291229783298
1997500 0.8854654654243751 -0.4653323730127927
2045000 0.8801425478160374 -0.47507342666186136
2092500 0.8746602050902514 -0.4856870039853752
2140000 0.8687961508544142 -0.49623162520450237
2187500 0.8628491243875354 -0.5069703804621034
2235000 0.8563978617988925 -0.5175003501468892
2282500 0.8498004713792162 -0.5279125628652951
2330000 0.8433820728117342 -0.5380732287213896
2377500 0.8368187911466268 -0.5485265573448624
2425000 0.8299560238047905 -0.5589669523341572
2472500 0.8227733456469235 -0.5693292878708949
2520000 0.8154859326763664 -0.5792040217426553
2567500 0.8084622869357684 -0.5892245650391268
2615000 0.801060634727212 -0.5994700697248394
2662500 0.7933107801989105 -0.6096475896743407
2710000 0.7853681325442783 -0.6194571754346643
2757500 0.7773465426660388 -0.6292689106686659
2805000 0.7695621617412434 -0.6390032641635616
2852500 0.7613533576458041 -0.6489596482384006
2900000 0.7528138099838726 -0.6588412643870122
2947500 0.7440011835765098 -0.668258986290919
2995000 0.7354408887149434 -0.6776406492030059
3042500 0.726680031434025 -0.6873221465690242
3090000 0.7175940378977331 -0.6968209919665611
3137500 0.7079944849703136 -0.7062907840193856
3185000 0.698435953203706 -0.715278909620885
3232500 0.6891760781641214 -0.7244022469608415
3280000 0.6793614311413355 -0.7335944139951834
3327500 0.6689438173201409 -0.7428756079436308
3375000 0.6586813187651027 -0.7507794272106999
3422500 0.6495842651005999 -0.7599355665784637
3470000 0.6393092896752832 -0.7686945758508869
3517500 0.6288459848236589 -0.7777058435440821
3565000 0.6178139149047382 -0.7862734668469561
3612500 0.6066404042019912 -0.7945664914271641
3660000 0.59597548961063 -0.8027002030528416
3707500 0.5846894329106807 -0.8109202139067458
3755000 0.5732694280258431 -0.8193130291524382
3802500 0.561464907915805 -0.8270629348204958
3850000 0.5497712751774069 -0.8347241731724089
3897500 0.5380765269397209 -0.8424218880155325
3945000 0.525981303814774 -0.8500936209557916
3992500 0.5135782680938143 -0.8577662293594396
4040000 0.5008925131350087 -0.8647939381362783
4087500 0.488559132974608 -0.8716100801151658
4135000 0.4760397069551746 -0.8786673366929787
4182500 0.4629973666915672 -0.8857692237435755
4230000 0.4496593103778603 -0.8925293699844339
4277500 0.4363540574625585 -0.8988111344114307
4325000 0.42314377119002206 -0.9049220541139402
4372500 0.4098706459022375 -0.9113761855704913
4420000 0.39575185641184646 -0.9174037156085886
4467500 0.38179821270542746 -0.9231880186169488
4515000 0.36768743634601264 -0.9284066972677459
4562500 0.35374911446884605 -0.9339558964354066
4610000 0.3395069930063515 -0.9395733421784842
4657500 0.32477283888186936 -0.9447288147083531
4705000 0.30982634933281106 -0.949232649238439
4752500 0.29511435615254805 -0.9537027604206721
4800000 0.28034247012090835 -0.9583685304830037
4847500 0.26506525624521254 -0.9627121085030599
4895000 0.24951616992490405 -0.9667034951922496
4942500 0.23420247997219792 -0.9700245293166921
4990000 0.21875812220588634 -0.9735592873904475
5037500 0.2027013061419582 -0.9767693971682858
5085000 0.18748128073284095 -0.9797627756643328
5132500 0.1717040380194026 -0.9828660941093289
5180000 0.1558228406774604 -0.9853241051694125
5227500 0.1396714867060417 -0.9877190023153805
5275000 0.12346100444495083 -0.9901588871837256
5322500 0.10673797873700065 -0.9918759645541693
5370000 0.09029086161266407 -0.9932659454286433
5417500 0.07396452653524971 -0.9942695163017053
5465000 0.05739560452176588 -0.9955661774626212
5512500 0.040414944149241634 -0.996554329841119
5560000 0.02332589546573683 -0.9967175385774475
5607500 0.006401036596046615 -0.9967281936739919
5655000 -0.010362072327704492 -0.9967043704389615
5702500 -0.027557085318968545 -0.9963905650123734
5750000 -0.04492553442832633 -0.9956709232128166
5797500 -0.062240871883864415 -0.9944883941914653
5845000 -0.07913273961034577 -0.9930288592136912
5892500 -0.09643509532440744 -0.9917549604675792
5940000 -0.11411932029275763 -0.9897847923433849
5987500 -0.13166843971701198 -0.9874595379330505
6035000 -0.14903416802174696 -0.9845433419217029
6082500 -0.16627483629594123 -0.9817715560149812
6130000 -0.18382777164316846 -0.9787215486479458
6177500 -0.20150110502416368 -0.9752647304801999
6225000 -0.21915183639287558 -0.9710720353544601
6272500 -0.23638050438271618 -0.9666080655872995
6320000 -0.2537882711272776 -0.9624543703889505
6367500 -0.27125665474882704 -0.9576246135019095
6415000 -0.2890010641694126 -0.9523684861877074
6462500 -0.3064547581530255 -0.9465175916805368
6510000 -0.3235807650135518 -0.9405194682680942
6557500 -0.3408347768168986 -0.9344637401926573
6605000 -0.35834626798778396 -0.927944487092214
6652500 -0.3755889361977332 -0.9207865856917972
6700000 -0.3924822915856859 -0.9133788458276931
6747500 -0.40932503543312915 -0.9059498783867826
6795000 -0.4263983676819669 -0.898088564989021
6842500 -0.44340384740023725 -0.8896395409234833
6890000 -0.4602086523299757 -0.8809459311469078
6937500 -0.4767001769312103 -0.8718440180711945
6985000 -0.4929507805970445 -0.8626670712339534
7032500 -0.5095838909291166 -0.8530266037011098
7080000 -0.52582878799546 -0.8429912646528053
7127500 -0.5417874561427537 -0.8323573465707659
7175000 -0.5574790421876449 -0.8217927924980623
7222500 -0.5732905537394678 -0.8110072403080306
7270000 -0.5890419288435352 -0.7995832155827906
7317500 -0.6043028928965691 -0.7877331641632844
7365000 -0.6194063090049479 -0.775715275741147
7412500 -0.6342741946772523 -0.7634819550456261
7460000 -0.6492806710421167 -0.7509288318758399
7507500 -0.6637465308933823 -0.7378855938990104
7555000 -0.6778762114202038 -0.7245255005460166
7602500 -0.691910854101944 -0.7110385449066232
7650000 -0.7056262031376052 -0.6972776797599125
7697500 -0.7195194482884629 -0.6831621729395843
7745000 -0.7327930406853072 -0.6686500104534446
7792500 -0.7458086283840135 -0.6538935925411443
7840000 -0.758501098427074 -0.6389472241322726
7887500 -0.7710105128039898 -0.6235861078908975
7935000 -0.7833271257706856 -0.6081300562739884
7982500 -0.7952018039134238 -0.5921694382069912
8030000 -0.8066113776542854 -0.5761646930639295
8077500 -0.8179997027850274 -0.5599288385047476
8125000 -0.8290300297480252 -0.5434368349062532
8172500 -0.8395332954009909 -0.5263778392174372
8220000 -0.8499524664605449 -0.5094370615977465
8267500 -0.8599874661707383 -0.49220557199394255
8315000 -0.86978807759337 -0.4747397758186422
8362500 -0.8791761237995577 -0.4569602496965691
8410000 -0.8882050157117355 -0.4388695799512406
8457500 -0.8967355719612233 -0.4207391131110529
8505000 -0.9051061223054115 -0.40242773742742016
8552500 -0.9130443197519651 -0.38386267764741777
8600000 -0.9206327181503918 -0.3649423783025593
8647500 -0.927794662396816 -0.34597729375016834
8695000 -0.9346003676751656 -0.32677512987958857
8742500 -0.9410928279145865 -0.30740268538013393
8790000 -0.9472619305290488 -0.2877405046485561
8837500 -0.9528870259065023 -0.26781257838829947
8885000 -0.9581659525115997 -0.24771372532557298
8932500 -0.9629735947901207 -0.2274342957228286
8980000 -0.9674950503507483 -0.20687407073466754
9027500 -0.9714852875740371 -0.1859682161582846
9075000 -0.9750543337462416 -0.16485067073352216
9122500 -0.978201625267255 -0.14350313746394391
9170000 -0.9809514550886731 -0.12171696400247581
9217500 -0.9831441878081579 -0.09955060651707107
9265000 -0.9848110639299944 -0.07682453230491837
9312500 -0.9858762751431206 -0.05375531441169676
9360000 -0.9864021155830064 -0.03014944665350677
9407500 -0.9862190822494298 -0.005642860418355836
9455000 -0.9850800290614423 0.01950647697531576
9502500 -0.9834126884465143 0.045776377874553985
9550000 -0.9805969291127454 0.0732397747391073
9597500 -0.9764180324529824 0.10230839534664686
9645000 -0.9705669826945733 0.133338007900279
9692500 -0.9625888288649103 0.16684781926825257
9740000 -0.9515307161261308 0.20371864685401142
9787500 -0.9359877692691864 0.24510535606906553
9835000 -0.9134881515042683 0.29250277526582125
9882500 -0.8790758463071704 0.34793063146420283
9930000 -0.8237407965981891 0.41399852044847
9977500 -0.7261956369439015 0.490221222025052
10025000 -0.541566577627246 0.5548836864053187
10072500 -0.2119582575209968 0.48450362307344164
10120000 0.012181304639745542 0.011290968605633174
10167500 -0.32718060519477504 -0.3923969639853653
10215000 -0.6655460500353743 -0.3750730663404368
10262500 -0.8270092273820514 -0.2626865679108353
10310000 -0.9007358421868514 -0.16284207983256527
10357500 -0.936469024837477 -0.08432541565616458
10405000 -0.9545302093902848 -0.022141048086227313
10452500 -0.9633804109839792 0.028638503752220067
10500000 -0.9671456076828663 0.07136702419286745
10547500 -0.968093205096304 0.10837094504747889
10595000 -0.9669862992124245 0.1412671905598044
10642500 -0.9645321542304425 0.17090922009350396
10690000 -0.9611469553701257 0.19798891320666337
10737500 -0.9570968432507911 0.2230050417707259
10785000 -0.9525528140430085 0.246316283081633
10832500 -0.9475256623691954 0.2684556597056747
10880000 -0.9421140573522248 0.2893977699059107
10927500 -0.9363929472925271 0.30940413021352375
10975000 -0.9303656028297547 0.32841627788909317
11022500 -0.9242699708982977 0.3467366845396142
11070000 -0.9177886724409309 0.3643812597395474
11117500 -0.9112743817766553 0.3815355263546323
11165000 -0.9044143865781962 0.3980414338432744
11212500 -0.8974928813691717 0.41402949772792885
11260000 -0.8904543849182149 0.4294342585756694
11307500 -0.8832454172580738 0.4447582609998817
11355000 -0.8757248551564427 0.45944790794812945
11402500 -0.8681893510024669 0.4738162002536946
11450000 -0.8606668825741342 0.48765269636793446
11497500 -0.8529277856689818 0.5012545439776749
11545000 -0.8451529936105774 0.5147694078587663
11592500 -0.8371097880193903 0.5276099932130839
11640000 -0.8290844019023907 0.5402382112999778
11687500 -0.8210072122844432 0.5526174423279785
11735000 -0.8128552158369838 0.5648069210977509
11782500 -0.8044830652479854 0.5766187167131344
11830000 -0.7960127751662163 0.588136566103638
11877500 -0.7877415490513511 0.5994738612657384
11925000 -0.7792859533726527 0.610495958463633
11972500 -0.7706414084345955 0.6213496167955532
12020000 -0.7620083014501756 0.6319355505708587
12067500 -0.7534020743006886 0.6422408014795212
12115000 -0.744683743960669 0.6522302242354858
12162500 -0.7359885955550315 0.6622959587034563
12210000 -0.726960221193376 0.6719698989508339
12257500 -0.7180899693970036 0.681444952852097
12305000 -0.7092169170659288 0.6904071506508755
12352500 -0.7004545386711696 0.6995859596734795
12400000 -0.6915242389619826 0.7084618729884351
12447500 -0.6824538938926653 0.7171487759048311
12495000 -0.673394751619607 0.7254904733274358
12542500 -0.6645015133366746 0.7336182323795523
12590000 -0.6555644629701148 0.7416495436339213
12637500 -0.6465099325991632 0.7496605658580447
12685000 -0.637358581974914 0.7572832747649895
12732500 -0.6281609810315758 0.7646947729676257
12780000 -0.6192533804076213 0.7719376218621461
12827500 -0.6103168924317436 0.7791595395509076
12875000 -0.601109223915935 0.7862274247423142
12922500 -0.5919051639472188 0.7930147793227912
12970000 -0.5830089560624787 0.7995759169681139
13017500 -0.5740546824491795 0.8060325136044705
13065000 -0.5649067609869138 0.8126588800666871
13112500 -0.5556973457618495 0.8186948067706223
13160000 -0.5466620472413959 0.8246351822448904
13207500 -0.5378457581635124 0.8305605521859869
13255000 -0.5288137430613757 0.8362603102988168
13302500 -0.5196626679977331 0.841768511704601
13350000 -0.5108291382678777 0.8471681131879724
13397500 -0.5018825770689016 0.852349811338871
13445000 -0.49292448288588814 0.8576603746332129
13492500 -0.4839821116000913 0.8627517026584268
13540000 -0.475134836944573 0.8675002165868395
13587500 -0.4662755990936284 0.8721736261452118
13635000 -0.45744453615164465 0.8768357820761729
13682500 -0.44855459858676844 0.8814569450502738
13730000 -0.4397810786775125 0.8855106774677174
13777500 -0.431287708975061 0.8897498506954693
13825000 -0.42263124543010305 0.8939553718256271
13872500 -0.41380209960682673 0.8980948948580315
13920000 -0.4050695093020164 0.9021958550643969
13967500 -0.3963575601669811 0.9060016052751242
14015000 -0.38790480104666664 0.9092672196012016
14062500 -0.379504789330927 0.9127467364444981
14110000 -0.37095307361293534 0.9162843994644742
14157500 -0.3623890589921711 0.9195552528815073
14205000 -0.35396402928674264 0.9226053346885672
14252500 -0.3458282179525754 0.9258229715488094
14300000 -0.33737582222598156 0.9288519320582703
14347500 -0.32897837550543363 0.9318476069855894
14395000 -0.3207570780506394 0.9346034959369313
14442500 -0.31268693954814586 0.9371004634229894
14490000 -0.3044688303257664 0.9399952629569339
14537500 -0.2963190986456979 0.9425629889569027
14585000 -0.28812882400577855 0.9450578703658916
14632500 -0.2801526551984487 0.947344816386644
14680000 -0.27233323216196337 0.949555765555745
14727500 -0.26433526395566975 0.9519570027111502
14775000 -0.2563489059254577 0.9540835887290269
14822500 -0.24833026644475928 0.9560019998818791
14870000 -0.24056558554146246 0.9578130393646664
14917500 -0.23289154566533485 0.9597317272932191
14965000 -0.22517233521566432 0.9617137162100446
15012500 -0.21732536404889458 0.9633811118799734
15060000 -0.2097892116105548 0.9649978551230526
15107500 -0.20232417631519292 0.9665109990468649
15155000 -0.1947710397508283 0.9681319315577914
15202500 -0.1871165829387878 0.9696064790484431
15250000 -0.1796866867126819 0.9708640338696668
15297500 -0.1724479147304482 0.9721108811213724
15345000 -0.1650392536947961 0.9733553276517858
15392500 -0.1576811123434421 0.9745167961322954
15440000 -0.15039182523972489 0.9758323385333754
15487500 -0.14320431645443063 0.9767017127572574
15535000 -0.13616841350034264 0.9776390455794085
15582500 -0.12905882631651816 0.9785775548096565
15630000 -0.12185867608083964 0.9796483730896774
15677500 -0.11483553973911666 0.980318389969963
15725000 -0.10783209443714223 0.9809961844717449
15772500 -0.10106094863647319 0.9815898205870822
15820000 -0.09415820307053108 0.9823764699160291
15867500 -0.08736019044716611 0.9830351880028387
15915000 -0.08037691113681719 0.9834459262831787
15962500 -0.07391664840845256 0.9840133018194518
16010000 -0.0670024981416725 0.9846236098323129
16057500 -0.060323586638053955 0.9850060508139229
16105000 -0.05367673481975894 0.9853080688184943
16152500 -0.04721980418763112 0.9856792279988487
16200000 -0.04070060978792093 0.9859965239314491
16247500 -0.034221151828408555 0.9861229867351873
16295000 -0.027588102638846645 0.9864353364691931
16342500 -0.02136890656197446 0.9864885676010229
16390000 -0.01517430219222694 0.9866048627273039
16437500 -0.008670345905986757 0.9867852425696152
16485000 -0.002436045185720141 0.9868483803309157
16532500 0.003657319726069427 0.9868198451887363
16580000 0.009875989151544052 0.9866402620694464
16627500 0.015875427815735657 0.9866698688807622
16675000 0.022162042897488254 0.9865004182947298
16722500 0.02805122875942269 0.9863110640633146
16770000 0.03399514401137965 0.9860408266396248
16817500 0.03985895532725998 0.985678244359421
16865000 0.04580517159056568 0.9856050447745333
16912500 0.05173285039467992 0.9853660494053659
16960000 0.057546328574937286 0.9849571507995534
17007500 0.06330120986162173 0.9846127689065661
17055000 0.06895390889305666 0.9842955765630196
17102500 0.07472211864700887 0.983752017136094
17150000 0.08032443558078337 0.983484577444237
17197500 0.0860030207583157 0.9828180868012782
17245000 0.09145807533397125 0.9823865472685005
17292500 0.09695742670098348 0.9820732649981451
17340000 0.10252691880241821 0.9814173870313381
17387500 0.10793383589025937 0.9807213779220376
17435000 0.11335254651064786 0.9801592344251534
17482500 0.11864555303526485 0.9794241289088981
17530000 0.1240813219389572 0.9788696977195881
17577500 0.12922898413352601 0.9781563158032341
17625000 0.13442904197292754 0.9773318474540587
17672500 0.1396847017113153 0.976592166792419
17720000 0.14476614817001113 0.97602585994312
17767500 0.15001576622204255 0.9751657864391562
17815000 0.15522337370500724 0.9742892367891224
17862500 0.1601681161674684 0.9734442620270953
17910000 0.1651742172382866 0.9727954276565067
17957500 0.17019607934704795 0.9720013275831614
18005000 0.17514336926537488 0.9710054176645877
18052500 0.18002418426994604 0.9701251313130347
18100000 0.18478493875664198 0.9691587041747721
18147500 0.18959378694461934 0.9681694676430975
18195000 0.19454092589021096 0.9674482294808329
18242500 0.19923066624612332 0.9663333552214564
18290000 0.20401749923803675 0.9653806684482283
18337500 0.20852066054403529 0.9645320423736679
18385000 0.21326225849556477 0.9635079917241971
18432500 0.2179125246216282 0.9624973717916679
18480000 0.2226557343332537 0.9613401289691542
18527500 0.2269891326729135 0.9602447937531056
18575000 0.23158958760056683 0.9592379018133365
18622500 0.23603512521108513 0.958346538212939
18670000 0.24063082832675223 0.9572354012337979
18717500 0.24503057915070048 0.9560853248678064
18765000 0.2492679267029944 0.9549528060036406
18812500 0.25362523652950525 0.9538539059628954
18860000 0.2580905811416936 0.9528418883120177
18907500 0.2623469228416427 0.9515488720610193
18955000 0.26651867850368155 0.950276106183517
19002500 0.27072772972775727 0.9491879026866283
19050000 0.2750550482732428 0.9481289758837941
19097500 0.2792988102646662 0.9468691287195022
19145000 0.2834439643197049 0.9455772780719507
19192500 0.2874981021637266 0.9444439303660019
19240000 0.29143718006886354 0.9432428515803036
19287500 0.29569980491693987 0.9421042879357713
19335000 0.2997217247687383 0.9407145251999807
19382500 0.3035810778356352 0.9395379076889706
19430000 0.30757048932437564 0.9383822425988517
19477500 0.3114753985999486 0.937223909542522
19525000 0.31556708786219956 0.9358562167020524
19572500 0.31953821101977725 0.9344178605359618
19620000 0.3232075613042441 0.9331331132584171
19667500 0.32692591505073937 0.931817199808334
19715000 0.3308411346460433 0.9305833291017975
19762500 0.3345850878280012 0.9291626545117224
19810000 0.3383655436536483 0.9278291011843857
19857500 0.3419598184987401 0.9264688489438355
19905000 0.34565552155271073 0.9253023595449502
19952500 0.34947940213158757 0.9240764039773808
20000000 0.35317076018913274 0.9224065194056055
