# HZ S RI R 50
1000000 -0.9766163572069679 0.1952910063645802
1047500 -0.9747637218081829 0.2041422826199463
1095000 -0.9726421980760469 0.2131073369366951
1142500 -0.9705215529099651 0.2220621290163579
1190000 -0.9682572552298021 0.23114483254772153
1237500 -0.9660726575469877 0.2398252003680224
1285000 -0.9635933936259364 0.24843893991910615
1332500 -0.9612696727210646 0.2571700116325628
1380000 -0.9588613880552141 0.26619273127716914
1427500 -0.9561261169654726 0.2753305415965139
1475000 -0.9534002581772867 0.28391677643074364
1522500 -0.9507910065499291 0.29216002147855913
1570000 -0.9481117267045004 0.3006961065502723
1617500 -0.9452265194536182 0.3094480007915476
1665000 -0.9421135900728526 0.318055165030093
1712500 -0.9389739271101772 0.3263953750464313
1760000 -0.9359750562356082 0.3350400679411261
1807500 -0.9326501157470171 0.34424676576298874
1855000 -0.9291382310660027 0.3527405455034688
1902500 -0.9259968055370187 0.36073934911211475
1950000 -0.9228874627220683 0.36865495680803884
1997500 -0.9193700278096704 0.37701472808911085
2045000 -0.9158589373496376 0.3851493029106897
2092500 -0.9122562392104215 0.393151948098897
2140000 -0.9086580064878598 0.4013245894776333
2187500 -0.9050091346867263 0.4095138338553874
2235000 -0.9010559863936559 0.4176695390011965
2282500 -0.89719497358915 0.4255523361587779
2330000 -0.893306587501765 0.43365415101634114
2377500 -0.889216972283669 0.4416773229512687
2425000 -0.8849296979388451 0.4497789057914764
2472500 -0.8806868378556312 0.45787833340839224
2520000 -0.8762877546340516 0.4662651295673649
2567500 -0.8716465900625068 0.47448801213539454
2615000 -0.8673172946701873 0.4820213396601246
2662500 -0.8632760488392992 0.48901657960121153
2710000 -0.8591959865747741 0.4963319698633347
2757500 -0.8546755837708758 0.5038011675333236
2805000 -0.850059351736844 0.5109906425446625
2852500 -0.8455687004306494 0.5181779180563811
2900000 -0.8409820125146826 0.5256672795636623
2947500 -0.8362189429836572 0.5329950653183602
2995000 -0.8312646211744913 0.5401730169518425
3042500 -0.826548965929327 0.5472497419422527
3090000 -0.8218387424076458 0.5543520955510917
3137500 -0.8169125216008186 0.5617582817022502
3185000 -0.8116059337216935 0.5687512539091465
3232500 -0.80651502944241 0.5756848733328034
3280000 -0.8016650807111445 0.5826852570075464
3327500 -0.7964459509842398 0.5898418493805444
3375000 -0.7909839416685811 0.5966111191768529
3422500 -0.785566267895529 0.6032002255391354
3470000 -0.7805405695343496 0.6099317969795219
3517500 -0.7752648454238362 0.6167444070923312
3565000 -0.7696869412795546 0.62347264505942
3612500 -0.7639474885068311 0.6298792105751128
3660000 -0.7585971357938499 0.6362989040221099
3707500 -0.7531740496201821 0.642767391148884
3755000 -0.7473920835162756 0.649386042682171
3802500 -0.7416033992323932 0.6555551180588899
3850000 -0.7360083545833566 0.6617918558215193
3897500 -0.7303907123535854 0.6683446157681708
3945000 -0.7244020222753773 0.6746974654202986
3992500 -0.7183175483260057 0.6808183797347431
4040000 -0.7123104160641056 0.6869645241512968
4087500 -0.7063942144034658 0.6934539594605388
4135000 -0.6999153942487466 0.7001165229751298
4182500 -0.6932596118430566 0.7065624643368802
4230000 -0.6866523735922928 0.7128345457900988
4277500 -0.6802727689843705 0.7188931474588903
4325000 -0.6739508860361777 0.724329070104773
4372500 -0.6681035122062957 0.7294919308918745
4420000 -0.6625000018792498 0.7342597576682605
4467500 -0.656792603781651 0.7393845761935292
4515000 -0.6510301061515082 0.7444998734500212
4562500 -0.644924381665365 0.7492856682464784
4610000 -0.6386783990107165 0.7543349267537095
4657500 -0.6325188844014006 0.7593135798825427
4705000 -0.6264269875116958 0.7644257456775216
4752500 -0.6200178377950862 0.7692766372189307
4800000 -0.6136372183079609 0.7741329970220612
4847500 -0.6072327738467992 0.7790343176991804
4895000 -0.6007639683293644 0.7843035271896475
4942500 -0.5941963922771972 0.7887525534925779
4990000 -0.5877597102212517 0.7933426543357018
5037500 -0.5813112095845524 0.7980466862181195
5085000 -0.5746696206841952 0.8027565832280144
5132500 -0.5679874131707914 0.8073706026877108
5180000 -0.5613050647469693 0.811735113812872
5227500 -0.5547775349393327 0.816078236498957
5275000 -0.5482058272058018 0.8205448760991575
5322500 -0.5414003295002732 0.8251334202550442
5370000 -0.5344819724966328 0.8294078215399042
5417500 -0.5278943098427836 0.8331755466488094
5465000 -0.5212337880320187 0.8373947538099668
5512500 -0.5143188597405155 0.8416746680307651
5560000 -0.5073955394826262 0.8457012384072103
5607500 -0.5005360009102314 0.8494617804896489
5655000 -0.4938090519109111 0.8532029398748392
5702500 -0.4869422195238844 0.8572540233789996
5750000 -0.47990319790417685 0.8613101962832894
5797500 -0.47276488778224757 0.8648375290426857
5845000 -0.46610535248196383 0.8681469837933088
5892500 -0.45937142588348207 0.8721575450261563
5940000 -0.4522294366404445 0.8759548905556424
5987500 -0.44501430490017735 0.8790583143741255
6035000 -0.4381545750593993 0.8821182050867075
6082500 -0.43122819807712864 0.885540706968512
6130000 -0.4243483010690572 0.8890854573030315
6177500 -0.41718145637404064 0.8923119400820789
6225000 -0.4099618185700692 0.8952397753012715
6272500 -0.40310970554541814 0.8984881276370624
6320000 -0.396208441303215 0.9019272767263201
6367500 -0.3888105451370079 0.9050841930409894
6415000 -0.3814450913512116 0.9081177331988837
6462500 -0.37441577226544465 0.9111569027320655
6510000 -0.3672850275424254 0.9142977507202364
6557500 -0.3599537631707439 0.9173041623962372
6605000 -0.3525811757648289 0.9200847313283563
6652500 -0.34529482064441347 0.9228448563719619
6700000 -0.3382780764947997 0.9249166727673204
6747500 -0.33104646321316555 0.9275790299494044
6795000 -0.32356909898963376 0.9301530231448225
6842500 -0.3161907351021799 0.9324096335677722
6890000 -0.30898592047587553 0.9343789608001333
6937500 -0.30193268728325307 0.9367788508154054
6985000 -0.294681507727083 0.9393306423274511
7032500 -0.2870955476458966 0.9416746494795839
7080000 -0.2797550486874506 0.9434043241621864
7127500 -0.27264556733282647 0.9452998956197531
7175000 -0.26527947866828727 0.9474116837023103
7222500 -0.25783542362691697 0.9493620413662259
7270000 -0.25036649746416384 0.9509351713634763
7317500 -0.243116784341722 0.9526840533817141
7365000 -0.23582029448185204 0.9546359758352146
7412500 -0.22835005479954293 0.9566511234645843
7460000 -0.22094847851874103 0.9583175779451025
7507500 -0.21346441919218292 0.9601163858759224
7555000 -0.20599516523703376 0.9613849721304837
7602500 -0.1987463516018267 0.9627942079861603
7650000 -0.19127004062836753 0.9641692860302905
7697500 -0.1836461488403483 0.9653979129276123
7745000 -0.17627747762445015 0.9664604292754327
7792500 -0.16886068540606272 0.9677842273530245
7840000 -0.1611991821197443 0.9691116497739396
7887500 -0.15378826084113212 0.9700786906798816
7935000 -0.14627206117141758 0.9712135688523036
7982500 -0.13893154530898366 0.9723256958182689
8030000 -0.13123125836622523 0.9733643272517886
8077500 -0.123604491626674 0.9744415897552241
8125000 -0.11600324105628813 0.9753582103184948
8172500 -0.10858495071394807 0.9763693976214544
8220000 -0.10084676524231899 0.9769523176297276
8267500 -0.09328026756015184 0.9774949508210493
8315000 -0.08545040460196177 0.9780018680117512
8362500 -0.07781443478646498 0.9784306436962745
8410000 -0.07026615879366964 0.9787243731412923
8457500 -0.06260693390554127 0.9793576961473281
8505000 -0.05480984657051573 0.9798217836065044
8552500 -0.047052285344382154 0.9800911951492774
8600000 -0.039304614704376774 0.9804636399185246
8647500 -0.03158507271504568 0.9810563668419009
8695000 -0.023617630484645803 0.9814425571953864
8742500 -0.01564716556029293 0.9810313244415834
8790000 -0.007778982985044795 0.9809161981808953
8837500 -1.8562042521098282e-05 0.9809201058487497
8885000 0.007820525673775888 0.9808581509019242
8932500 0.015719237216057717 0.980704025755472
8980000 0.023769699270499448 0.9805776285739316
9027500 0.03178380269522951 0.9803393090639094
9075000 0.039829964685393314 0.9804184820821205
9122500 0.047935603062613456 0.9792676527336567
9170000 0.05602175706069371 0.9785318764216181
9217500 0.06414807853274715 0.9778103963481233
9265000 0.07209121050186554 0.9770666091554844
9312500 0.08036498646685933 0.9763585126135466
9360000 0.08858943075576844 0.9757633819299726
9407500 0.09700149083377853 0.9748205295912538
9455000 0.10536632388691466 0.9736654724205048
9502500 0.11355687118968467 0.9727086866678817
9550000 0.12199388195330413 0.971726597839768
9597500 0.13054996469836433 0.970559653249045
9645000 0.13907432030611147 0.9692492581358094
9692500 0.14770469899255287 0.967822956590753
9740000 0.15626436773357066 0.9664095207056624
9787500 0.1649699709864492 0.9646771139310256
9835000 0.17375478973919667 0.9629928008458245
9882500 0.18265098836488258 0.9612097510090154
9930000 0.19160595010160214 0.9594743418527104
9977500 0.20064030503082866 0.9576193940745342
10025000 0.2098479700191736 0.9556291905154325
10072500 0.2189858913819242 0.9534045510485452
10120000 0.22838164345307901 0.9509726993857169
10167500 0.23767796240773864 0.9485783364024913
10215000 0.24723881673550918 0.9462836906248066
10262500 0.2568811230592931 0.9437679926922521
10310000 0.2664971671162284 0.9404937444136938
10357500 0.27631573632147616 0.9371840915208078
10405000 0.28625163001322074 0.9339482144703698
10452500 0.2963257334128448 0.9304464907339923
10500000 0.3064668062283772 0.9269223454477301
10547500 0.3168314746522999 0.9232006183381346
10595000 0.32719413078768167 0.919298797537048
10642500 0.33797455227836287 0.9152302223359673
10690000 0.3486217106284909 0.9108824563556425
10737500 0.35961925985296883 0.9062912870575056
10785000 0.3706966608134817 0.9013342280710831
10832500 0.3822462334560988 0.8962505582862555
10880000 0.3937332701973429 0.8907921627888942
10927500 0.40551540038933864 0.885185833930401
10975000 0.41741382147705847 0.8790951217576066
11022500 0.4296614148841152 0.8726225076514886
11070000 0.4422385891961755 0.8656738762497329
11117500 0.45487648897964594 0.8585654509862317
11165000 0.46804650589048674 0.851004783112989
11212500 0.4813313472843546 0.8428955453533727
11260000 0.49502248782310265 0.8344427202132415
11307500 0.5090246102201689 0.82521787096119
11355000 0.5232539014612635 0.815525324984162
11402500 0.5379793222370577 0.8049585192706984
11450000 0.5530479457620171 0.7933192348777321
11497500 0.5684750495491971 0.7810284944391208
11545000 0.5841893424797674 0.7679534883274983
11592500 0.6004745792031719 0.7538380928902733
11640000 0.6171090625576079 0.7386669469576781
11687500 0.6342896304446092 0.7219861172749936
11735000 0.6517031861339245 0.7041186964058778
11782500 0.6696637847986394 0.6847187769784221
11830000 0.6880151271580643 0.6635215475678005
11877500 0.7065552411388467 0.6402915840774763
11925000 0.7253753549934753 0.6149130908896328
11972500 0.7444482810031405 0.5870304542794501
12020000 0.7636136839596561 0.5563178220510683
12067500 0.7829016718413654 0.522463725957651
12115000 0.8015233311661621 0.48493969642865536
12162500 0.8194118427587779 0.4433668142938741
12210000 0.8364170811148577 0.39737283832610365
12257500 0.8517242653563794 0.34614269059633757
12305000 0.8645042288631598 0.2888942937411986
12352500 0.8735075268723598 0.22567971876485304
12400000 0.8775894553238606 0.15576384625040696
12447500 0.8751597031153934 0.07846550714421464
12495000 0.8638848524940591 -0.006386865308797655
12542500 0.8409046116637849 -0.09827969576154524
12590000 0.8032004328795811 -0.19586964593913841
12637500 0.7475295105935196 -0.2971293588817419
12685000 0.670561305799347 -0.39862839757536206
12732500 0.5695494273722277 -0.4944959649819029
12780000 0.4437263563467088 -0.5776059241660537
12827500 0.29515002881333013 -0.6396315174297061
12875000 0.12907217289056863 -0.6727664166945174
12922500 -0.04580028377748011 -0.6708693863891999
12970000 -0.21816228449981154 -0.6311668203547006
13017500 -0.37664213042487904 -0.5563422046623707
13065000 -0.5116226555946664 -0.4531366411350237
13112500 -0.6177222387290717 -0.33065216437760664
13160000 -0.6933981561580425 -0.19900424181032
13207500 -0.7405048875727709 -0.06673790840606574
13255000 -0.7632887272048428 0.059699051489862674
13302500 -0.7665555371724558 0.17652839869623804
13350000 -0.754903829697161 0.28169759058603655
13397500 -0.732497497657919 0.37446999301605527
13445000 -0.7029673295910946 0.4550587768422675
13492500 -0.6691877012762854 0.5247140948918385
13540000 -0.6328059582179669 0.5842611867414669
13587500 -0.5956183251289349 0.6351430201845312
13635000 -0.5587386890704278 0.6781944413160622
13682500 -0.5230204382203236 0.7147170675254799
13730000 -0.48897064464008216 0.7461274015779082
13777500 -0.4565527246802941 0.7732446165886897
13825000 -0.4259270654188888 0.7970929949804115
13872500 -0.39717752779750454 0.8183549604254672
13920000 -0.36951367624441867 0.8377283582090064
13967500 -0.3425353033398685 0.8551237879582506
14015000 -0.3164964110560727 0.8706746758783789
14062500 -0.2914581755256277 0.8846082422060049
14110000 -0.2670361220412689 0.896742317660847
14157500 -0.2432133847393954 0.9075300905568091
14205000 -0.22040111175238167 0.9167251942076894
14252500 -0.19850849239922067 0.9250334133377993
14300000 -0.177471971797208 0.9320273247314145
14347500 -0.1570370173473216 0.9381960770450808
14395000 -0.137577221307384 0.9432080064234117
14442500 -0.11886003426491207 0.9474619680328604
14490000 -0.10110699133784314 0.9514494101185569
14537500 -0.08368638381514443 0.9546575977215523
14585000 -0.06696997369174228 0.9573110432753336
14632500 -0.05118903693713779 0.95948103614304
14680000 -0.03607970603714957 0.9613194096366079
14727500 -0.021247198360878784 0.962885251693238
14775000 -0.006908294802742266 0.9639684909643672
14822500 0.006875923570860935 0.9646535992093304
14870000 0.019921270617395688 0.9654326778177187
14917500 0.03280242146146932 0.9660485125889441
14965000 0.045236301580607666 0.9662634055158299
15012500 0.05729476698699712 0.9661516656627591
15060000 0.06881566712656119 0.9658922822315008
15107500 0.07996604264203025 0.9658626028607782
15155000 0.0911607415384176 0.965464997224835
15202500 0.10178438999340526 0.9647836188827257
15250000 0.11212974595311531 0.964097324312333
15297500 0.12212378926008155 0.9636375174396042
15345000 0.13189912280799218 0.9627749425385829
15392500 0.14147149322251526 0.9618231489871166
15440000 0.15077084098779778 0.9609315683763723
15487500 0.15977576805194701 0.9600752120910181
15535000 0.16861355729261743 0.9591902502215535
15582500 0.17731594173281015 0.9579152701250689
15630000 0.18576362057404058 0.9565941327648565
15677500 0.19397537777907572 0.955149145333038
15725000 0.20194453975796955 0.9537895216590231
15772500 0.20997657144662682 0.9523858644352188
15820000 0.2176084435339702 0.9509644918933701
15867500 0.22517355201756917 0.9495303453170839
15915000 0.23258646997213023 0.9479567714779612
15962500 0.2398494359866789 0.9464488963984747
16010000 0.2470998623881894 0.9451898070530999
16057500 0.2541306284881126 0.9437522548098984
16105000 0.26120443217042955 0.9423929254053527
16152500 0.26802097525776913 0.9402885361664672
16200000 0.27458014443792755 0.9380406017726486
16247500 0.2810116880629757 0.9360703387709599
16295000 0.28741487419536116 0.9340936756720648
16342500 0.2935524770337996 0.9321588400245483
16390000 0.29957501036287487 0.9303209789444832
16437500 0.30552904129676994 0.9285051155010087
16485000 0.31163641452881446 0.926751646074869
16532500 0.3176149388727293 0.9247844658501961
16580000 0.3233383802552651 0.9229400141581361
16627500 0.3288484891453603 0.9210612010396777
16675000 0.334717131320044 0.9193655531930139
16722500 0.34025187705629817 0.9173057684815166
16770000 0.34564590682792756 0.9153877143425401
16817500 0.35089507105116535 0.913498712563073
16865000 0.3561094734645399 0.9118985511635306
16912500 0.36141873910214667 0.9098300872230319
16960000 0.36678464912851727 0.9078581459508799
17007500 0.3716093110347728 0.9057395632457226
17055000 0.376542832829596 0.9039560555544575
17102500 0.38167341672331406 0.9022463894083019
17150000 0.3865933457085529 0.8999934908083107
17197500 0.3913330199819936 0.8980121723096317
17245000 0.3958651412142175 0.8961002134832873
17292500 0.4006571201396406 0.8944030029350907
17340000 0.4054518883206889 0.892269874151846
17387500 0.41021706690508847 0.8900727615193599
17435000 0.4143380731864545 0.8881798390489022
17482500 0.4189608575745518 0.8862781787789604
17530000 0.42358870802181087 0.8842384699980382
17577500 0.4279621442774228 0.8822612141140086
17625000 0.43226921016837033 0.8798208658695745
17672500 0.4363234888369013 0.8779239336703312
17720000 0.44083142344036286 0.8761704465250102
17767500 0.4450055254528152 0.8740755998463738
17815000 0.4492979533971209 0.8719974094360325
17862500 0.4530998334101941 0.8697555660395861
17910000 0.4573032594595171 0.8679734525339072
17957500 0.4613302636093581 0.8659647051756337
18005000 0.46542493760625053 0.8639748371922388
18052500 0.4693371865074916 0.8616901665189561
18100000 0.47296517020205264 0.8597799863411789
18147500 0.4767563643474553 0.857866931637416
18195000 0.48067304549660284 0.8559757110189796
18242500 0.4844412273188944 0.8538269379724663
18290000 0.4881082588686453 0.8518753244010064
18337500 0.4917212173276418 0.8498280839229986
18385000 0.49544076835873907 0.8480943785077577
18432500 0.49925927396437 0.8458988466484828
18480000 0.5028600617836141 0.8438299568507291
18527500 0.5062205767931439 0.8418232259136592
18575000 0.5098966876081035 0.8398997140676109
18622500 0.5135344948992876 0.8379133231882919
18670000 0.5170694598092086 0.8358634021922656
18717500 0.5204673229908331 0.833603165562147
18765000 0.5237617335367866 0.8315685205937181
18812500 0.5272448382830007 0.8295923471252122
18860000 0.5306756787514914 0.8275740971305183
18907500 0.5339907687253681 0.8254892921387689
18955000 0.5373241294638365 0.8235039226655182
19002500 0.5405110391364759 0.8215924758018784
19050000 0.5438844323178601 0.8194729657767826
19097500 0.5471329887477252 0.8172810992199403
19145000 0.5502755517457483 0.8149023977620724
19192500 0.5533544365448865 0.8128650404042288
19240000 0.556541678932594 0.8107763955066785
19287500 0.5597416314120301 0.8088380299602083
19335000 0.5628041207868206 0.8066862749172286
19382500 0.5657319178488011 0.8044885742876853
19430000 0.5686165580747564 0.8026826386833036
19477500 0.5717204543111036 0.8006666418565794
19525000 0.5748911862861124 0.798575321514158
19572500 0.577675555986687 0.7962526117677213
19620000 0.5805684127974498 0.7942787307061714
19667500 0.5833960314745947 0.7922877074128825
19715000 0.5864443249529023 0.7902433581979288
19762500 0.5893708915527074 0.7878989413255483
19810000 0.5922121051603755 0.7858477555903942
19857500 0.5948593710458591 0.7838906939301928
19905000 0.5977254498801705 0.781810164681214
19952500 0.6005463619651488 0.7797108373349305
20000000 0.6033053884104231 0.777526112335618
