# HZ S RI R 50
10100000 -0.021478248113880948 0.25938391791703685
10100125 -0.020719291940448872 0.257596009171209
10100250 -0.0199932109719276 0.2559554078554918
10100375 -0.019337420624100897 0.25427261493183895
10100500 -0.01857772814784153 0.25259264520037156
10100625 -0.017941713567949193 0.2509258473508535
10100750 -0.017214852504844454 0.24936023126881446
10100875 -0.016666082089506592 0.2477687821803799
10101000 -0.01608720259268574 0.2462630688874897
10101125 -0.015557696076405912 0.24472204171639106
10101250 -0.015042798921319527 0.24327247311603253
10101375 -0.0145836711993552 0.24185572953583
10101500 -0.01418891527914198 0.24044077358520802
10101625 -0.013691337794272647 0.23909505474391782
10101750 -0.013240299991573902 0.23768096649412393
10101875 -0.01281657221832053 0.23635286981926687
10102000 -0.01238478461995756 0.2350078956425276
10102125 -0.011913611925965979 0.23367134977343215
10102250 -0.011452300635825287 0.232271464964205
10102375 -0.010950058613606456 0.2308858259752619
10102500 -0.010410801315383708 0.22951009302726497
10102625 -0.009914079172587797 0.22799427963402027
10102750 -0.009361642278268799 0.22648230353842208
10102875 -0.008761540719048206 0.22493023519321892
10103000 -0.008161513080525084 0.22325338128689678
10103125 -0.0075579845878157486 0.22164959675048435
10103250 -0.007024050807433441 0.22004695709810818
10103375 -0.0065183307819713055 0.21841510148850174
10103500 -0.005954353614594106 0.21686670299317218
10103625 -0.005473335529073206 0.21534305708565615
10103750 -0.0049881476741253 0.21386404172966292
10103875 -0.004601660445360669 0.21231945112246406
10104000 -0.004150676939290761 0.210898176853087
10104125 -0.0037471824892984303 0.20945660992388776
10104250 -0.0033600423670288055 0.20805201102556592
10104375 -0.003068868262093932 0.20668489649267302
10104500 -0.0026937246254482104 0.20537949328405067
10104625 -0.0023505753668390406 0.20402518886350185
10104750 -0.0020200850521999085 0.2027799389031702
10104875 -0.001748636603106021 0.20148829181607653
10105000 -0.0014357914747913313 0.20015801766212518
10105125 -0.0010326809706943522 0.1988322250168126
10105250 -0.0006435313621381605 0.19743688342552773
10105375 -0.0002814069832381483 0.19589395060796375
10105500 0.00011975349512566599 0.19435467119262945
10105625 0.0005572622995696376 0.19275933985292062
10105750 0.0009473521175137282 0.19117968417775918
10105875 0.001369480498354045 0.18952021064175742
10106000 0.0017897624281405001 0.18795278785601402
10106125 0.0021881829254781424 0.186346431419724
10106250 0.0026306956570250023 0.1847764824456125
10106375 0.0030356823284411355 0.18325670667735927
10106500 0.003428484108148158 0.18175879640990258
10106625 0.0038315554608166916 0.18022893349208713
10106750 0.004222831819239387 0.17876646736387058
10106875 0.0045534086418392095 0.17726923566706418
10107000 0.004925745293452837 0.1758137500984726
10107125 0.00529719267947297 0.17439241352223286
10107250 0.005627734991036636 0.17302529767116603
10107375 0.005896491259038704 0.1716867692893296
10107500 0.006163111757695516 0.1703070076782315
10107625 0.006413170484762979 0.16896651330913517
10107750 0.006702315450304397 0.1675501114101862
10107875 0.006978159351286781 0.16613119119119427
10108000 0.007174760737391066 0.16465614925146294
10108125 0.007483025704651783 0.16317388335419122
10108250 0.007725790625901916 0.1616203146776845
10108375 0.007976127636716035 0.16004557890574073
10108500 0.008255721791275825 0.1584581574829308
10108625 0.008551330699300263 0.15689696116316396
10108750 0.008822687347809811 0.1553893169082623
10108875 0.00908161857640279 0.15383093680172955
10109000 0.009358792248729321 0.1523326177825349
10109125 0.009638143004834138 0.15084961247886267
10109250 0.00987156850785055 0.14934714712619745
10109375 0.010101632116509343 0.1478579328656308
10109500 0.010380513648951447 0.14641147101543237
10109625 0.010651269865869529 0.1449364126916857
10109750 0.010872764245264035 0.14340682062360982
10109875 0.011115875718234936 0.14189000650214773
10110000 0.011342575011664538 0.1405413047294666
10110125 0.011514602816475364 0.13911011663172182
10110250 0.01174924382438953 0.13767246290697058
10110375 0.011920050566307678 0.13625131969418072
10110500 0.01210045050622005 0.13480472647706657
10110625 0.012290376466874463 0.1333396704865143
10110750 0.012474662683205953 0.13185225245390045
10110875 0.012645108303386046 0.13027538120933074
10111000 0.012851150583127864 0.12874573505816786
10111125 0.01300946942877766 0.12715217585975847
10111250 0.013247154979006564 0.1256426390192015
10111375 0.013428952990801019 0.12407660721002285
10111500 0.0135998462469287 0.12253127125895416
10111625 0.013749315971289804 0.12099606190100896
10111750 0.013893552899717377 0.11944105856059169
10111875 0.014077460370928165 0.11781303151297733
10112000 0.014186119591464215 0.11621959070063105
10112125 0.014316087996510869 0.11456395017191684
10112250 0.014466720685329833 0.11287992749879365
10112375 0.01458916174075505 0.1112299490828387
10112500 0.014705110510261162 0.10961221606444398
10112625 0.014805488610448444 0.1079254657022627
10112750 0.014899299552048122 0.10634739507440673
10112875 0.015004662565069812 0.10481936914668039
10113000 0.015120688939527864 0.10336653740681381
10113125 0.015193156219771601 0.10190656233411455
10113250 0.01533586593603829 0.10046554644471888
10113375 0.015398534175221858 0.09901652505368853
10113500 0.015505612229374655 0.09755558234616207
10113625 0.015628643370461964 0.0959493666953052
10113750 0.01568022950443255 0.0944121090479757
10113875 0.015794594909409834 0.0927932590129796
10114000 0.0158900075422574 0.09117953675423601
10114125 0.015970417561713898 0.08961523716276937
10114250 0.01602606196806219 0.08803097469424966
10114375 0.01614470181795643 0.08649182090757353
10114500 0.016153713651160636 0.08489005185091204
10114625 0.016209292588155105 0.08325591192312941
10114750 0.016253983509970094 0.08162359243647242
10114875 0.016233339149403066 0.0799673967317411
10115000 0.01624894734105723 0.07835665165801181
10115125 0.01626609332534986 0.0767623051094432
10115250 0.016212129381221976 0.07514251650796297
10115375 0.016172396655460358 0.07361861827283513
10115500 0.016200080341859678 0.07208984861375906
10115625 0.01615597248647038 0.07066557031672994
10115750 0.01614682600503826 0.06925162793328743
10115875 0.016075012678477767 0.0677774327715112
10116000 0.016102843389092774 0.06638151228848362
10116125 0.016119978121875385 0.06488448357357864
10116250 0.016066159819177785 0.06335416634294777
10116375 0.016013540014731095 0.06182172722797336
10116500 0.016009753509060393 0.06021411082693017
10116625 0.01593654842563134 0.05853658974762587
10116750 0.015837317673075946 0.0569548921596132
10116875 0.015817144067366354 0.05531914123753441
10117000 0.01575288864395087 0.053654635826918685
10117125 0.0156927150060168 0.05197121443611745
10117250 0.015620693219090426 0.05028464403930954
10117375 0.01565550012979565 0.04863211793171951
10117500 0.015498441489893187 0.04698088040369255
10117625 0.015446077125756661 0.04532397145968029
10117750 0.015424084997852172 0.043650341217978936
10117875 0.01528590768331894 0.04200938935450578
10118000 0.015225372346246076 0.040370167216972536
10118125 0.015071708804237546 0.03878766508340541
10118250 0.015011278973441584 0.03721780021803863
10118375 0.014848071420450795 0.035616888040409446
10118500 0.014736092034423835 0.034021146521054216
10118625 0.014599228160739358 0.03248940344318511
10118750 0.01443221980020285 0.03098966976771883
10118875 0.014276044978090555 0.029462390803347022
10119000 0.014080210249823606 0.027893218369367423
10119125 0.013859566836113207 0.02631848430871054
10119250 0.01374992755147164 0.024768198977256628
10119375 0.013645150054065696 0.023242233931041675
10119500 0.013409469460607924 0.021668583556834615
10119625 0.013201841613009637 0.020007674022226103
10119750 0.013056468236540887 0.018350249751738774
10119875 0.012843944096497775 0.01667919333692494
10120000 0.012695448606544953 0.015022655714222514
10120125 0.012520768118681596 0.013374824102571702
10120250 0.012333477516090251 0.011673762408000795
10120375 0.012123565391322373 0.009992940622136676
10120500 0.011950594557329393 0.008326030620364737
10120625 0.011750972866539556 0.0066847408345884025
10120750 0.011529571766584444 0.005138274644891256
10120875 0.011267784170886775 0.0035577606599932216
10121000 0.01104256936647296 0.0019236663258583536
10121125 0.01076870735315439 0.00046803473144084516
10121250 0.010560305029572921 -0.001012844011794187
10121375 0.010253637846050132 -0.0025359032279863906
10121500 0.009981186407081063 -0.00402495509052559
10121625 0.009709374785878912 -0.005504018012619366
10121750 0.00945167171866883 -0.0070817703085842044
10121875 0.009217158181518371 -0.008540123014001057
10122000 0.008954698611825206 -0.010111822338867125
10122125 0.008684205775790037 -0.011682072233584952
10122250 0.008348033266436603 -0.013332360175403925
10122375 0.008120481678003557 -0.014932099113647096
10122500 0.00782961133545602 -0.01654106774049285
10122625 0.00750241081408609 -0.018216149341687127
10122750 0.007157071046405275 -0.019872058789596556
10122875 0.006912866277800992 -0.02160902907443776
10123000 0.006497665882272688 -0.023329489431427094
10123125 0.006130491655168288 -0.02501199751003909
10123250 0.005811326911126771 -0.026783596212526323
10123375 0.005466690401645182 -0.028401357972241865
10123500 0.005099700352748705 -0.03003288733022221
10123625 0.00472641603146659 -0.03170663577816616
10123750 0.004367013121581894 -0.03329035049955884
10123875 0.004036193060113352 -0.03485750515779411
10124000 0.0036636913576672953 -0.03634418292807506
10124125 0.0033225638696882595 -0.037908651828323425
10124250 0.0029360555663091735 -0.039375337724710684
10124375 0.002558531399687803 -0.04084993477651704
10124500 0.0022665976791589526 -0.04223185046782624
10124625 0.0019123908666469605 -0.043713413488798196
10124750 0.0014987666122836013 -0.045215768074428515
10124875 0.0011526555089995973 -0.046627562857328206
10125000 0.0008236862648248222 -0.04815988234587523
10125125 0.0003761367427147344 -0.04962092607098284
10125250 -3.2853341028273775e-05 -0.05117712641561494
10125375 -0.0004743498721760899 -0.05272271967626198
10125500 -0.0008947580816008764 -0.05433281692339232
10125625 -0.001319059686607694 -0.0558128108595812
10125750 -0.0017610659991172742 -0.0573925607539383
10125875 -0.0022453673840171773 -0.058973472580084924
10126000 -0.0026843035167904527 -0.060644700736372806
10126125 -0.0031219283465324893 -0.062210117232614194
10126250 -0.0036378836541491135 -0.06385549266150224
10126375 -0.004072964757258915 -0.06543497576129903
10126500 -0.004532325883139692 -0.06709144580639431
10126625 -0.005034803322066592 -0.0687151388451509
10126750 -0.005495685310099894 -0.07022773234846619
10126875 -0.005979669929851466 -0.07170025042339821
10127000 -0.00641695987913287 -0.07325101485932389
10127125 -0.006914949102983842 -0.07480834181007295
10127250 -0.007444377633465306 -0.0763337171970549
10127375 -0.007987082048908859 -0.0779230399800995
10127500 -0.008487348177904648 -0.07941937402052085
10127625 -0.00902578850281048 -0.08097076943793446
10127750 -0.009537985695226027 -0.08250027883548185
10127875 -0.010092516240667145 -0.08406468841296809
10128000 -0.010666027701326101 -0.08562954856742538
10128125 -0.011216985892081466 -0.08708912897581554
10128250 -0.011732876037629111 -0.08857901480582342
10128375 -0.012248281083732736 -0.09008555425896353
10128500 -0.012821529153253746 -0.0916210376458531
10128625 -0.013341162498851115 -0.0931332301878353
10128750 -0.013849225554058518 -0.09458953331472618
10128875 -0.014383271323013688 -0.09612682837051675
10129000 -0.014990546749740185 -0.09771852367768091
10129125 -0.01555472802070642 -0.09930118344111497
10129250 -0.016074535885168884 -0.10082148810167493
10129375 -0.01666082880271619 -0.10231861584136884
10129500 -0.017259069184760743 -0.10390750489126473
10129625 -0.017869163858035844 -0.10534911473731387
10129750 -0.018465089830298445 -0.10688353352613125
10129875 -0.01905119743910979 -0.10830035537251985
10130000 -0.019675051718959575 -0.10978107115910461
10130125 -0.02028156037201769 -0.11120613585918115
10130250 -0.02091699347573667 -0.11266485914453382
10130375 -0.02156560309553952 -0.11420894982797343
10130500 -0.022251926791105287 -0.1156306183946848
10130625 -0.02286052158093978 -0.11712299529110935
10130750 -0.02350921786009922 -0.11854717564236059
10130875 -0.024107419152002898 -0.12002377012457013
10131000 -0.0247147987457022 -0.12140217256273585
10131125 -0.02531661472307436 -0.12272500253554716
10131250 -0.025914031859019443 -0.12414138157153976
10131375 -0.02654511026883819 -0.1255051317151866
10131500 -0.02713647522340418 -0.12694996228738545
10131625 -0.02775322038733655 -0.1284067124648689
10131750 -0.028370961972633113 -0.12990971460095416
10131875 -0.029104226382890157 -0.13138256062156994
10132000 -0.02977431566152255 -0.13290295935333324
10132125 -0.030532618707083865 -0.13439051527973236
10132250 -0.031246702014510092 -0.13590340502212309
10132375 -0.031929104934570025 -0.13739899115373552
10132500 -0.032649940160060426 -0.1388595524950486
10132625 -0.03333017756027537 -0.1403093822189098
10132750 -0.03399928261337645 -0.1417836006370329
10132875 -0.03476157950487567 -0.1431683667821002
10133000 -0.03547840649422197 -0.14463254306435297
10133125 -0.03622319197436695 -0.14609648693041763
10133250 -0.036981438005532045 -0.14752680583873523
10133375 -0.03770966642468704 -0.14886770164860813
10133500 -0.038379249154777924 -0.15023067524196726
10133625 -0.03910055092534129 -0.15156652680950108
10133750 -0.039818898455092136 -0.15291320539559833
10133875 -0.0405847080430385 -0.15421230290990345
10134000 -0.04125507533148689 -0.15546405917654066
10134125 -0.04194521602899802 -0.15679335296333216
10134250 -0.04269466588673614 -0.1581487023014282
10134375 -0.04342820806207691 -0.15952391675065
10134500 -0.044210176566575665 -0.1608809647247097
10134625 -0.045030520058494505 -0.16229081118802283
10134750 -0.0457730908399333 -0.16375664033248788
10134875 -0.046632864386104804 -0.16523400737174937
10135000 -0.047415582622156296 -0.166744717054581
10135125 -0.04820221169271768 -0.1681524854514564
10135250 -0.049019598613783875 -0.16961431398348417
10135375 -0.049826297553059146 -0.17110886174541787
10135500 -0.05068341679993 -0.1725959214101089
10135625 -0.05143961050034138 -0.17398127740542582
10135750 -0.052337587141066726 -0.17531092456080508
10135875 -0.05318789925347994 -0.17672206273420218
10136000 -0.054004652096097824 -0.1780924375228653
10136125 -0.05480169594590881 -0.17940911377871271
10136250 -0.05557238015652901 -0.18065388154076117
10136375 -0.056355374826392926 -0.1818457723456655
10136500 -0.05713155074636038 -0.18306233953135378
10136625 -0.05791609412165127 -0.18432044180518403
10136750 -0.05872774806677777 -0.18550678711353386
10136875 -0.05947194526406363 -0.1867951720043789
10137000 -0.06032299851311891 -0.18805216401437597
10137125 -0.061196769471871464 -0.18943738276219962
10137250 -0.06206102138626081 -0.19075433191538996
10137375 -0.06292862122637861 -0.19216659333931096
10137500 -0.06383918985195003 -0.1935573645238668
10137625 -0.06469852997828206 -0.19488410482181465
10137750 -0.06555227427852839 -0.19618129224036085
10137875 -0.06649268779113908 -0.19754369018851017
10138000 -0.06723701646197264 -0.19878360547401056
10138125 -0.06806264786361886 -0.20005798247605178
10138250 -0.06895377507358232 -0.2014061804503637
10138375 -0.0698421548279371 -0.20269197196663422
10138500 -0.07079786964983206 -0.20400220099134458
10138625 -0.07178952332764614 -0.20540029468025595
10138750 -0.07272138679672811 -0.20669989995686477
10138875 -0.07362670115274804 -0.20795863385823496
10139000 -0.07448204211150358 -0.20917317365937924
10139125 -0.07536914880291351 -0.2103568174603179
10139250 -0.07615190833921379 -0.21151731764259257
10139375 -0.07699558249547228 -0.2126099240114092
10139500 -0.0778008663266598 -0.21377079349776115
10139625 -0.07866955560146457 -0.2149148816748687
10139750 -0.07953498434760183 -0.21608406561788954
10139875 -0.0804824390664944 -0.2173036414980907
10140000 -0.0814430916512395 -0.21858308276085367
10140125 -0.08240994155326233 -0.21982768315459286
10140250 -0.08337087119796985 -0.2211509011452575
10140375 -0.08436190809154519 -0.22240787864792794
10140500 -0.08530756681824513 -0.22362822248029543
10140625 -0.0862237203749501 -0.22480354740943026
10140750 -0.08709656990437979 -0.2260329445160161
10140875 -0.08801611979603079 -0.22714871694975305
10141000 -0.0889313996246186 -0.22834580348142255
10141125 -0.08985537670814517 -0.2295273696990045
10141250 -0.09083034328057214 -0.2307515284102026
10141375 -0.09178163976612276 -0.2319493493448047
10141500 -0.09281423379033792 -0.23320949293908055
10141625 -0.09382465769763546 -0.23445259490784714
10141750 -0.09475292209176107 -0.23566606288502548
10141875 -0.09574254765866683 -0.23688512793108285
10142000 -0.09671464616854313 -0.23805822887855874
10142125 -0.09767753227938486 -0.23922046820505788
10142250 -0.09869773068368606 -0.240411221076608
10142375 -0.09968490642651506 -0.24157007567030336
10142500 -0.10066768021240542 -0.24268402276287349
10142625 -0.10164255543777842 -0.24385370942719972
10142750 -0.10265376739326224 -0.24499420629736213
10142875 -0.10365598785339349 -0.2461036920546231
10143000 -0.10471709658990806 -0.24722711815951073
10143125 -0.10567387430959288 -0.24841091691700382
10143250 -0.10665856986971267 -0.24945951221544987
10143375 -0.10765733938838562 -0.2505795011143625
10143500 -0.1086228219004426 -0.2516610261014814
10143625 -0.10952773956990763 -0.25270619122916144
10143750 -0.11046798283285741 -0.2537942882898061
10143875 -0.11137896962599374 -0.2548585845930473
10144000 -0.11238604851064266 -0.25599119939304704
10144125 -0.11342829606831131 -0.2571232600649481
10144250 -0.11445365780126654 -0.25823695798418767
10144375 -0.11555233301000675 -0.25944230526331136
10144500 -0.11663575940468637 -0.26057693293345396
10144625 -0.11771309296436322 -0.2616900083224538
10144750 -0.11876509450344383 -0.2628217351894923
10144875 -0.11988888156339049 -0.26400995546780126
10145000 -0.1209493586987234 -0.26499696202597184
10145125 -0.12198402940908548 -0.2661180612212728
10145250 -0.12301820427813506 -0.2671515161678329
10145375 -0.1240694651345725 -0.2681511407785161
10145500 -0.12510508056323805 -0.2692204877509498
10145625 -0.12614282840935662 -0.27023136969015227
10145750 -0.12715801699456045 -0.2711975681225232
10145875 -0.1281804332608165 -0.27223506403302666
10146000 -0.1292312445842303 -0.2732189655465148
10146125 -0.1301787036713747 -0.2742376002406641
10146250 -0.13121077074512894 -0.27521091070822423
10146375 -0.13220001811471951 -0.2762211320068149
10146500 -0.1331820167919143 -0.27723374761684666
10146625 -0.13422522830251352 -0.2781921611349913
10146750 -0.13519567777883232 -0.27923908731541947
10146875 -0.13632241552478908 -0.2802399351499265
10147000 -0.13738923979180584 -0.2812313518550993
10147125 -0.13848130682257792 -0.2823095196635279
10147250 -0.13960725739274038 -0.283298460560222
10147375 -0.1407132328042825 -0.2843612113414107
10147500 -0.141843184202145 -0.2853474755098121
10147625 -0.14291473967443916 -0.28639799033222585
10147750 -0.14405105777697894 -0.2873745225993351
10147875 -0.1451023491347727 -0.2883804664030362
10148000 -0.14620262249835525 -0.28933226645100457
10148125 -0.1471910080515399 -0.2903336270039515
10148250 -0.14829615888272873 -0.2912107488902173
10148375 -0.1493697662695662 -0.29219808159903965
10148500 -0.15044339568442297 -0.2931060721538225
10148625 -0.15150323112004072 -0.2940627186052677
10148750 -0.15252828942929497 -0.2950010908413818
10148875 -0.15365541381813358 -0.29590915369235155
10149000 -0.15480333101656393 -0.2968723296675824
10149125 -0.15582235412059658 -0.29773461792895345
10149250 -0.15689153365100084 -0.29867541748393556
