# HZ S RI R 50
1000000 0.9896009891695354 -0.14208622878860974
1047500 0.9881410538346438 -0.1488074510608358
1095000 0.9872970476463183 -0.15566322463773916
1142500 0.9862501172442413 -0.16241455780846567
1190000 0.9851420028982107 -0.16920837669623578
1237500 0.9839859142250174 -0.17602953379727654
1285000 0.982641019636247 -0.1828888271417912
1332500 0.981345364961324 -0.18947346990295152
1380000 0.9799414224010007 -0.1963393607084155
1427500 0.9785629695728499 -0.20306998047094804
1475000 0.9771207779587076 -0.20989099859443427
1522500 0.9755629189853483 -0.21676297858754476
1570000 0.9739375485079069 -0.22356096571479414
1617500 0.9722915397674609 -0.23041565625866028
1665000 0.9706070755533291 -0.23715269567440506
1712500 0.9690112346238211 -0.24398470767985725
1760000 0.9671570307857876 -0.2508085028298007
1807500 0.9652715455810027 -0.2575093065665536
1855000 0.9636501601725482 -0.2640698491604733
1902500 0.9616506256596274 -0.2711652456439776
1950000 0.9595208551054253 -0.27809734236374584
1997500 0.9574823835803706 -0.28491964682831367
2045000 0.9553392453666417 -0.29167606000956986
2092500 0.9532395219193203 -0.29855959354819395
2140000 0.9510036893195347 -0.30532834920020796
2187500 0.9486784681606838 -0.3122924746535454
2235000 0.9463699471470615 -0.3190567838935244
2282500 0.9439867171088248 -0.32600191711922993
2330000 0.941615733361157 -0.3327608607076775
2377500 0.9391225968805028 -0.33963207858161976
2425000 0.936492121926675 -0.34659756445699796
2472500 0.9338906545525817 -0.3533905027990999
2520000 0.9311348940380615 -0.3602741373532996
2567500 0.9284823505200773 -0.36680548480012387
2615000 0.926007372063415 -0.37374389522693746
2662500 0.9229280144120492 -0.38102525445533647
2710000 0.9199470988133244 -0.3878200974069835
2757500 0.9169329854856525 -0.3946579124453272
2805000 0.913868997156029 -0.4015979978171438
2852500 0.9106872331453136 -0.4086032486348735
2900000 0.9073953658236649 -0.41544666076079445
2947500 0.9042291973295906 -0.4222510340162645
2995000 0.900961654119145 -0.4291801970355679
3042500 0.8974908159662036 -0.43611227065643743
3090000 0.8938406322846387 -0.4430609076541424
3137500 0.8903239898884633 -0.44996516946848797
3185000 0.886731160534697 -0.4567387169086347
3232500 0.8831805807292826 -0.46378807570484915
3280000 0.8794548499685282 -0.4708181024968107
3327500 0.8755426242952686 -0.4777168993347392
3375000 0.8716832073943945 -0.48445757676494305
3422500 0.8678643931681101 -0.49135359358425545
3470000 0.8638142861826462 -0.49835809102106915
3517500 0.8596720076800265 -0.5053958197331742
3565000 0.8553438654898785 -0.5122529040292614
3612500 0.8511537813799481 -0.5189318788136268
3660000 0.8468893645546056 -0.5258714152549337
3707500 0.8425651894549709 -0.5329350001726488
3755000 0.837867306505829 -0.5399395298362092
3802500 0.8332471430184573 -0.5467650397051808
3850000 0.8286192944219539 -0.5535894383973368
3897500 0.8239666897941724 -0.5605783005438022
3945000 0.8190639454232436 -0.5675083985676509
3992500 0.8141915635962832 -0.5744306873190396
4040000 0.8090980338058777 -0.581194750549136
4087500 0.8041679328571829 -0.5881746444128055
4135000 0.7989169631477888 -0.595013423073294
4182500 0.7936365112973244 -0.6019603368419065
4230000 0.7882313176754948 -0.6086372892381515
4277500 0.7830034891879832 -0.615135816941952
4325000 0.7787202370776226 -0.6218613723945242
4372500 0.7726858533668011 -0.6295571071095234
4420000 0.7664513539637111 -0.6365260753800921
4467500 0.7606058309286103 -0.6431970902161117
4515000 0.7545266432912672 -0.6500849180825674
4562500 0.748592503911731 -0.6569830923168709
4610000 0.7423548216790703 -0.663868296237669
4657500 0.7360192607464164 -0.6705269117515205
4705000 0.7298184978074287 -0.6771741413300156
4752500 0.7233208394451228 -0.6840585602062439
4800000 0.7168645692373719 -0.6908984824548451
4847500 0.7099987044453805 -0.697667420111399
4895000 0.7032130818021161 -0.7040266524248188
4942500 0.6963974771474355 -0.71085696898375
4990000 0.6896032845751706 -0.7175160774504995
5037500 0.6823405919032598 -0.7243023106202202
5085000 0.6750513313677756 -0.7307348876764088
5132500 0.6677479312245613 -0.7372444792139825
5180000 0.6604349788346525 -0.7439339671571072
5227500 0.6527630448995085 -0.7505465232661314
5275000 0.6450003567819863 -0.7569759504514794
5322500 0.6371763000633077 -0.7633428338576942
5370000 0.6293118766968676 -0.7697428627922945
5417500 0.6213132379386799 -0.7762065362196792
5465000 0.6130589273289584 -0.7825547039417853
5512500 0.6047446490155132 -0.7888321812715502
5560000 0.5963348800809248 -0.7949825320114603
5607500 0.5876709139075443 -0.8011835127109896
5655000 0.5791658736387293 -0.8074194050984002
5702500 0.5701119826540716 -0.8135663250677784
5750000 0.5612144231580861 -0.8196184419821673
5797500 0.5521862330753754 -0.825518885373701
5845000 0.5430450010531188 -0.8316153815443704
5892500 0.5334529767618966 -0.8374807784365567
5940000 0.5237608051517412 -0.8432283788215721
5987500 0.5142259030724051 -0.8489911109637613
6035000 0.5045485218552691 -0.8546713111142142
6082500 0.4945704974969073 -0.8602606397517142
6130000 0.4842777046239087 -0.8658115651279427
6177500 0.47401930009299137 -0.8711824137295457
6225000 0.46378204839867304 -0.8764549308370229
6272500 0.45323084366405053 -0.8818870407471963
6320000 0.44234450356871824 -0.8870462473936492
6367500 0.43148589129553655 -0.8919354265911255
6415000 0.42035745041269973 -0.8967282675823336
6462500 0.4094382302432732 -0.9012928406059058
6510000 0.39874016746314006 -0.9062768728762228
6557500 0.38749270878978065 -0.9116878647061378
6605000 0.37587949196251347 -0.9164542223746872
6652500 0.36419429344224763 -0.9208335405189467
6700000 0.3523639405131479 -0.9254451567732878
6747500 0.3401974538334527 -0.9298144977822751
6795000 0.3279824729414858 -0.9340304342701701
6842500 0.3155603890609989 -0.9378831472053
6890000 0.3031133259572738 -0.9419048545852505
6937500 0.29055583736735796 -0.9456734695309849
6985000 0.2777089440270953 -0.9492604181091654
7032500 0.2646674284388133 -0.9527205838167201
7080000 0.2516782381804404 -0.9560423816798178
7127500 0.23850784335683947 -0.9591751348205667
7175000 0.22511412791909177 -0.9623662841757047
7222500 0.21133271522487157 -0.9652166029811438
7270000 0.19757337693612917 -0.9679459392276468
7317500 0.18382198484522214 -0.970453807531631
7365000 0.16995701826053844 -0.9728367698807816
7412500 0.15560387786352395 -0.9750979857411219
7460000 0.14116886656771485 -0.9768822075634153
7507500 0.1267572610114589 -0.9786152909899187
7555000 0.11244570683065679 -0.9802535364568051
7602500 0.09751905439498185 -0.981765770484125
7650000 0.08254944295492245 -0.9829610860716792
7697500 0.06741251629489406 -0.9839087868524166
7745000 0.05236339460071108 -0.9845553522725496
7792500 0.03722858387606576 -0.9850979664686277
7840000 0.021674274844192293 -0.9855046936495423
7887500 0.005834957303936806 -0.9855504444706832
7935000 -0.009800693073828972 -0.9850659082975448
7982500 -0.025406517825124035 -0.9845610694780967
8030000 -0.04124758873934777 -0.9840210139399957
8077500 -0.05757576622558708 -0.9831058716189461
8125000 -0.07378278661203802 -0.9817116711031529
8172500 -0.08978542483063835 -0.9801726220310928
8220000 -0.10621828517240096 -0.9783258632526728
8267500 -0.12280757825905232 -0.9761993293289614
8315000 -0.13943330856896297 -0.9737239100007435
8362500 -0.155977245173724 -0.9708498316439041
8410000 -0.17262289861616517 -0.9677094511320181
8457500 -0.18933939180957762 -0.9646803544401783
8505000 -0.20629792932864308 -0.9609609534079628
8552500 -0.22342789997198073 -0.9569476175308127
8600000 -0.24025123898495426 -0.9524304382400011
8647500 -0.2572283563609867 -0.947743944833084
8695000 -0.27428480201665495 -0.9428826968578469
8742500 -0.291514833369332 -0.937628016867361
8790000 -0.30874789777689277 -0.9317118205828073
8837500 -0.32566636259862203 -0.9255557150632132
8885000 -0.3428324981704003 -0.9191728996917566
8932500 -0.36020738576335104 -0.9124882575571621
8980000 -0.3773189426353409 -0.9051420899000282
9027500 -0.3945280080659833 -0.8974797343594453
9075000 -0.41151696520998093 -0.8894498085339457
9122500 -0.4285421808213365 -0.8813127469769357
9170000 -0.4456509516693475 -0.8726152060245174
9217500 -0.4627406370527437 -0.863263087776184
9265000 -0.47940538922721293 -0.8536261890508858
9312500 -0.49606539669358807 -0.843883439305262
9360000 -0.5128672596811721 -0.8337350567697583
9407500 -0.5295378890069532 -0.8229483932738287
9455000 -0.5458873407821823 -0.8115200661183172
9502500 -0.5622088109294754 -0.8000506645672412
9550000 -0.5784486902145338 -0.7882769229793546
9597500 -0.5946006057198914 -0.77606979162186
9645000 -0.6105093291711163 -0.7632186773507058
9692500 -0.6261707390585153 -0.7499964140755702
9740000 -0.64146043736099 -0.736429962052791
9787500 -0.6569503813229031 -0.7226296623918657
9835000 -0.6721025833755667 -0.708150985408403
9882500 -0.6869586550235768 -0.6932844692514761
9930000 -0.7012803312581067 -0.6780629125444373
9977500 -0.7155583320051562 -0.6627118459556993
10025000 -0.729780655511373 -0.6468760132505359
10072500 -0.7436592941000828 -0.6304558426971629
10120000 -0.7570922188596371 -0.6137298119553564
10167500 -0.7702198699410403 -0.5966727961002309
10215000 -0.7830402887398354 -0.5794009871510541
10262500 -0.7956869889512114 -0.5615814551559241
10310000 -0.807849026420165 -0.5433956833937701
10357500 -0.8196150697096974 -0.5249218660215222
10405000 -0.8309022582818194 -0.5061941390308196
10452500 -0.8421365350709693 -0.4872112702541105
10500000 -0.8528391212928947 -0.46768945347148255
10547500 -0.8630481828432802 -0.4478358257921185
10595000 -0.8728081582591911 -0.427862607702332
10642500 -0.8821966750333422 -0.40763141689162813
10690000 -0.8912313455713825 -0.3870461302819607
10737500 -0.8998432817449766 -0.36614791267719626
10785000 -0.9077184586651939 -0.34492712032812656
10832500 -0.9152720808167643 -0.3235849867906254
10880000 -0.9224218873077348 -0.30211170449398433
10927500 -0.9290528705637113 -0.2802271352854367
10975000 -0.9352199270394909 -0.2580432920305212
11022500 -0.9407484854931549 -0.2358743602328578
11070000 -0.9458896042258708 -0.21345933278002469
11117500 -0.9505309059933902 -0.19075989702279367
11165000 -0.9545387526328108 -0.16799139006958402
11212500 -0.9581309681760828 -0.14506391844181624
11260000 -0.9609363928703206 -0.12196270360577618
11307500 -0.9634754782348336 -0.09875476355023374
11355000 -0.9653512945472701 -0.07539433395597861
11402500 -0.9665608400991771 -0.051836866632195985
11450000 -0.9673344078171011 -0.028186609807495974
11497500 -0.9675936224414756 -0.004591909401857931
11545000 -0.9671159687430009 0.019253936095872563
11592500 -0.9660488410731449 0.04315585497110017
11640000 -0.9643724576308722 0.06700929371095019
11687500 -0.9620898166982084 0.09111922528507713
11735000 -0.9591306250365098 0.11528711830674293
11782500 -0.9555246218270298 0.13955945695213692
11830000 -0.9511830787221821 0.1638566859949522
11877500 -0.9461266365454618 0.18819433807664754
11925000 -0.9404915212405349 0.2128372062886142
11972500 -0.9338367544324352 0.23761421475163122
12020000 -0.9263049340147178 0.26246586986377707
12067500 -0.9180378705724594 0.28731261928668034
12115000 -0.9088907769602562 0.3125686725867507
12162500 -0.898516213876655 0.338116744738443
12210000 -0.886810568102849 0.3639739150734416
12257500 -0.8738197445510957 0.3898976714183189
12305000 -0.859428120472121 0.4164112248112866
12352500 -0.8432088422038987 0.44349949835257196
12400000 -0.8243921590936069 0.47106467947606234
12447500 -0.802956679208884 0.4991847456060097
12495000 -0.7781968100663478 0.5279373612252451
12542500 -0.7490010137684576 0.5575354065946584
12590000 -0.7135810990749902 0.5875795057002927
12637500 -0.6700516435850349 0.6173885541230479
12685000 -0.6150237813174896 0.6456993058790982
12732500 -0.5437600341060522 0.6696129536128954
12780000 -0.449484711822668 0.6810993229200697
12827500 -0.32542518806468 0.6624904182045338
12875000 -0.17732924784870527 0.5776292456193164
12922500 -0.059792170405357975 0.3802256866672513
12970000 -0.09825280515090745 0.10143170302300258
13017500 -0.31930677061662205 -0.07906936593180915
13065000 -0.5547373872301972 -0.08041498505411196
13112500 -0.7054146584395811 0.00701573906976488
13160000 -0.7832291706916614 0.10759881476859498
13207500 -0.8186339588838323 0.1965244833392252
13255000 -0.8314332785802222 0.27015881476083176
13302500 -0.832298419220386 0.330712030995092
13350000 -0.826872994328198 0.38114016985374727
13397500 -0.817869034557541 0.42421197988916776
13445000 -0.8069215083487611 0.4615300285515791
13492500 -0.7948524217317287 0.4944807516522219
13540000 -0.7820508942826955 0.5238963270700082
13587500 -0.768816274596716 0.5508935194343169
13635000 -0.7551941163865232 0.5756660656838902
13682500 -0.7410492039927684 0.5985607810280884
13730000 -0.7267000156114035 0.619597202726104
13777500 -0.712288358287212 0.6391832535848513
13825000 -0.6977981607271823 0.6574757566279478
13872500 -0.6833290867383749 0.6748962678338172
13920000 -0.6685764808308902 0.6910534012244328
13967500 -0.6539982500152896 0.7061337768265702
14015000 -0.6396099792382179 0.7205631388506282
14062500 -0.6252715110012689 0.7345578550349809
14110000 -0.6106383428065307 0.7476776394626502
14157500 -0.5961054966173904 0.7600394300193447
14205000 -0.5818817656336356 0.7713762286735282
14252500 -0.5677707411679129 0.7827521705146038
14300000 -0.5535782763174114 0.79361996969058
14347500 -0.5391097181171282 0.8039760474130366
14395000 -0.5252250533907367 0.8135441512139296
14442500 -0.5111573576611901 0.8227817437442532
14490000 -0.4973135517247117 0.8316866552704015
14537500 -0.4832638044253734 0.8402746191946724
14585000 -0.4693229966635623 0.8482943228781432
14632500 -0.45560305668392503 0.8559745040532356
14680000 -0.44207691451056386 0.8633415755371329
14727500 -0.4284637693538077 0.8705849770081131
14775000 -0.414665818578311 0.8773691630841332
14822500 -0.40113672535908423 0.8836271614207241
14870000 -0.3880155604172862 0.8899056243697
14917500 -0.3747221178702177 0.8958562594210057
14965000 -0.3613406034044416 0.9015547391900814
15012500 -0.34809587427361416 0.9067973040365565
15060000 -0.3351275316316187 0.9116059772978243
15107500 -0.3223038205862858 0.9164931226930584
15155000 -0.30929022246038673 0.9212520063128748
15202500 -0.29634343268515545 0.925575991850081
15250000 -0.28354889833676605 0.9295092527643461
15297500 -0.2711588449353744 0.9333931658174524
15345000 -0.2587522181045366 0.9371342739523639
15392500 -0.2461670204937967 0.9406856201143855
15440000 -0.23372455656171987 0.9439369366182606
15487500 -0.221424275124055 0.9467956899622969
15535000 -0.20958403185466087 0.949840817411937
15582500 -0.19755106533242853 0.9527410273446334
15630000 -0.18540698673218595 0.9553067599639775
15677500 -0.17356544078892133 0.9572956501375696
15725000 -0.16203333159940325 0.9591321337333928
15772500 -0.1504849511749412 0.9614536019857081
15820000 -0.13881997651980443 0.9632228543467227
15867500 -0.12716137019941076 0.9647685465620202
15915000 -0.11596902307637647 0.9661826301155528
15962500 -0.10484387634814472 0.9675100896000661
16010000 -0.0937094708114084 0.9689452443352526
16057500 -0.08247678438526489 0.9700108861147947
16105000 -0.07147732751820227 0.9707983778248821
16152500 -0.0607113830545817 0.9713117355716231
16200000 -0.05012727015577639 0.9724020947479778
16247500 -0.03940417973545612 0.9729853715703186
16295000 -0.028659536106758636 0.9733361482933376
16342500 -0.018216944315668362 0.9734995174938941
16390000 -0.008020860724258285 0.9737318558492529
16437500 0.0021538662980216984 0.9739680956228576
16485000 0.012550793542524207 0.9740052293741648
16532500 0.02273029072801143 0.9737983048652089
16580000 0.032601065765238656 0.9734758748687709
16627500 0.042237879272317785 0.9731851495715996
16675000 0.05211559754635414 0.9730226100708931
16722500 0.06196634053024866 0.972417434919925
16770000 0.07136261075896419 0.9717096307151454
16817500 0.08084780982455993 0.9710040855688115
16865000 0.09009548852538253 0.9705882560552589
16912500 0.09941264726326472 0.969887673482477
16960000 0.10875847086753583 0.9690456168625914
17007500 0.11781535733510662 0.9676977914155418
17055000 0.12656776107249923 0.9667662617807955
17102500 0.13551974580532478 0.9657512670740666
17150000 0.14458205378536496 0.9643187310070876
17197500 0.15329450821216772 0.9629046623913327
17245000 0.16161206913192752 0.9615515081419872
17292500 0.17021043739916317 0.960221307492086
17340000 0.1787415966900278 0.9587306739767545
17387500 0.18730863330454997 0.957216722726086
17435000 0.19544564565448008 0.9554996166876332
17482500 0.20350650681556276 0.9538869976454375
17530000 0.21168486749014226 0.9523473954769941
17577500 0.21979977439246137 0.9504689984006306
17625000 0.22777785723435315 0.9485630150346402
17672500 0.2354660888509921 0.9467503806557738
17720000 0.24329994249946105 0.9450230224031649
17767500 0.25097417471749006 0.9431337117502345
17815000 0.2586614630785634 0.940958007564498
17862500 0.2660886520365998 0.9387352102408068
17910000 0.27342100538255176 0.9368571707084415
17957500 0.28071463576803624 0.9349210960827767
18005000 0.28822938625813893 0.9328666626726559
18052500 0.2955561976925421 0.9304191417016828
18100000 0.3023874943882485 0.9281016798489529
18147500 0.30925972849365924 0.9260383185431401
18195000 0.31648364905076826 0.9238898352459495
18242500 0.3234814784412405 0.9213426381560814
18290000 0.3302076263268368 0.9190146560754918
18337500 0.3368731381122611 0.9164662881582013
18385000 0.3434389102216109 0.9144340856947755
18432500 0.3503456424883543 0.9118773964101384
18480000 0.35694111085804714 0.9093808461651958
18527500 0.3632583184855921 0.9067741350414927
18575000 0.3695438823035574 0.9043659599689873
18622500 0.3760465334808459 0.9019739050317295
18670000 0.3824635968095038 0.89938719243847
18717500 0.38865095394362636 0.8966007487029409
18765000 0.3945917888377585 0.8939855472658155
18812500 0.40065489676601984 0.891547180266161
18860000 0.4068267181559952 0.8889879197758659
18907500 0.4128312240536456 0.8862835362538103
18955000 0.4186908208362394 0.8835767255764055
19002500 0.42435995583925934 0.8812252115734597
19050000 0.4301093174165584 0.8786960767383828
19097500 0.4358977137041571 0.8759640091165652
19145000 0.44153233083174925 0.8729551213186157
19192500 0.446924523929036 0.8700254232600104
19240000 0.4524471668944456 0.8673852384468054
19287500 0.4579875385795779 0.8646135755939194
19335000 0.4634064026174603 0.8617517602782185
19382500 0.4687036797803474 0.858795316264961
19430000 0.4736835158578718 0.8561672984539098
19477500 0.4790896146741192 0.8533137258368472
19525000 0.4844313873016982 0.8504821692421369
19572500 0.48941414945805184 0.8474549490243302
19620000 0.49439315810707113 0.8445393937881984
19667500 0.4992648208776145 0.841892657184703
19715000 0.504435430374427 0.8389905226982936
19762500 0.5095329035212447 0.8359865842539786
19810000 0.5142622994596062 0.8331112030222344
19857500 0.5187956156602022 0.8302341828241986
19905000 0.5237613646622885 0.8274370574054467
19952500 0.5285611707068191 0.8245051320195956
20000000 0.5330860096111166 0.8215081223043568
