# HZ S RI R 50
1000000 -0.9766115314879074 0.19644654395250122
1047500 -0.9746147186318503 0.20528352543349906
1095000 -0.9726775939411819 0.21428687742291705
1142500 -0.970519643136105 0.22327415445440404
1190000 -0.9682696465416125 0.23224263714900664
1237500 -0.9661128794559238 0.2409366389730086
1285000 -0.963664567773168 0.24981318193706797
1332500 -0.9611430896667228 0.2585712946287577
1380000 -0.9586632310282875 0.2675299196547479
1427500 -0.9560096259769705 0.2765911742120001
1475000 -0.9534209751438676 0.2850060273882124
1522500 -0.9507054683813131 0.2935787904350104
1570000 -0.9477950330343298 0.3021826445432229
1617500 -0.9449195767598807 0.31079349406045614
1665000 -0.9419717797582858 0.31935716375887196
1712500 -0.938896825971223 0.32792611880459804
1760000 -0.9357290029721198 0.33654352909058804
1807500 -0.9323575632178517 0.34546597718765676
1855000 -0.929040809733488 0.3538423115360756
1902500 -0.92592779434379 0.36188423484937476
1950000 -0.9225995515956151 0.37004620911809616
1997500 -0.9189675023397539 0.37835130590271643
2045000 -0.9155670051762894 0.38642563887860254
2092500 -0.911952764680542 0.3946121385510707
2140000 -0.9083578016645053 0.40281975045434987
2187500 -0.9045077206012238 0.41100834849522966
2235000 -0.9006770986347815 0.4190996408399887
2282500 -0.8967855848001166 0.4270033279085188
2330000 -0.8928403861724187 0.43503076137358077
2377500 -0.8887982469787915 0.4429991764538347
2425000 -0.8846565856090534 0.45107113265919213
2472500 -0.8804379334368997 0.45902257976184824
2520000 -0.8760282367355477 0.4671800548998215
2567500 -0.8713413104669091 0.47550891343271934
2615000 -0.8673709059868855 0.48275386812942606
2662500 -0.8631635825455509 0.4898183256493583
2710000 -0.8587521687354561 0.4971177854509123
2757500 -0.8544244622827284 0.5045347090746363
2805000 -0.849892467057058 0.5119624222399919
2852500 -0.8453316286503882 0.5193483563079933
2900000 -0.8405136486233222 0.5266690661408179
2947500 -0.8358165727759699 0.533804305327662
2995000 -0.8311365564260529 0.5411862614251799
3042500 -0.8262209495026893 0.5485704678013896
3090000 -0.8213483913561285 0.5554873216481081
3137500 -0.8164123324602093 0.5625057637025684
3185000 -0.8114813104089428 0.5694591350495939
3232500 -0.8064946773653386 0.5766092052300793
3280000 -0.8012320422316057 0.5837287072170595
3327500 -0.796021896608305 0.5906396076634022
3375000 -0.7909031224928119 0.5970686853175861
3422500 -0.7855981910421648 0.6037780913422681
3470000 -0.7804007172390394 0.6106569814738372
3517500 -0.7749938585865292 0.617186409150531
3565000 -0.7696848528113095 0.6237861797406371
3612500 -0.7641786215850632 0.6301825148969613
3660000 -0.7587067363564384 0.6367475260077864
3707500 -0.7532694029214918 0.643081494919694
3755000 -0.7475854994763522 0.6493722525633231
3802500 -0.7419831624888744 0.6555401752947344
3850000 -0.7364550211321998 0.6617177428819828
3897500 -0.7307669939179074 0.6679552794368024
3945000 -0.7249799050342579 0.6742410847521674
3992500 -0.719133817851321 0.6801700667954629
4040000 -0.7133824438301916 0.6861525724365397
4087500 -0.7074733255628489 0.6924614408222156
4135000 -0.7013244913601652 0.6988618950595596
4182500 -0.6948536954819892 0.7051448828078677
4230000 -0.6883606573253557 0.7116741539202782
4277500 -0.6819018856322238 0.7178859475997911
4325000 -0.676187752408497 0.7228659830478223
4372500 -0.6708002815131228 0.727641586110583
4420000 -0.6651420102784098 0.7321649886302198
4467500 -0.6592573153837293 0.737156436473553
4515000 -0.6534936101558095 0.742303454691215
4562500 -0.6474533200854067 0.7474973700787129
4610000 -0.641035461475418 0.7526525270146649
4657500 -0.63487083050147 0.7580101624479195
4705000 -0.6288570373091936 0.7625333634311237
4752500 -0.6226811772294538 0.7675390402329263
4800000 -0.616341370182299 0.772576363008904
4847500 -0.609948076040164 0.7772559500628123
4895000 -0.6035758168093533 0.7819806309668536
4942500 -0.5973554318437531 0.7867142379705329
4990000 -0.5910804230212673 0.7915279601914149
5037500 -0.5845933147465633 0.7962853064905406
5085000 -0.5779965027242443 0.8007859068420362
5132500 -0.5716465472462242 0.8051094686603864
5180000 -0.5653035512986938 0.8095471062056315
5227500 -0.5588704754623218 0.8141138876204295
5275000 -0.5522574649154907 0.8183529380793417
5322500 -0.5457496999628401 0.8226831646873408
5370000 -0.5392743580273173 0.8271697873279237
5417500 -0.5328499292848208 0.8309868667919184
5465000 -0.5262106753166182 0.8350794080972428
5512500 -0.5193982462755966 0.838898049341949
5560000 -0.5129602184686194 0.8427030400994501
5607500 -0.5064884206208524 0.8468083069437021
5655000 -0.49969908220397846 0.850527986606799
5702500 -0.4930499604872475 0.854396372943893
5750000 -0.486487180608438 0.8579209149470551
5797500 -0.4797849494214853 0.8617812607780883
5845000 -0.47315505602043156 0.8654176217031851
5892500 -0.46643220147848385 0.8688469787684189
5940000 -0.45964231854937065 0.8721558136309309
5987500 -0.45306014011747986 0.8754897779361817
6035000 -0.44641705744631127 0.8787823078471387
6082500 -0.4396069299168249 0.8822051418369851
6130000 -0.4328939168685813 0.885526061178608
6177500 -0.4262115651988037 0.888750753290889
6225000 -0.4194686402702878 0.8918629682214906
6272500 -0.41281484086647674 0.8950519343224829
6320000 -0.40613446021616423 0.898360167598041
6367500 -0.39903143325800017 0.9017389440564323
6415000 -0.39232496717782406 0.9041659202608533
6462500 -0.38559669315746514 0.9072021005571196
6510000 -0.37854929960091027 0.9103693569391029
6557500 -0.3715714323466778 0.9129066948716693
6605000 -0.36467036865129254 0.9153785315552095
6652500 -0.3579968985453457 0.9180450809034686
6700000 -0.351280011947482 0.9206616454057164
6747500 -0.34446695616431583 0.9231403446427706
6795000 -0.3374899068776781 0.9252975499990053
6842500 -0.3307746456086566 0.9276046746244201
6890000 -0.3239357182923761 0.9298964547156875
6937500 -0.31717610778056443 0.9322526683381503
6985000 -0.3103013743111256 0.9345440933959296
7032500 -0.30334894250930405 0.9366145709859356
7080000 -0.2964861953256686 0.9385889135838189
7127500 -0.2898250757766481 0.9408833240234464
7175000 -0.2829105927611475 0.9428927224302831
7222500 -0.2759508737780984 0.9448513867474043
7270000 -0.2691109379590631 0.9466521735801056
7317500 -0.26236106861057945 0.9483557505083987
7365000 -0.25537721795642515 0.950370360330936
7412500 -0.24854880828685752 0.9519823857907541
7460000 -0.2418805483678061 0.9535434677467541
7507500 -0.23497561143983176 0.955245406560712
7555000 -0.2280937301515472 0.9568436221999973
7602500 -0.22125053210348972 0.9584801273568109
7650000 -0.2143974948380668 0.9600689090080515
7697500 -0.20757747481733616 0.9616705050557306
7745000 -0.20083035905679347 0.9636464247733283
7792500 -0.19367509028460989 0.964883347828262
7840000 -0.18671219133200478 0.9654941326790478
7887500 -0.1800892811178063 0.966374155871103
7935000 -0.17327036262865203 0.9677820736390805
7982500 -0.16655979536012533 0.9690343516838106
8030000 -0.15958640387251743 0.9700428192008217
8077500 -0.15282377798205038 0.9709304070025895
8125000 -0.14591923740670262 0.9718221289590355
8172500 -0.13897832139505206 0.9731291190029134
8220000 -0.13206923140508633 0.973802882535027
8267500 -0.12534195060734937 0.9745583403055844
8315000 -0.11848715526001366 0.9755169560006144
8362500 -0.11155546931062849 0.9761549951512122
8410000 -0.10476497056255389 0.9768857773143471
8457500 -0.09786848964035207 0.9776547839833759
8505000 -0.09096662410267382 0.9781331491737645
8552500 -0.08409809415583637 0.9786214647253086
8600000 -0.07725750541890433 0.9791548460750578
8647500 -0.07040780768467778 0.9795862105538709
8695000 -0.06339664698271322 0.98013227330461
8742500 -0.05650763273397186 0.9803303904634161
8790000 -0.04949870486448675 0.98071827062825
8837500 -0.04271169583116558 0.9812418714157969
8885000 -0.03589701710606072 0.9813074842757282
8932500 -0.029118529203945705 0.9813444477477773
8980000 -0.021979723233650685 0.9814414429085417
9027500 -0.015169070756365428 0.9814773264574733
9075000 -0.008288111648251684 0.9815679617589506
9122500 -0.0012463085551779737 0.9815840045936582
9170000 0.005746811417807787 0.9814563394387263
9217500 0.012657743109036116 0.9813201655183396
9265000 0.019493004955033408 0.9810716528420516
9312500 0.026722160018941444 0.9809223998108682
9360000 0.03365272288571656 0.980540336646182
9407500 0.0406634599717117 0.9801998449529576
9455000 0.047857384083804654 0.979832336573727
9502500 0.0547601785899398 0.9793484984052323
9550000 0.06185293058814952 0.9788262824449863
9597500 0.06912253764828183 0.978271314581194
9645000 0.0760840584451628 0.9777358175986913
9692500 0.08320096242847247 0.977142554220565
9740000 0.09042333363747951 0.9766405913069637
9787500 0.09769907672532968 0.97564288571589
9835000 0.10481088071799592 0.974950650407573
9882500 0.11216110525208074 0.9743226839062017
9930000 0.11949991886169217 0.9739219695668029
9977500 0.12735976266044113 0.9737235898774506
10025000 0.1347716017947819 0.9718010297044742
10072500 0.14189669267124602 0.969774872494495
10120000 0.14938355808656043 0.9684829364992951
10167500 0.15682240221978827 0.9671404299156142
10215000 0.16442738696472228 0.9656302787381317
10262500 0.17210631172027935 0.9641349639760518
10310000 0.17970031706140252 0.9626041062512887
10357500 0.18745191654044124 0.9609629997589467
10405000 0.19528380205158363 0.9593330680431085
10452500 0.2032757321280413 0.9574554095100792
10500000 0.2112623798753967 0.9555357243101037
10547500 0.21929870765714207 0.9535497624291258
10595000 0.22736497972655145 0.9513918804976615
10642500 0.23566284713967844 0.9491814070970291
10690000 0.24406479339546644 0.946783325265154
10737500 0.2524377334044766 0.9444877038361998
10785000 0.26113271298494684 0.9418944091058593
10832500 0.2698807948000568 0.9390987755137764
10880000 0.2787962194270694 0.9361617942929626
10927500 0.28783702711279274 0.933200319370633
10975000 0.2968320464397079 0.9300592200602121
11022500 0.306213030909737 0.926809952507236
11070000 0.3158080749893884 0.9231415139177161
11117500 0.3254775137486175 0.9195138234071473
11165000 0.33558218342616025 0.9156555120450456
11212500 0.3456894798953073 0.911467331384688
11260000 0.3560896311579812 0.9071481329934211
11307500 0.36678547219704377 0.9022708858161718
11355000 0.37774131826336654 0.8970748940172435
11402500 0.3889778440675799 0.8915462728194649
11450000 0.40075490290467813 0.8855169695400493
11497500 0.41275504991322093 0.8791808701400576
11545000 0.42505743304536314 0.8722128226043241
11592500 0.43796508180701976 0.864829013377367
11640000 0.4511097664395251 0.8569487722169709
11687500 0.46502453816111283 0.8480060854653827
11735000 0.47938935581055814 0.8384309991433319
11782500 0.4944191537134384 0.8280567705254025
11830000 0.5100482814031131 0.8166386390393651
11877500 0.5263452428664837 0.8039853026050511
11925000 0.5434317028987224 0.789864252716776
11972500 0.5613928211671425 0.7741073459841986
12020000 0.5801741641024333 0.7564893438383283
12067500 0.5999931605302962 0.7367614094279077
12115000 0.6207096333054722 0.7141808108774689
12162500 0.642147833692042 0.6883555432818793
12210000 0.6646634179101903 0.658863660625694
12257500 0.6878142966494402 0.6245641623411007
12305000 0.7114834565022033 0.5843998639564626
12352500 0.7350106979501425 0.5374624317571063
12400000 0.7571732243526719 0.48188261399237314
12447500 0.7770291484147268 0.41586628161318967
12495000 0.7916851738646545 0.3370190085782476
12542500 0.7970110259367428 0.24321158229733317
12590000 0.7867915381906816 0.1327046455822518
12637500 0.7519075252160202 0.005679368104043229
12685000 0.6806243316481315 -0.1338391773279221
12732500 0.5589008802633452 -0.2734288063438497
12780000 0.37880869041405935 -0.3891352780959391
12827500 0.14764787256869746 -0.4485910883892569
12875000 -0.10462039539393547 -0.4243529033881666
12922500 -0.3322892236648421 -0.3128496548345851
12970000 -0.4977734433454323 -0.14054965937622899
13017500 -0.5898313315687977 0.05320421826179551
13065000 -0.619256360687885 0.23659779052245014
13112500 -0.6059279421167213 0.3936237945756823
13160000 -0.567802550494423 0.5207143785066792
13207500 -0.5176038629603066 0.6201869793233515
13255000 -0.4632328099092804 0.6971015930824604
13302500 -0.4091440750964013 0.7560791193295172
13350000 -0.35774093678840685 0.8016132429612841
13397500 -0.309571528353029 0.8366291370260523
13445000 -0.26504724294464793 0.8635871157217095
13492500 -0.2242476857738155 0.8843390016099736
13540000 -0.1872257646821852 0.9004300730529263
13587500 -0.15319075120706063 0.9129170704641936
13635000 -0.12227499503767722 0.9228087342960476
13682500 -0.09399557433187668 0.9300601266186351
13730000 -0.06830503766150675 0.9359254703063251
13777500 -0.04496295641967234 0.9404606072075044
13825000 -0.023209093948086443 0.9444676894310499
13872500 -0.003003132244355101 0.9478887744380371
13920000 0.016029177044898573 0.9510944298303323
13967500 0.03417829742163483 0.9539362353456182
14015000 0.05093130667609474 0.9552059692425796
14062500 0.06677089324637345 0.9554309459428291
14110000 0.08190955484165087 0.9558588941463766
14157500 0.09647146086025359 0.9561197437495278
14205000 0.11028845077056768 0.9563691104816239
14252500 0.12366421447894498 0.9564463386413872
14300000 0.13651370539907817 0.956042647184783
14347500 0.14893185332868641 0.9553324238272108
14395000 0.16032336429759406 0.9545457523187026
14442500 0.1715920877518685 0.9535126404509785
14490000 0.18238530705805378 0.9524358702233134
14537500 0.19284249037873621 0.9511555184941284
14585000 0.20292507214525526 0.9496740265396459
14632500 0.21232734892199698 0.9483190656513101
14680000 0.22159449307397075 0.9469536872415285
14727500 0.23062327259088158 0.9455335116217185
14775000 0.23940660023025234 0.9439531949434898
14822500 0.24773361851986628 0.9420700747252934
14870000 0.2559053823504715 0.9405846418494275
14917500 0.2637705827326474 0.9389367178737221
14965000 0.2716048951708043 0.937096976966634
15012500 0.27917540780132416 0.9351535574641604
15060000 0.2863284539090435 0.9331768775438536
15107500 0.2933114101829572 0.9313937456013116
15155000 0.30031960183480505 0.9296919247302659
15202500 0.3071990188583609 0.9276575039582542
15250000 0.31383077755919325 0.9256383700101352
15297500 0.3201637130917497 0.9237191375415376
15345000 0.32636825339302905 0.921788589668442
15392500 0.33267497218801034 0.9197593201310474
15440000 0.33871384850096653 0.9175714880394048
15487500 0.3445249501556467 0.915492495045584
15535000 0.3502475631060865 0.9136816160451603
15582500 0.35598017165130136 0.9116582958300119
15630000 0.36168202486430034 0.9096027906615424
15677500 0.3670908842902765 0.9074382254217552
15725000 0.37224744588665076 0.9054987778042494
15772500 0.3776499630125905 0.903656157393096
15820000 0.3830116208849885 0.901666477772753
15867500 0.38811590627004344 0.8995037567559081
15915000 0.3930570115812149 0.8974380847180761
15962500 0.3979351441857709 0.895493070143223
16010000 0.4029851879029873 0.8935932871672981
16057500 0.40784857876787073 0.891504922859789
16105000 0.4125413244327837 0.8893507351962768
16152500 0.41713746341280655 0.8871844653738128
16200000 0.4217713229322973 0.885259559826008
16247500 0.42639038951182434 0.8832285552810463
16295000 0.4309492061603342 0.8811159312305329
16342500 0.4352194032838165 0.8789116758909145
16390000 0.43954053938479876 0.877037245865208
16437500 0.44380617075428747 0.8750542335142747
16485000 0.44822892344448784 0.87279048568691
16532500 0.45244936371293 0.8705595595453762
16580000 0.4564924373011499 0.8685840518553313
16627500 0.4604492598257111 0.866661155805113
16675000 0.4648117406484955 0.8646076789764258
16722500 0.46879713360871905 0.8624004432919254
16770000 0.4726042206652835 0.8602697471434059
16817500 0.47639349066386855 0.8583249299230873
16865000 0.48030685805706963 0.8564376991601073
16912500 0.48422336525585996 0.854243866820887
16960000 0.4880943829387105 0.8520381870691268
17007500 0.49161521151628934 0.849880326505465
17055000 0.4952893998098639 0.8480588937701465
17102500 0.49899757437419107 0.8461010855678145
17150000 0.5027223441293636 0.8438459395399848
17197500 0.5062807802812742 0.8416741596939165
17245000 0.5096774964445754 0.8397475576098621
17292500 0.5132613228811365 0.8379369776397266
17340000 0.5169322281816267 0.8357769388661376
17387500 0.520402828195318 0.8337269529804335
17435000 0.5235083284620025 0.8318808386804739
17482500 0.5269007152136844 0.8300545945543142
17530000 0.5305079935907729 0.8280754475058653
17577500 0.5337813520701993 0.8259679143774539
17625000 0.537142869702672 0.8236740355725163
17672500 0.5403530432103743 0.8216994599642464
17720000 0.5437220284204073 0.8196677731011612
17767500 0.5469624304685249 0.8175244582694376
17815000 0.5502086148224322 0.8153183005202232
17862500 0.5531733994322262 0.8130313280867234
17910000 0.5562460650286061 0.8112024356668323
17957500 0.5594892803366971 0.8092150915621771
18005000 0.562623168759145 0.8071635877668247
18052500 0.5655845608052691 0.8047682558363961
18100000 0.5685139469636621 0.8027965831109919
18147500 0.5713430927962672 0.8008733495240511
18195000 0.5745743098549009 0.7988512109074404
18242500 0.5775464918481985 0.7966492019879764
18290000 0.5803341777378841 0.7945410420045201
18337500 0.5831106701875214 0.7924728197330407
18385000 0.5860807644696512 0.7907072788823146
18432500 0.589061962157741 0.7886091213106456
18480000 0.5919295777582625 0.7864733226139441
18527500 0.59465786456496 0.7846170916108051
18575000 0.5974565004213479 0.7828110118966336
18622500 0.6004192438164797 0.7809095883627011
18670000 0.603176121608204 0.7788349202270736
18717500 0.6058378638177166 0.7764953509728622
18765000 0.6084344241116941 0.7742945720135059
18812500 0.6111381278734924 0.7722955776717572
18860000 0.6138795713965226 0.7701265829673671
18907500 0.6165429208036374 0.7677866177954082
18955000 0.619137777707129 0.7657525026872384
19002500 0.6216398286215774 0.7638585627009477
19050000 0.6241710329015877 0.7617711625233783
19097500 0.626862425227417 0.7597420485756621
19145000 0.629396385454765 0.7575537772915009
19192500 0.6317957100931545 0.755483695799524
19240000 0.6343222427702141 0.7535415447133588
19287500 0.6369176045529799 0.7515274571042935
19335000 0.6394261565203301 0.7494618402264186
19382500 0.6417070152921138 0.7472559402231269
19430000 0.6440384154175749 0.7454662944824567
19477500 0.6466284449242039 0.7434323243578267
19525000 0.6491635408774404 0.7413048899704084
19572500 0.6514089660672047 0.7390597147183078
19620000 0.6537214146536401 0.7371900177978232
19667500 0.6560138014018504 0.7353106061079205
19715000 0.6585935071544113 0.7332877369850493
19762500 0.6608400985096352 0.7310190087394235
19810000 0.6632526222378486 0.7290027658873732
19857500 0.6652811381910346 0.7271601968084271
19905000 0.6677487471424143 0.7250955228580679
19952500 0.6701150070488591 0.723039955866938
20000000 0.6721995580234178 0.7208396904906649
