# HZ S RI R 50
1000000 0.9887522767044978 -0.1419323212668715
1047500 0.9875732274385325 -0.14868729779946266
1095000 0.9865283893735447 -0.1555265916346032
1142500 0.9854634056016527 -0.16221705809075737
1190000 0.9843729039471163 -0.16900060708592085
1237500 0.9832718587934187 -0.17582453966961814
1285000 0.9819840546594445 -0.18264088372169918
1332500 0.9804839517665679 -0.1894736220102052
1380000 0.9791686241785579 -0.1962862427990486
1427500 0.9777175224742999 -0.20275388021324917
1475000 0.9763364365936378 -0.2096119011675701
1522500 0.974881131577937 -0.21654745158922822
1570000 0.9731416848001271 -0.2234391250278234
1617500 0.9714651650547012 -0.23034798336812376
1665000 0.9697760980490091 -0.23699168288190436
1712500 0.9682248121754407 -0.2438265420738394
1760000 0.9665091559115945 -0.2506537546071723
1807500 0.9645125285688037 -0.25736268376761356
1855000 0.9627625321708817 -0.2639382904810744
1902500 0.9608329449820843 -0.27098427333544767
1950000 0.9587575130021018 -0.27791793172063645
1997500 0.9566509673545442 -0.28467622647204915
2045000 0.954618927868761 -0.291525987713404
2092500 0.9525297717227248 -0.29837208408197097
2140000 0.9502396297151118 -0.3053086221413904
2187500 0.9480261277893383 -0.3122326157094984
2235000 0.9455689202315835 -0.3189682631218038
2282500 0.9431698775074004 -0.32589007418173027
2330000 0.9407708048072695 -0.332607108855955
2377500 0.938339853957407 -0.33935413829327665
2425000 0.9357221498067457 -0.34639147585879865
2472500 0.9329866449201863 -0.35327007539894334
2520000 0.9303050692757483 -0.3599147829537849
2567500 0.9279511529537289 -0.3660175303742483
2615000 0.9253111939146008 -0.37362045158872265
2662500 0.9222338570195884 -0.38088961391350096
2710000 0.9191330500119694 -0.3877670619777853
2757500 0.9160953845176949 -0.3944694065657987
2805000 0.9131456445982353 -0.40132536372811595
2852500 0.9100450270923917 -0.40843903969505135
2900000 0.9066857236918162 -0.41533185062708633
2947500 0.9033748485913923 -0.42212897689253875
2995000 0.9002017759933724 -0.4289531052344697
3042500 0.896879158832894 -0.43594358748628204
3090000 0.8932103462251707 -0.4430370387320064
3137500 0.8895698899311413 -0.4498972974319532
3185000 0.8858794468797921 -0.4566909659133804
3232500 0.882430507612812 -0.4634695105130342
3280000 0.8787980756491964 -0.4706243047848696
3327500 0.8748795981641255 -0.4775964841608911
3375000 0.8709258439586771 -0.48437258191736227
3422500 0.8671444719680186 -0.49115664652591295
3470000 0.8631397139692389 -0.49818267661744176
3517500 0.8590479449700836 -0.5053093166828271
3565000 0.8545633283242465 -0.5122044337126967
3612500 0.8503420140084232 -0.5188302955873881
3660000 0.8461657899662282 -0.5256713677793747
3707500 0.8417324196923376 -0.5327416565300209
3755000 0.8370686235066428 -0.539730148844005
3802500 0.832466315311215 -0.5466106043009209
3850000 0.827840195540992 -0.5533675407362133
3897500 0.8233566890501332 -0.5603190274642413
3945000 0.8184364710915347 -0.5673803873366492
3992500 0.8133477561511746 -0.5744184572431545
4040000 0.8081686093657853 -0.5809810546967292
4087500 0.8032199276663836 -0.5877368606261043
4135000 0.7982640089930932 -0.5945815440628214
4182500 0.7929024958728929 -0.6015459842187444
4230000 0.7874942010090756 -0.6079095393243954
4277500 0.7829111362999324 -0.6138913846133905
4325000 0.7782178936780854 -0.6215277299540648
4372500 0.772224217899249 -0.6293630426472595
4420000 0.7658521805871434 -0.6365784573848422
4467500 0.7599229605932023 -0.6430976833876197
4515000 0.7539846537237476 -0.6497899916827552
4562500 0.7481320430796521 -0.6567619589997378
4610000 0.7418340770787766 -0.6637976079588072
4657500 0.7353586610310935 -0.6705655519007758
4705000 0.7290617078068027 -0.677060412635605
4752500 0.7227168874749293 -0.6838016030736248
4800000 0.7162901041975216 -0.690803034740315
4847500 0.7095075681398957 -0.6977331346906607
4895000 0.7024093038412593 -0.7041123576505817
4942500 0.6956332874365735 -0.7105743684926547
4990000 0.6890094253546177 -0.7172957832568394
5037500 0.6818132212642978 -0.7241615008804559
5085000 0.674366659168347 -0.73072229462252
5132500 0.6670663545103691 -0.7371523797424531
5180000 0.6597763246032256 -0.743553849441745
5227500 0.6523239266541937 -0.7503764140820908
5275000 0.6445647441552644 -0.7571084487885272
5322500 0.6363433447329238 -0.7633616087148696
5370000 0.6284582003713659 -0.7694910516941664
5417500 0.6206916110013905 -0.7758518088109757
5465000 0.6126243456479605 -0.7823916848126526
5512500 0.6041517628029219 -0.788839933617706
5560000 0.595579951283144 -0.7949050627054923
5607500 0.5870526686459215 -0.8009237897718332
5655000 0.5787225576075662 -0.8071746872320404
5702500 0.5695776138950459 -0.8135910653889646
5750000 0.5603880001406858 -0.8196277973957886
5797500 0.5512707860159868 -0.8252820365233078
5845000 0.5422851148616069 -0.8312158257923414
5892500 0.5328785866976223 -0.8372658781788986
5940000 0.5231076514104452 -0.8431957476053352
5987500 0.5133248027416684 -0.8487259628293674
6035000 0.5036795423550122 -0.8543655039866961
6082500 0.4939959994613699 -0.859911572369794
6130000 0.48375691100534274 -0.8658706949724774
6177500 0.47308340943638405 -0.8712316809957967
6225000 0.46266403633999276 -0.8761370521938054
6272500 0.45222752676167366 -0.8812728512105965
6320000 0.441508330103769 -0.8864809195994512
6367500 0.4305065137855237 -0.8913895737826646
6415000 0.41937552644815995 -0.8958273231662127
6462500 0.4090427776848944 -0.9008168904504604
6510000 0.39843436420086686 -0.9060691902573554
6557500 0.38704838166563754 -0.9115352081284842
6605000 0.37521088029171784 -0.9164904624481609
6652500 0.36327447441810823 -0.9207825486457124
6700000 0.35158177767216425 -0.9250769707839825
6747500 0.3397322659850616 -0.9294697964352748
6795000 0.3273955570463222 -0.9339443483630585
6842500 0.31471406687857334 -0.9379207733749019
6890000 0.302255851962638 -0.9416849591344416
6937500 0.2899563886079148 -0.9453373278755315
6985000 0.2771690053300185 -0.9492133877720593
7032500 0.2639828545305238 -0.9529459943943476
7080000 0.2506677753178569 -0.9560565195947188
7127500 0.2375570307437423 -0.9589333917265189
7175000 0.22430521278225424 -0.962132917360645
7222500 0.21070847690695402 -0.9651862673694018
7270000 0.19651783411240592 -0.967910721353133
7317500 0.18269233285302447 -0.9702544140247895
7365000 0.1689405269152254 -0.9724615495675755
7412500 0.15483893803090407 -0.9748202846792274
7460000 0.14023223037121157 -0.9769447139574767
7507500 0.12552542512288242 -0.9785878087124018
7555000 0.11103161599237879 -0.9800677298686511
7602500 0.0964756239322734 -0.9812970232528201
7650000 0.08151098959587216 -0.982883621910311
7697500 0.06619078350618135 -0.9838028981267528
7745000 0.050845787204916996 -0.9842202271990046
7792500 0.035844109507856735 -0.9847395141175804
7840000 0.0204991523110431 -0.9852245780383934
7887500 0.004440514413456076 -0.9854883428004787
7935000 -0.011566700469203698 -0.9847694285238352
7982500 -0.027301466193036614 -0.9840895416023692
8030000 -0.043099123087349894 -0.9833611228957264
8077500 -0.05923083691692245 -0.982596865264784
8125000 -0.0756027556612458 -0.9812313184444924
8172500 -0.0916150886114378 -0.979141738228117
8220000 -0.10819678848731056 -0.9774725723576783
8267500 -0.1247243200177915 -0.9754398218738407
8315000 -0.14145847878216442 -0.9731230616126334
8362500 -0.15840125526628734 -0.9703059624761565
8410000 -0.17514111145375338 -0.9669385808358218
8457500 -0.19193088408675044 -0.9635621839164242
8505000 -0.208858653867424 -0.9600649686981905
8552500 -0.22615515883265758 -0.9561205348595018
8600000 -0.24334693587391903 -0.9513824266031553
8647500 -0.26026402876630755 -0.946444615408589
8695000 -0.2773661253452625 -0.941458413424637
8742500 -0.29467835778205353 -0.9362062903780168
8790000 -0.3122292767845457 -0.9302409395968187
8837500 -0.3292883325044603 -0.9238069648414515
8885000 -0.34657673164538666 -0.9171161596008643
8932500 -0.36389848817431714 -0.9103777324699422
8980000 -0.3812688022120577 -0.9031419439704201
9027500 -0.39869900456790025 -0.8952669031134962
9075000 -0.4158641824875438 -0.8868874490235905
9122500 -0.4329333544566276 -0.8784069887782898
9170000 -0.45009187177115917 -0.8696354136624227
9217500 -0.4675059100173415 -0.8602071495914894
9265000 -0.48441717804424567 -0.8503505749418039
9312500 -0.5013426181174967 -0.840143847079058
9360000 -0.5181777348760916 -0.82967751629294
9407500 -0.53501033522945 -0.8188472624115102
9455000 -0.551556269646557 -0.8070576625644372
9502500 -0.568219597926065 -0.7952136679481487
9550000 -0.5845024604351108 -0.7830050513446316
9597500 -0.6006974619350007 -0.7704301094077375
9645000 -0.6169233825344437 -0.7572027437565241
9692500 -0.6327057049597823 -0.7435647761844165
9740000 -0.6483007865316682 -0.7294919394700093
9787500 -0.6638609111468723 -0.7151885204004625
9835000 -0.6791412416416658 -0.7002940154010565
9882500 -0.6942656265413577 -0.684932108300091
9930000 -0.7088471047500586 -0.6691468671566018
9977500 -0.7232195311967583 -0.6531265002745453
10025000 -0.7375092320397375 -0.636553007342716
10072500 -0.7516057924722374 -0.6195747224105317
10120000 -0.765108801408188 -0.6022830244825885
10167500 -0.7783453158478362 -0.58452983957249
10215000 -0.7912241888121982 -0.5663888502116725
10262500 -0.8040099713244303 -0.5478310903000824
10310000 -0.8162662392823774 -0.5287442975485995
10357500 -0.8281086658245145 -0.5094055732621188
10405000 -0.839478165501348 -0.4897689042724988
10452500 -0.8506563074336917 -0.469804000634569
10500000 -0.8612986461186665 -0.449220748042378
10547500 -0.8714275058040737 -0.4282901618853505
10595000 -0.8810625840398084 -0.4072085302942282
10642500 -0.8903698140484232 -0.3857918852356152
10690000 -0.8993587361549132 -0.3639475412305144
10737500 -0.9076104978779566 -0.34164427157983673
10785000 -0.9153545877049378 -0.3192600931194341
10832500 -0.9225936424663722 -0.2964464216678612
10880000 -0.9294619470579649 -0.2733997981345908
10927500 -0.9357272599884225 -0.24989297649920997
10975000 -0.9412462318678823 -0.22615939445280084
11022500 -0.946266251512061 -0.2023078947841929
11070000 -0.9508576589009622 -0.17820253508464218
11117500 -0.9549437798582551 -0.15359994458330845
11165000 -0.9581507730402569 -0.1287444483162877
11212500 -0.9608355740957216 -0.10381550745282743
11260000 -0.9627946839652372 -0.07870204609399578
11307500 -0.9643476759102538 -0.05318403111741336
11355000 -0.9649944860980041 -0.027248633346910217
11402500 -0.9647703395436634 -0.0011912086973358662
11450000 -0.963843862042004 0.024949955189318494
11497500 -0.9623925366206553 0.051221097091970404
11545000 -0.9601520069646413 0.07809843397618704
11592500 -0.9569338828728532 0.10520124313743257
11640000 -0.9527665931746795 0.13242524527388444
11687500 -0.9477544211572259 0.15985813649409075
11735000 -0.9420141310146438 0.1876374373944777
11782500 -0.9350935996506805 0.21604652096116758
11830000 -0.9268102685799174 0.24461965520246629
11877500 -0.9173399601671136 0.27327145226794075
11925000 -0.9068632187335327 0.3023539436697659
11972500 -0.8948622757501798 0.3321612657143631
12020000 -0.8810392749473089 0.3626159445154052
12067500 -0.8653704917064563 0.39312074675102787
12115000 -0.847772776351211 0.4243314547598828
12162500 -0.8277052718779881 0.4562941725695002
12210000 -0.8044821255567074 0.4892024404783406
12257500 -0.7777658977517745 0.5223383019907627
12305000 -0.7469762987784686 0.5562619854573966
12352500 -0.7111654704192948 0.5907263463140239
12400000 -0.66842756001384 0.6255599909923928
12447500 -0.6172475734778085 0.6599111894120001
12495000 -0.5554698632612135 0.6925065597639805
12542500 -0.4798239251212471 0.7212229120492885
12590000 -0.3861208351922908 0.7418405801925888
12637500 -0.2698046040815614 0.7463375593173364
12685000 -0.12790051952918538 0.7198753077890042
12732500 0.034110496791201345 0.639119469909386
12780000 0.18951316251206418 0.4743097454503233
12827500 0.27408202389575537 0.21390461447426343
12875000 0.21099963263138255 -0.08692924596196656
12922500 -0.0006511697515805558 -0.3115051871263436
12970000 -0.26390596885327544 -0.39274862037368524
13017500 -0.4884321407159772 -0.3606588476143124
13065000 -0.6466291306662095 -0.27422329940599127
13112500 -0.7476970349185572 -0.17313185755594918
13160000 -0.808777946982508 -0.07594209153191085
13207500 -0.843714419398367 0.011296181932920365
13255000 -0.8621656034484764 0.0877331466072652
13302500 -0.8698121644152157 0.15430826869898503
13350000 -0.8705874280471457 0.21216347464340707
13397500 -0.8672211135956486 0.2629380446906955
13445000 -0.861343366976719 0.3082785731646553
13492500 -0.8535527541111434 0.3495431139515703
13540000 -0.8440844486772718 0.3872465412410346
13587500 -0.833372227157891 0.4217534731139692
13635000 -0.8218841292635092 0.45368978584104436
13682500 -0.8095778399103862 0.48347626367333146
13730000 -0.7963582538815093 0.5113268001927295
13777500 -0.7824685904723742 0.5371437185032927
13825000 -0.7682871209240977 0.5610127809296058
13872500 -0.754169005589211 0.5834181455677103
13920000 -0.7396357144564116 0.6047295156580658
13967500 -0.7247885616216188 0.6246877638298436
14015000 -0.7099362326846212 0.6434488635985602
14062500 -0.6951655859785724 0.6611242309895285
14110000 -0.6803028724629399 0.6779658918088394
14157500 -0.6651997112014821 0.6939907347187262
14205000 -0.6504978554393912 0.7088341313575323
14252500 -0.6357246876203261 0.723229500026387
14300000 -0.6209283312820166 0.7367266716021105
14347500 -0.6062215608058644 0.7499967526958915
14395000 -0.5916143215064344 0.7624402221397116
14442500 -0.576619126504489 0.7741841913272474
14490000 -0.5620260470754886 0.7852111295083994
14537500 -0.547515409641784 0.79604310140787
14585000 -0.53303113289183 0.8064278647793282
14632500 -0.5186145644748483 0.8163139513532389
14680000 -0.504214449079533 0.8255817137296442
14727500 -0.48995944812208614 0.8343604568672182
14775000 -0.47577259998872434 0.8430007495985823
14822500 -0.461693293296302 0.8512428629168849
14870000 -0.4474911002062813 0.8590766282728269
14917500 -0.43362328816753803 0.8663396644827538
14965000 -0.4197577466382373 0.8734764903714766
15012500 -0.40605679771524295 0.8802882075609663
15060000 -0.392299697408505 0.8867831808081358
15107500 -0.3786942425326646 0.8929869608343132
15155000 -0.36521081214538886 0.8986785386755737
15202500 -0.351746276217606 0.9041825164281266
15250000 -0.3384567005747852 0.9094343267684919
15297500 -0.32526873645785614 0.9145816923562914
15345000 -0.31218701029909934 0.9190705590784998
15392500 -0.29918355355818366 0.9234370021161225
15440000 -0.28623312661819816 0.9276422366088782
15487500 -0.2734704278297063 0.9315955283898881
15535000 -0.26073812139242925 0.9354180549747715
15582500 -0.24806912367612763 0.9389587811165012
15630000 -0.2355550610244547 0.9422536996526746
15677500 -0.22314963535699608 0.9453768927607645
15725000 -0.2109364077843105 0.9484033551914204
15772500 -0.19864477967522812 0.9511918241454516
15820000 -0.1865372806316027 0.953729522927324
15867500 -0.17446558617153163 0.9560655807607563
15915000 -0.16271361031656548 0.9582661055861809
15962500 -0.15096498225779917 0.9603289310612065
16010000 -0.13914016415815172 0.962182439424566
16057500 -0.1277036943403255 0.9638053015504513
16105000 -0.11620565812152668 0.9652851665132341
16152500 -0.1047626930970077 0.9665828501181698
16200000 -0.0935259616939581 0.968036183552507
16247500 -0.08246918102254631 0.9691087364908363
16295000 -0.07132946084025307 0.9699393908189812
16342500 -0.060562805260960535 0.970752909212802
16390000 -0.04978218110415405 0.9716028209577872
16437500 -0.03896357403849533 0.972170062794233
16485000 -0.02818263051738893 0.9725742782928541
16532500 -0.01778535341264383 0.972818730691432
16580000 -0.007371298365408108 0.973136363809867
16627500 0.0027640977803781042 0.9731888832293224
16675000 0.013226560493251776 0.973334491286532
16722500 0.023353485433269247 0.9731576142928793
16770000 0.0331546413551442 0.9729287057635683
16817500 0.043093621682181865 0.9728073174578853
16865000 0.05296056040806214 0.9724939243984888
16912500 0.0625878518020368 0.9718750617036161
16960000 0.07230620434681316 0.9711668851603317
17007500 0.0816302416142528 0.9704063328083404
17055000 0.09095212136927279 0.9697094401759494
17102500 0.10036515217625835 0.9689260051967542
17150000 0.10975199302799481 0.9677811538099261
17197500 0.11872128008354597 0.9665579228294551
17245000 0.12760785835209135 0.9656303032579299
17292500 0.13655037864850275 0.964616075103665
17340000 0.14558304225793706 0.9633437753021056
17387500 0.15439642504241027 0.9618621313393131
17435000 0.16270541204114705 0.9605862497367988
17482500 0.1712275969675382 0.9593224938129901
17530000 0.17973569274980633 0.9579153998495353
17577500 0.1882035501471807 0.9562792346943528
17625000 0.196490397578839 0.9544875626560482
17672500 0.20453832019754276 0.9529944711661942
17720000 0.21274705945890882 0.9514396480110207
17767500 0.2207938847548111 0.9496107903799693
17815000 0.22881227066539964 0.9476964082987962
17862500 0.2364856372182449 0.9457918379481794
17910000 0.24424494723550977 0.9442081444153252
17957500 0.25189605568179096 0.9422273745472067
18005000 0.25968599818400906 0.9403181677227898
18052500 0.2672718028464137 0.9380547627070209
18100000 0.27436887547414496 0.9360950439067747
18147500 0.28161062817800153 0.9340467947644633
18195000 0.2891152119176251 0.9319904149491912
18242500 0.29636127849852234 0.92965719097546
18290000 0.3034064056043245 0.9274336218662411
18337500 0.31035961568146636 0.9252899589737992
18385000 0.31735896362706717 0.9234666788144881
18432500 0.3244622723354234 0.9210361802717534
18480000 0.3312375819946023 0.9185674779024398
18527500 0.3378411640533435 0.9162718078574859
18575000 0.34452223078263366 0.9138696971507061
18622500 0.3512743190896428 0.9115082339880537
18670000 0.35783224414670056 0.9089299475975677
18717500 0.36420003301286863 0.906145669113061
18765000 0.3705258723153886 0.903499317733383
18812500 0.3769028777775037 0.9011708668634603
18860000 0.3832293003720052 0.8984914714791835
18907500 0.38955618579563966 0.8956771826862495
18955000 0.3954577235826694 0.8930918316799487
19002500 0.401432706359469 0.8905932727815347
19050000 0.40741467969055034 0.8879137196866355
19097500 0.4134031547372317 0.8853168040655924
19145000 0.4192310741950957 0.8823895347883235
19192500 0.4248367241947175 0.8797523312033517
19240000 0.4306745536983092 0.8771296620156729
19287500 0.43646479961339457 0.8745540911861183
19335000 0.44204523727523337 0.8718015273249973
19382500 0.44753185294049264 0.8688788149279872
19430000 0.4527654450169439 0.8663231498505639
19477500 0.45831752586726826 0.8635858966117385
19525000 0.4638101998440099 0.8609230494768472
19572500 0.46906256532425067 0.8578267416039366
19620000 0.4742300019073702 0.8550902439957768
19667500 0.4794086840565177 0.8524129286070918
19715000 0.48477005154073605 0.8496764559825183
19762500 0.4899213390598343 0.8466910491413395
19810000 0.4950154702886633 0.8437684674079321
19857500 0.49971307460618347 0.8409838908165851
19905000 0.5047919372160005 0.838162073456
19952500 0.5098339364273712 0.8353026053415311
20000000 0.5146905750866334 0.8322628818983455
