# HZ S RI R 50
10000000 -0.7687780573341496 0.384256637875767
10000500 -0.7672868270170833 0.3851674904441535
10001000 -0.7657200884156913 0.3862907740456287
10001500 -0.7641646419924466 0.3873779175814422
10002000 -0.7627311285114348 0.3885201208524395
10002500 -0.7612811727380331 0.3895234852090259
10003000 -0.7597967052783791 0.3905153401519171
10003500 -0.7582247672181025 0.39150814132453704
10004000 -0.7566429624027239 0.3925647363731758
10004500 -0.7551658263605103 0.39373410232591205
10005000 -0.7537597258349924 0.39481179837056257
10005500 -0.7522513549239429 0.39577568987696465
10006000 -0.7507142752986321 0.39673332940719425
10006500 -0.7490127868913503 0.3977097433162325
10007000 -0.7474161990579243 0.39877441643610745
10007500 -0.7458252512036201 0.3999213693117237
10008000 -0.7442826234546283 0.4009633325730108
10008500 -0.7427404783142382 0.40199253267509744
10009000 -0.741142892823401 0.4028887002620911
10009500 -0.7395465011885091 0.40392032894966345
10010000 -0.7378434288681597 0.4050089801449835
10010500 -0.7362629414752578 0.4060665360991765
10011000 -0.734694101437362 0.40706814832555677
10011500 -0.7330901422005008 0.4080961518143223
10012000 -0.7313838595487213 0.40900459453715404
10012500 -0.7296392843697274 0.41000935128944954
10013000 -0.727833026510688 0.4110622687105346
10013500 -0.726067516227312 0.41216479574762677
10014000 -0.7244430906164588 0.4133022762316078
10014500 -0.7226489537959712 0.41423906667260185
10015000 -0.7209146728947149 0.41524759182800364
10015500 -0.7190827725155435 0.4162201513377704
10016000 -0.7172488685527856 0.4172768268842181
10016500 -0.7154799406747177 0.41836272468021724
10017000 -0.7137041227490174 0.4193780980015952
10017500 -0.7118890808036278 0.4204152280295466
10018000 -0.7099485729666604 0.4214065596998086
10018500 -0.7080030141108004 0.4223970032739232
10019000 -0.7059627171367241 0.4234686531434145
10019500 -0.7039641720844282 0.4245931677945345
10020000 -0.7020669101429708 0.42572664248048564
10020500 -0.7001731540738011 0.4266768666483435
10021000 -0.6981994768188345 0.42769865180879285
10021500 -0.6961323476517561 0.42866607504777693
10022000 -0.6941384243688089 0.42973336177956556
10022500 -0.6921749690991332 0.4307902700832357
10023000 -0.6902646874648277 0.43183488469527476
10023500 -0.6882964692001977 0.4326827992100828
10024000 -0.6863316269698094 0.43366673705324194
10024500 -0.6842373826123975 0.4345820073491288
10025000 -0.6820924652063282 0.4356191730254735
10025500 -0.6800455242466723 0.4366644071589202
10026000 -0.6780150882266373 0.4376616042233578
10026500 -0.676020427901535 0.438501423213065
10027000 -0.6739819348915426 0.4394598918082645
10027500 -0.671783746229421 0.4403262567863884
10028000 -0.6696573511025475 0.441267631043931
10028500 -0.6675571380113594 0.4422521480089913
10029000 -0.665454269677703 0.44318285778071737
10029500 -0.6632837435026512 0.44402186120468323
10030000 -0.6610329562164469 0.4448046509791724
10030500 -0.6587725839666526 0.4457024370254754
10031000 -0.6563926542385402 0.44668245656165206
10031500 -0.6540638985718121 0.4475437969763049
10032000 -0.6518143554513982 0.4485037056572763
10032500 -0.6495313713688983 0.4494104687990834
10033000 -0.6470359764862419 0.45022329026904345
10033500 -0.6445648386692743 0.45099423492151663
10034000 -0.6421410068092123 0.4519117261946548
10034500 -0.6396047177505277 0.4527963416602505
10035000 -0.6371742251560469 0.4537462493302957
10035500 -0.6347206500554294 0.4545484214606849
10036000 -0.6321350412138715 0.4553342565050391
10036500 -0.6295039102323362 0.4561453425096718
10037000 -0.6268381010721655 0.45699881292955385
10037500 -0.624286459003209 0.4578640400377233
10038000 -0.6217855147544942 0.4586820779396638
10038500 -0.6191421212414349 0.45948343266768005
10039000 -0.6166320985078727 0.46012312879227846
10039500 -0.6139571884943196 0.4608582427685122
10040000 -0.6112832556443403 0.46157487564075605
10040500 -0.6086301014364663 0.46243275876291084
10041000 -0.6059871758573495 0.4632283221385788
10041500 -0.6033769203636121 0.46386908036336727
10042000 -0.6006155125486183 0.4645371167186683
10042500 -0.5977286704769317 0.46517128423151777
10043000 -0.5949224011430964 0.4659568830484544
10043500 -0.5921269107644869 0.4667150796046145
10044000 -0.589412926551055 0.4673524181410125
10044500 -0.5866524751468802 0.4680183108944537
10045000 -0.5838496498049062 0.4685509579266623
10045500 -0.5809701290705227 0.46918650482446533
10046000 -0.5781474574179027 0.4698295317822369
10046500 -0.5753843867612933 0.47045585565651427
10047000 -0.5725540285699363 0.47100321204161766
10047500 -0.5697618524942911 0.47149672603290715
10048000 -0.5668261239927994 0.4719519920292421
10048500 -0.5638632871591355 0.4724457045940335
10049000 -0.5608411291158497 0.473049932353638
10049500 -0.5579161951379352 0.4735346953079019
10050000 -0.5549073597380334 0.47400954814316615
10050500 -0.5519730169301933 0.4744537478128783
10051000 -0.548869484318705 0.47493147199155056
10051500 -0.5457653146720725 0.4752377465929021
10052000 -0.5425676966642471 0.47573153627385206
10052500 -0.5393066069653989 0.47619324559389614
10053000 -0.5361333656180137 0.47662680757158893
10053500 -0.5328208569220301 0.4769405643202874
10054000 -0.5295178024283925 0.4772373353769709
10054500 -0.526165005751735 0.4776124569824884
10055000 -0.5226488858770297 0.47793017154877354
10055500 -0.5192758369522187 0.4783131003391166
10056000 -0.5158962989287974 0.47860007576697605
10056500 -0.512529608322892 0.4788479286393173
10057000 -0.5091283760290876 0.47900385403719054
10057500 -0.5056034952133709 0.47912195312294975
10058000 -0.5021031606955249 0.4793759952294335
10058500 -0.4987916638453213 0.47956514892745444
10059000 -0.4954010813119353 0.4797000359951226
10059500 -0.4920709482628894 0.47978697363422973
10060000 -0.48863961286075625 0.47979946253259137
10060500 -0.48517892582095445 0.47980394568921075
10061000 -0.48176031267714287 0.4798523025721974
10061500 -0.47834870490492565 0.4799765644659507
10062000 -0.47491685802010536 0.47994142659544875
10062500 -0.47147449310225314 0.47992409524425783
10063000 -0.4679353157878584 0.47979133441306354
10063500 -0.46425434115425024 0.4796353735286918
10064000 -0.4606294500735836 0.47958728284819224
10064500 -0.45697484071774797 0.479478745260284
10065000 -0.4533642517534182 0.47930960594784244
10065500 -0.4496602759809688 0.4790719573640922
10066000 -0.44596488813924196 0.4787682415664044
10066500 -0.4421277572165333 0.47848488756149243
10067000 -0.4383045962366281 0.4782238970823876
10067500 -0.43444568054077315 0.4779116363434342
10068000 -0.4306435565920466 0.47758775641270634
10068500 -0.426749645198924 0.4771456061275802
10069000 -0.4227752564671645 0.47667975655927214
10069500 -0.4187203098645971 0.4761323405385383
10070000 -0.4146999863668405 0.4756986518872369
10070500 -0.4105674468228774 0.47518449248978534
10071000 -0.40653344472379316 0.47459462134181823
10071500 -0.40243192252017207 0.473940315344391
10072000 -0.398317625992669 0.47319387862014756
10072500 -0.3941227190006164 0.47247831828613746
10073000 -0.3899333754205262 0.47173384164236654
10073500 -0.3858913618874715 0.4710263820426096
10074000 -0.38185938068308867 0.47021576900111783
10074500 -0.37772126525672556 0.4693645009430808
10075000 -0.3736751120391346 0.468397341289688
10075500 -0.36951382728891446 0.467448973531504
10076000 -0.36538888308546397 0.4665558648738647
10076500 -0.36132317060026536 0.46556043891701837
10077000 -0.3572084531807371 0.464504387453706
10077500 -0.353073058008827 0.46343382311279646
10078000 -0.34897571261298177 0.4622207021764679
10078500 -0.3447357024658575 0.4611066131881006
10079000 -0.34066743336056315 0.4598973621900031
10079500 -0.336473736225822 0.45875354402255825
10080000 -0.3324323898625778 0.45747253989201053
10080500 -0.3283404038745466 0.45620861179937156
10081000 -0.3242021897288367 0.4547862240566985
10081500 -0.3200856576573956 0.4534027928794316
10082000 -0.3157503602296396 0.45192728081563427
10082500 -0.31154491379780924 0.45042852258977356
10083000 -0.30737565937967765 0.4488979354816252
10083500 -0.30310291163842235 0.44722677348111184
10084000 -0.2987780199876766 0.44544298621985434
10084500 -0.29441687365691394 0.44366766889026044
10085000 -0.28995341622937115 0.4418150412514606
10085500 -0.2855964745988779 0.44007966253369596
10086000 -0.28113889136642556 0.43813995802799377
10086500 -0.2766997117454386 0.4361637242336554
10087000 -0.2723032195713652 0.43404159701294626
10087500 -0.26781178907536957 0.431878871438893
10088000 -0.26333007387527607 0.4298037983448784
10088500 -0.2588423728378449 0.4276038709201841
10089000 -0.25443846779217294 0.4252125750003808
10089500 -0.2499774941452796 0.42292643042502664
10090000 -0.24559958863414463 0.4204928658395124
10090500 -0.2411191504793642 0.4180820955225371
10091000 -0.2366450929278806 0.41562044925418645
10091500 -0.23233896267354703 0.41312582496875716
10092000 -0.2279605647576368 0.4105472751993901
10092500 -0.22366021808624575 0.40790675263113507
10093000 -0.21923208417482906 0.4050908620546967
10093500 -0.2148614405324873 0.4023020487724667
10094000 -0.21045429659926534 0.39946272500162483
10094500 -0.2061009056946384 0.3966012902332336
10095000 -0.20182656320793235 0.39367798922331726
10095500 -0.19761376267289507 0.3906700323822847
10096000 -0.19334484141081212 0.3875861305228724
10096500 -0.18912225759863122 0.38455833246778554
10097000 -0.184954602738381 0.38151880361779406
10097500 -0.1808985181619118 0.37842510958498565
10098000 -0.17681659452103082 0.37524657471839057
10098500 -0.17278736836425956 0.37199911664492175
10099000 -0.16867758737106778 0.36857346397684115
10099500 -0.16465188684304594 0.36518287864066273
10100000 -0.1605516202187875 0.36168737032747617
10100500 -0.15647775264271466 0.3581346093279509
10101000 -0.1525492934990989 0.35456625459097607
10101500 -0.1485100473694486 0.35081780208937685
10102000 -0.14440765962929247 0.34700647156527986
10102500 -0.14026139185983638 0.3431162566551076
10103000 -0.13613039873201727 0.33914425593486835
10103500 -0.13202031239006853 0.33511280771263807
10104000 -0.12792823411850118 0.33095018661970454
10104500 -0.12383720677414882 0.32666743678370636
10105000 -0.11975271045587349 0.3222140020053274
10105500 -0.11561679199456651 0.31776459737628826
10106000 -0.11160968104478142 0.3133210080784583
10106500 -0.1076721092277748 0.30876367922963466
10107000 -0.10388614924478441 0.3042244763409261
10107500 -0.10008989281562054 0.2995879833586087
10108000 -0.09637386332630916 0.29489891289549747
10108500 -0.09271726272087348 0.29027646047390726
10109000 -0.08906375974285416 0.28553164742577397
10109500 -0.08552870098861012 0.280822772105467
10110000 -0.08204338182415727 0.2759876477832784
10110500 -0.07868366445704059 0.2711033709163475
10111000 -0.0752835107507816 0.2662112896221939
10111500 -0.0719997186166247 0.2613811515641507
10112000 -0.06882733733069091 0.25652125510469725
10112500 -0.06569706032668864 0.25164572251087464
10113000 -0.06267675595168573 0.24673679608434554
10113500 -0.059768292534132565 0.2417330719941
10114000 -0.05686704902294501 0.23677627062893464
10114500 -0.053899093281406116 0.23167141797334473
10115000 -0.05107013556485141 0.22655652196210635
10115500 -0.04827982905812526 0.22136941077822597
10116000 -0.045534236315318055 0.21603994770167634
10116500 -0.04281227246896342 0.21065469131490427
10117000 -0.04015120969320251 0.2051946693053801
10117500 -0.037613393957955335 0.19968501918509104
10118000 -0.03495988362788306 0.1941407061435165
10118500 -0.032511436138907786 0.18856194196263165
10119000 -0.030216851434879587 0.18303396007261308
10119500 -0.02781443043685336 0.17735609603034597
10120000 -0.025471795675471972 0.17160727973491446
10120500 -0.023128030981831194 0.16574852096308465
10121000 -0.020941646515076455 0.15985332955515186
10121500 -0.018761132552674222 0.1538348284420889
10122000 -0.016665753888222272 0.14768996187094058
10122500 -0.014633952577010409 0.14145006623793951
10123000 -0.012624376878852742 0.1351366853944787
10123500 -0.010720652916771283 0.12884368225855541
10124000 -0.00892556567183446 0.12249197279691071
10124500 -0.0072807403269337856 0.1161805379378468
10125000 -0.005740733610781964 0.10985390992767584
10125500 -0.0041670155354086354 0.1034554913567409
10126000 -0.00278747415006637 0.09712046157570797
10126500 -0.0013685963755662917 0.09081608523476345
10127000 -0.00016557229368921575 0.08451666034820686
10127500 0.001032158395156015 0.07818835128106326
10128000 0.0020552523057586138 0.07181630705964945
10128500 0.0031012234351496582 0.06552167312295099
10129000 0.003973010792695657 0.059155320193544
10129500 0.004824116013867902 0.05280532934558951
10130000 0.005543920397235015 0.04643020464788835
10130500 0.006158767623231996 0.040050646797618085
10131000 0.006716226306261564 0.03363734797332142
10131500 0.0071270349329869065 0.02729181900375004
10132000 0.007530627716228161 0.02092439543037001
10132500 0.007770277445224763 0.014635461062873873
10133000 0.007963363624069606 0.008348506700090689
10133500 0.008100276471086963 0.0021868242058989424
10134000 0.008214987078454878 -0.00401033428843788
10134500 0.008169728722588058 -0.010228354074711132
10135000 0.008024953067908567 -0.01643836127847203
10135500 0.007816045824919677 -0.022724246989551593
10136000 0.0075762430723891805 -0.02900455317613931
10136500 0.007231714287738071 -0.03528035862785
10137000 0.0067863588285210835 -0.041697680473927586
10137500 0.006249667190803885 -0.04806438622796116
10138000 0.005670380524074195 -0.054489018268401884
10138500 0.0049460985380427236 -0.06090503060743274
10139000 0.004129837374659728 -0.06730645680866908
10139500 0.003265241906004331 -0.07383792765742521
10140000 0.0023101570252425643 -0.08027717834793181
10140500 0.001207661353581444 -0.08676765514976159
10141000 7.476219969752676e-05 -0.09320389236305733
10141500 -0.0011653358557769914 -0.09956012363830773
10142000 -0.0025294919384421344 -0.10594444077706693
10142500 -0.003945486301371013 -0.11231630937697987
10143000 -0.005457763018428506 -0.11860980823530605
10143500 -0.0069184639268564906 -0.12478297540948594
10144000 -0.0085361942951234 -0.13095629249236695
10144500 -0.010280139767491115 -0.13711337934959333
10145000 -0.012030790013885876 -0.14323052973567554
10145500 -0.01387343843363422 -0.14934262158358685
10146000 -0.015767622339555924 -0.1553403823290413
10146500 -0.01773710351999717 -0.1613049821571419
10147000 -0.019829938838624286 -0.16728133045409596
10147500 -0.0220210127857345 -0.17318667396429402
10148000 -0.02422208363958074 -0.1789543967241294
10148500 -0.026517486524567875 -0.18471121791976294
10149000 -0.028817455401606278 -0.19030981307722566
10149500 -0.031155993833595855 -0.19587480906266425
10150000 -0.0335650870556299 -0.20135844892990268
10150500 -0.036071151982092584 -0.2068523981100309
10151000 -0.03862323951838721 -0.21224142118797376
10151500 -0.04118355407415395 -0.21764048719728124
10152000 -0.0439237502818031 -0.22301852490324375
10152500 -0.04667648082396523 -0.22832997633548988
10153000 -0.04950102305394986 -0.2336719976662813
10153500 -0.05241486536330939 -0.23894171168672115
10154000 -0.05537608061230656 -0.24408124418926527
10154500 -0.05829559009407508 -0.24931263735172715
10155000 -0.06129012487841308 -0.2543356785313265
10155500 -0.06436234840464163 -0.2593755593486354
10156000 -0.06742370481509505 -0.26430952685554954
10156500 -0.07060010541764991 -0.26927663943172253
10157000 -0.07390177212163548 -0.2742307729768138
10157500 -0.07727639571383954 -0.2792100748833166
10158000 -0.08068137104701947 -0.2842120451978625
10158500 -0.0842301529691174 -0.28911801399164466
10159000 -0.08781525332431364 -0.29387618266883103
10159500 -0.09149662694586962 -0.29871797054859617
10160000 -0.09516800458477655 -0.30345132951746817
10160500 -0.09884552393868078 -0.30815151749056563
10161000 -0.10257180418171029 -0.31274638488423023
10161500 -0.10623574256114042 -0.31713394012426477
10162000 -0.10999622074455696 -0.32161122388381974
10162500 -0.11377011019123291 -0.3259431918461669
10163000 -0.11760804284204085 -0.3302218228669794
10163500 -0.12143599110774463 -0.33441399591104104
10164000 -0.1251806870772274 -0.33857157713077773
10164500 -0.128983501368376 -0.3425461402984123
10165000 -0.1329354262049291 -0.34642022027190894
10165500 -0.1367922629353589 -0.35021728604995556
10166000 -0.14070978201936374 -0.35406766558920477
10166500 -0.1445780531041756 -0.3578793020160721
10167000 -0.14847251695195504 -0.36143668173287097
10167500 -0.15242789036551907 -0.3650281256287943
10168000 -0.15642847023911666 -0.3685816442082516
10168500 -0.1604623791279436 -0.3720893386013687
10169000 -0.16455908292230353 -0.37556541576435504
10169500 -0.16857553938974665 -0.3789664052830918
10170000 -0.1726121280214196 -0.3822993207826178
10170500 -0.17663075050036645 -0.3855268854782788
10171000 -0.18071671286682886 -0.38870133520907285
10171500 -0.18479959790874825 -0.3917924605449855
10172000 -0.1889183720681039 -0.39489250224007366
10172500 -0.19300562788559955 -0.3979713569641685
10173000 -0.19710374089847085 -0.4009118712624642
10173500 -0.20120995261414942 -0.4038366219884203
10174000 -0.20544268909166746 -0.4066246604593266
10174500 -0.20979908878514442 -0.40952700781849216
10175000 -0.21404680572122411 -0.41232382160660747
10175500 -0.21842419425476056 -0.4151204668587281
10176000 -0.2226901222742838 -0.41776646503034537
10176500 -0.22695037145955604 -0.4203716127494628
10177000 -0.23125983905449782 -0.4228032727695693
10177500 -0.23554725819056369 -0.4253311428324233
10178000 -0.2397842750639571 -0.4277024166466662
10178500 -0.24393983249342882 -0.43010657475197156
10179000 -0.2480721551567669 -0.43243439439526454
10179500 -0.2523048072852377 -0.4345908612370292
10180000 -0.25649709899286977 -0.4368273264823123
10180500 -0.26085866653866097 -0.4389962737729007
10181000 -0.265149052154833 -0.44124960912122774
10181500 -0.2693948036172747 -0.4433615867363056
10182000 -0.2735980264387689 -0.4453548254782177
10182500 -0.27789005461720034 -0.44730946072961675
10183000 -0.2821993213546088 -0.44921446181399044
10183500 -0.28655288191005013 -0.4510509501570906
10184000 -0.2909669530033208 -0.4530565712353242
10184500 -0.29509708662602274 -0.4546907984128008
10185000 -0.29933422069369925 -0.45634333583096093
10185500 -0.3035056062675728 -0.45796757952081607
10186000 -0.3076253768708169 -0.45949081770245415
10186500 -0.31183539374605923 -0.46102239301096387
10187000 -0.3159571500945881 -0.4625747681693612
10187500 -0.3199390647161232 -0.4640272276711517
10188000 -0.3239405622794662 -0.4654331132167032
10188500 -0.3278151165326579 -0.46674786937712204
10189000 -0.33191841783017956 -0.46795859368455106
10189500 -0.33593570581845456 -0.46916694928047864
10190000 -0.34000129917087674 -0.4704511336102239
10190500 -0.3440396874334052 -0.47164204926065717
10191000 -0.3480030085252475 -0.4728320161433211
10191500 -0.3520975784243768 -0.47392961468136924
10192000 -0.3562327304599092 -0.4749402691041278
10192500 -0.36038730034987526 -0.4759992259508777
10193000 -0.36451090005077474 -0.4770817529114009
10193500 -0.36853304511568297 -0.4780064262864727
10194000 -0.3724123907917332 -0.4789826535350693
10194500 -0.3763505869309696 -0.47969291494320837
10195000 -0.3802509787057359 -0.48049644993492485
10195500 -0.38423518590888167 -0.481214240309073
10196000 -0.3881754323177774 -0.482155168678422
10196500 -0.39194178216364517 -0.4828173547379403
10197000 -0.3956151427187748 -0.4835335270941235
10197500 -0.3994902728222592 -0.48417983529636
10198000 -0.40324879898576144 -0.4847287837899102
10198500 -0.4070767380989704 -0.4853211458738183
10199000 -0.41087790344824865 -0.4859519882620887
10199500 -0.41462800591679855 -0.4865225653621576
10200000 -0.41825876496410036 -0.4870028160498954
