# HZ S RI R 50
12500000 -0.8800348589651742 0.23909035859592823
12501250 -0.8791786047997853 0.24046470173408935
12502500 -0.8782289984176462 0.242031783920347
12503750 -0.8774631565525024 0.24348261802107565
12505000 -0.8765719642097615 0.24490761194065672
12506250 -0.8757391036968236 0.2464444484600174
12507500 -0.8748921167704059 0.24772234629766118
12508750 -0.8739818247849973 0.2492826764452465
12510000 -0.8731890441408361 0.2506485439905615
12511250 -0.8722633296245952 0.25214616455169936
12512500 -0.8714495917266041 0.2535136223715484
12513750 -0.8705053338351671 0.2549160289470991
12515000 -0.869671583282959 0.2564084203299922
12516250 -0.8688705598838683 0.25782012931030734
12517500 -0.8679271936281897 0.25924924869731875
12518750 -0.8671107258927855 0.26065188865624833
12520000 -0.8660687082846507 0.26206463802236674
12521250 -0.8652507335685994 0.2635631956110683
12522500 -0.8643020525490654 0.2649451282981789
12523750 -0.8633855438364685 0.26646778788617026
12525000 -0.8625080139471419 0.2678992939764062
12526250 -0.8613785526665214 0.2693917814822615
12527500 -0.8604940334094414 0.27094032795513107
12528750 -0.8594589727706815 0.27239592000934215
12530000 -0.8585181707090749 0.2739179700873773
12531250 -0.8574590530957988 0.2753638257952654
12532500 -0.8562901149984462 0.2769230036350349
12533750 -0.8553585864159491 0.2785213940241221
12535000 -0.8541760986722103 0.28000015825571056
12536250 -0.8531722786174978 0.281580227781403
12537500 -0.8520701536169537 0.2830817961382448
12538750 -0.8509388693917261 0.2846661883772768
12540000 -0.8499129205310966 0.2862741836475408
12541250 -0.8487115674586213 0.2877873613874784
12542500 -0.8475886294951366 0.2893386615437023
12543750 -0.846485233084143 0.29080727344655927
12545000 -0.8453852388780564 0.292452068718585
12546250 -0.8443573914842096 0.2938644598746821
12547500 -0.8430569148386795 0.2954909387544868
12548750 -0.8420275237767343 0.2970063710387837
12550000 -0.8407973141002966 0.29847260179499835
12551250 -0.8396607555582047 0.30010000957458655
12552500 -0.8384702889122612 0.30157842405146723
12553750 -0.8371800902841086 0.30315774181745503
12555000 -0.8360819882716253 0.3046388451374299
12556250 -0.8347457187164593 0.3062243016993692
12557500 -0.8335191169473086 0.3079243984117268
12558750 -0.8323128727511615 0.30943128433754247
12560000 -0.8309241350054923 0.3111150256303043
12561250 -0.8296164635763486 0.3126243697921332
12562500 -0.8281579988965497 0.3143594298473469
12563750 -0.8268879536295258 0.3159763684851456
12565000 -0.8254725130266044 0.3176066206720977
12566250 -0.8240855814484681 0.31928399638681443
12567500 -0.822686300331785 0.3208252893460964
12568750 -0.821053977819087 0.32247139461845936
12570000 -0.8198475417266206 0.32424171185523626
12571250 -0.8182645510097649 0.3258304568195187
12572500 -0.8169719102010133 0.3275301953599496
12573750 -0.8154669967386486 0.32902329925625884
12575000 -0.8139900752113404 0.3307971767689591
12576250 -0.8125330387554056 0.33228643753647785
12577500 -0.811015193207845 0.3339132676463216
12578750 -0.8096903951663409 0.3355418372308702
12580000 -0.8080500666744113 0.33703066941145854
12581250 -0.8066304744238684 0.3387672785605095
12582500 -0.8051728793748892 0.3403285044455004
12583750 -0.8035816658013225 0.3419072884431428
12585000 -0.802126809154996 0.3434059852736192
12586250 -0.8004755341311651 0.3450165171822348
12587500 -0.7989383850513526 0.3467227658105338
12588750 -0.7973265554759541 0.34825151786873526
12590000 -0.795723532964553 0.34995117496982503
12591250 -0.7940659911588079 0.3515268826538286
12592500 -0.792305392627904 0.3532520885459683
12593750 -0.790608098348308 0.3548656392527033
12595000 -0.7888278917815007 0.3565013029980087
12596250 -0.7871246725451713 0.35831629087445377
12597500 -0.7852802627116721 0.35985527370318826
12598750 -0.7833956600942305 0.3616580212457087
12600000 -0.781599030514106 0.36333938286038664
12601250 -0.7796904218718805 0.36499364598513667
12602500 -0.7778803348264492 0.3666777291292867
12603750 -0.7760141323541376 0.36828570843488856
12605000 -0.7740642205284854 0.37010019319000914
12606250 -0.7722311506979082 0.3716725996015944
12607500 -0.7702440317448634 0.3733070035568659
12608750 -0.7684118964397166 0.37494728529659943
12610000 -0.766330027230344 0.37657089968939395
12611250 -0.7644371777889888 0.3783082742782075
12612500 -0.7625343973019475 0.37988631172383136
12613750 -0.76046523902749 0.38152996896459535
12615000 -0.758563625308215 0.383129051033408
12616250 -0.7564476681526806 0.3847004734748812
12617500 -0.7544465442545516 0.3863801613285979
12618750 -0.7523806979711594 0.3879824230848996
12620000 -0.7502051163514134 0.3896510089173005
12621250 -0.7481499996958941 0.3912593992460192
12622500 -0.7458650907542639 0.3928977896412283
12623750 -0.7437619662961353 0.394627915522302
12625000 -0.7414453381012985 0.396239921889232
12626250 -0.7391622200077445 0.39798869208840604
12627500 -0.7368640931927937 0.39954902033096085
12628750 -0.7344096442603579 0.4012822109175859
12630000 -0.7320829477424993 0.4029155665799224
12631250 -0.7296175552448702 0.4046527724913903
12632500 -0.7272272342523451 0.4063714043959368
12633750 -0.724722786301878 0.4078483513646652
12635000 -0.7221464778859199 0.4096017826425436
12636250 -0.7197546601469575 0.41121686650288575
12637500 -0.7171339483763061 0.41287699116038495
12638750 -0.7147226917334105 0.41447803909629055
12640000 -0.7120988537180816 0.4160050563197533
12641250 -0.7095056869913222 0.41770208084948274
12642500 -0.706970078346628 0.41924792291761087
12643750 -0.7043183925229979 0.4208234980679833
12645000 -0.701799388414552 0.4223150504005925
12646250 -0.6991011351057083 0.42380769424261927
12647500 -0.6964786930453086 0.4253872216462547
12648750 -0.6937580166261113 0.42686150515696036
12650000 -0.6910185043878516 0.42845576740860564
12651250 -0.688343911440262 0.4298731925285102
12652500 -0.6853696038398809 0.4314156974112459
12653750 -0.6826396596204357 0.43297709496433
12655000 -0.6796828599463903 0.43445245426501583
12656250 -0.6767571978994479 0.4360156198372092
12657500 -0.673751327147331 0.4374479824141125
12658750 -0.670594342144504 0.4390131180148859
12660000 -0.6675734083498018 0.4405810779248339
12661250 -0.6642891687528307 0.4420202113250212
12662500 -0.6611102961115322 0.4435494535936898
12663750 -0.6578461874516603 0.44496317857296797
12665000 -0.654459808057232 0.446519185800645
12666250 -0.6512484634892916 0.44792792318647134
12667500 -0.6478232251595466 0.44935932545700963
12668750 -0.6445200692565691 0.4508231895335667
12670000 -0.6411242854082385 0.45210335445069644
12671250 -0.6378369162352643 0.4538374723790661
12672500 -0.6342519701461974 0.454878332410988
12673750 -0.6308100967992909 0.45626068597878355
12675000 -0.627392460582156 0.4575196505875656
12676250 -0.6238244189282623 0.4587054565686572
12677500 -0.6203969038288587 0.4600304218473428
12678750 -0.616822013237924 0.461103158747438
12680000 -0.6133157076293835 0.46248134194796503
12681250 -0.6097714923271759 0.46348139348434464
12682500 -0.6059956442861624 0.46462839459503186
12683750 -0.602372349759605 0.46589316441992285
12685000 -0.5986134818382526 0.4669972936981395
12686250 -0.5947851039141359 0.46813998235525944
12687500 -0.5909400670664817 0.46914227242722917
12688750 -0.5869955851033494 0.4703104602346409
12690000 -0.5830064185810236 0.4713742029164764
12691250 -0.5789025000445805 0.47234121996616807
12692500 -0.5748548165537493 0.47344022670195257
12693750 -0.5707038472745708 0.474353383801561
12695000 -0.5663720312710557 0.4753737609602524
12696250 -0.5621321546016819 0.47632157332755504
12697500 -0.5577858266443507 0.47721203669133333
12698750 -0.5534811437710861 0.47803437305780405
12700000 -0.5490891130288225 0.47879215700387157
12701250 -0.5446837628030127 0.47965663950364956
12702500 -0.5403200052092284 0.4803148967630344
12703750 -0.5358928263848659 0.4809719669734819
12705000 -0.5315093251385881 0.4816305090390879
12706250 -0.5269853903875742 0.48217051426063395
12707500 -0.5225701390246483 0.48278400834176705
12708750 -0.5180975348870542 0.4832841169856875
12710000 -0.5135269893296347 0.4837707377234451
12711250 -0.5090491936044724 0.4841325916916186
12712500 -0.5043767701440354 0.4844999152491116
12713750 -0.49980376841530455 0.48489675552942996
12715000 -0.4951117093104157 0.48508892391485664
12716250 -0.49033239969584624 0.4853990723685553
12717500 -0.48551270037296257 0.48551989297044895
12718750 -0.48047723128866476 0.4857641910838044
12720000 -0.4756045651356389 0.48585116695586544
12721250 -0.4705698069110153 0.48591240425605176
12722500 -0.4653633501905095 0.4859289470027707
12723750 -0.46009997410935655 0.4858207649586035
12725000 -0.4548280269410086 0.4857825143092153
12726250 -0.44948540926715574 0.4855721549039625
12727500 -0.44399193099475864 0.48533788066122907
12728750 -0.4385666429841087 0.48503269602619054
12730000 -0.43291691857552234 0.4846230732455984
12731250 -0.4273542219364977 0.4842515642477439
12732500 -0.4218451392315124 0.4837147247239164
12733750 -0.41614471739753356 0.48311098472266545
12735000 -0.4106029313763572 0.48246805976243995
12736250 -0.4049116045436099 0.4816552412105857
12737500 -0.3992642676462313 0.4809435589877941
12738750 -0.3937002141720289 0.479967062792488
12740000 -0.388019168643285 0.47909527635638766
12741250 -0.3824265521159361 0.47802798949388214
12742500 -0.37671380026029566 0.4768835382234505
12743750 -0.3710895033039066 0.4757354346134357
12745000 -0.3654261041421208 0.47443440957686794
12746250 -0.35971666921439155 0.47305982207542374
12747500 -0.3539927303259268 0.47162047073195434
12748750 -0.3480871973719376 0.4700326235958268
12750000 -0.3422709679421571 0.468467608368637
12751250 -0.3363583212932115 0.46668595089871767
12752500 -0.33037834493498064 0.4648757230630347
12753750 -0.32435932042913107 0.4629011775929732
12755000 -0.3181699799144549 0.4608390778812729
12756250 -0.31210169614642563 0.4587188540266852
12757500 -0.3059114128475446 0.45647742885449066
12758750 -0.2997607039107215 0.45409595608081427
12760000 -0.29335002170368685 0.4514792633624532
12761250 -0.28701641872482764 0.4489111771735975
12762500 -0.2808144798584691 0.44617289135915
12763750 -0.2745055945322772 0.4433420686745783
12765000 -0.26822219402456254 0.44033945203904035
12766250 -0.26186419270502453 0.43714874633719025
12767500 -0.2555986562027017 0.43408270220024764
12768750 -0.24953859119836963 0.4306772137535134
12770000 -0.24337658781129 0.4274179477798101
12771250 -0.23733398019672763 0.42377111733801043
12772500 -0.23125864090719572 0.4202574364882025
12773750 -0.22530048899453897 0.4165069191281331
12775000 -0.21939628246073972 0.4126891347076028
12776250 -0.21355820458345026 0.40885602418796513
12777500 -0.20777556548486656 0.4047984303280818
12778750 -0.2019010436781746 0.4006430797203738
12780000 -0.1961320593988421 0.3963799405517643
12781250 -0.19030748846572706 0.3919639721266117
12782500 -0.18446720754742305 0.3874620375597173
12783750 -0.17861765406914668 0.3826469923451037
12785000 -0.17270717290260296 0.37778976576078077
12786250 -0.16688764304314005 0.3727381199677453
12787500 -0.1609734146145539 0.36750992050662196
12788750 -0.1551846027751313 0.36223245381569935
12790000 -0.14938733387872027 0.3566641819911555
12791250 -0.14353900182610638 0.3510571426402271
12792500 -0.13782489910757018 0.34512894267775274
12793750 -0.13210342405699757 0.33918111443619275
12795000 -0.12655596272349146 0.3330269194905457
12796250 -0.12101116411698594 0.3267426965815171
12797500 -0.11555691429803265 0.3203946589187049
12798750 -0.11021514074970609 0.3138785976643788
12800000 -0.10510102130516161 0.3073091023997916
12801250 -0.10016089620074774 0.300627708049536
12802500 -0.09524224525326781 0.29387125387780844
12803750 -0.09056158772072011 0.2871417920153474
12805000 -0.08594258444672438 0.28022659279932033
12806250 -0.08156802081384155 0.2732970379917365
12807500 -0.07728596997977533 0.2662322287221692
12808750 -0.0730783328049181 0.25907718120294154
12810000 -0.06900740073752842 0.251772055933776
12811250 -0.06505855322467609 0.24440293487885587
12812500 -0.06127807056329965 0.23691662961425417
12813750 -0.057596852577475134 0.22922820585673412
12815000 -0.053903317622446434 0.22144021842941622
12816250 -0.050408422869592386 0.2134877271496676
12817500 -0.04697509244369099 0.20538740192896113
12818750 -0.04377392942632892 0.19717768536182606
12820000 -0.040553636681321635 0.1887609759074438
12821250 -0.037452460486319075 0.18024352553569312
12822500 -0.034568774859303555 0.17157583669741527
12823750 -0.031845093941260456 0.16278866401510095
12825000 -0.029282590565380125 0.15386955343815797
12826250 -0.026778366201896556 0.14492087486064614
12827500 -0.02450274886081808 0.1359260501184591
12828750 -0.022490273321883594 0.12682913031605283
12830000 -0.020636384736535424 0.11769513764579512
12831250 -0.019062503946317366 0.10857037257352299
12832500 -0.017534887965236914 0.09941540635459646
12833750 -0.016270454509261255 0.09038157237428762
12835000 -0.015241479557211859 0.08130438715252568
12836250 -0.014429497307130465 0.07220560383170276
12837500 -0.013809302640782685 0.06315972952901408
12838750 -0.013384652534707542 0.05413604182118869
12840000 -0.013112469660346794 0.04521754585365694
12841250 -0.013078881381450289 0.03626980209230644
12842500 -0.013188433423710441 0.027258296545052543
12843750 -0.01348175237646969 0.018241745285761706
12845000 -0.013938842885722773 0.009331201078767802
12846250 -0.01460309971279194 0.0004064524709958884
12847500 -0.015429311349954171 -0.008632685092610566
12848750 -0.016443577081717946 -0.017755558463869597
12850000 -0.017589471825885793 -0.026836608811915248
12851250 -0.01889248051914128 -0.035933463045285566
12852500 -0.020436151928551197 -0.0451087477085027
12853750 -0.02214673374609554 -0.0543282266459044
12855000 -0.02407906149109592 -0.06345185577394784
12856250 -0.026065366007433366 -0.0726025811487681
12857500 -0.02832910866481926 -0.08166884736375377
12858750 -0.030718303500608512 -0.09072876007607018
12860000 -0.03337878801917191 -0.09970448465812731
12861250 -0.03620137508727013 -0.10866453942764938
12862500 -0.03913612578025458 -0.11743822034024733
12863750 -0.04226955043043705 -0.12614499819091804
12865000 -0.04566372958836219 -0.13471202705864635
12866250 -0.04913367257573438 -0.14307213698715784
12867500 -0.05277372948069604 -0.1512749763941293
12868750 -0.05656321485532479 -0.15931464582755775
12870000 -0.06040646170936944 -0.16718737517790305
12871250 -0.06448010319693981 -0.17487019724436836
12872500 -0.06868808136805142 -0.18243803540244968
12873750 -0.07296284043840158 -0.19000372729441808
12875000 -0.07742352545247498 -0.19729454832236504
12876250 -0.0819261810182494 -0.20452998780783233
12877500 -0.08666132873633967 -0.21163926298262487
12878750 -0.09141774546080614 -0.21869729692826237
12880000 -0.09633615964345976 -0.22560910428584097
12881250 -0.10133982078283851 -0.2325701319139928
12882500 -0.1064040424427417 -0.23924484243661234
12883750 -0.11166856814881058 -0.24592882464367008
12885000 -0.11703811049945002 -0.25260231808136363
12886250 -0.12255071039524403 -0.25914437277267954
12887500 -0.12812066869895405 -0.2655935519830266
12888750 -0.133824096756465 -0.2719386840371205
12890000 -0.13962617609836042 -0.27814391295007157
12891250 -0.14551471245214564 -0.28424284495782476
12892500 -0.1514511839722093 -0.2901445952279968
12893750 -0.15735509983287585 -0.29594445446343454
12895000 -0.16346585633041497 -0.30140564472215287
12896250 -0.1695519413171867 -0.3069299154837418
12897500 -0.17567460725784015 -0.3121656125671514
12898750 -0.1819065505591479 -0.3172785758081181
12900000 -0.18800579402114498 -0.3221282157255092
12901250 -0.19430664179830504 -0.32683666033569037
12902500 -0.20057738856200902 -0.33145231474032666
12903750 -0.20679054034524255 -0.33584836538654284
12905000 -0.21315227327746186 -0.34006747781258434
12906250 -0.21941696906160046 -0.34412791829113265
12907500 -0.22572796612475202 -0.3480971345176605
12908750 -0.23206750085522612 -0.3518534501285173
12910000 -0.23845137337399616 -0.3556049762855193
12911250 -0.24486961588518388 -0.3592035643358036
12912500 -0.25128511744213755 -0.3626159894115362
12913750 -0.25781433169945767 -0.3660567510296924
12915000 -0.26426943411521964 -0.3692921260463899
12916250 -0.27085714806083167 -0.37250811705027803
12917500 -0.2773325813459388 -0.3756702052003618
12918750 -0.2838749056973093 -0.3785496222286115
12920000 -0.29047743834403866 -0.3815681111193083
12921250 -0.2970410124323956 -0.3843287710497019
12922500 -0.3037200976478904 -0.38699606233497214
12923750 -0.3101570024126686 -0.3895871217468443
12925000 -0.31684498534680916 -0.3919573817483458
12926250 -0.32338436035806145 -0.39436011073187205
12927500 -0.3298791102188487 -0.39646787561848473
12928750 -0.3364474305546877 -0.3985705034765783
12930000 -0.34286062686042684 -0.4004578230067275
12931250 -0.3493298139497658 -0.40225705660531563
12932500 -0.35566751182269285 -0.40393756086020893
12933750 -0.36186849148387473 -0.4053835356192058
12935000 -0.3680565562121108 -0.4068653454472768
12936250 -0.3741815394258772 -0.40809741723886345
12937500 -0.380367315991186 -0.4092437267227131
12938750 -0.38641773176828914 -0.41031026482634675
12940000 -0.39251285853705864 -0.41127988818688427
12941250 -0.3985133707069817 -0.4122311810082127
12942500 -0.40447608317890854 -0.4129119426689107
12943750 -0.41046169689540596 -0.41366515253047703
12945000 -0.41630275639007847 -0.4142686904297832
12946250 -0.4222751721050063 -0.41492444226312003
12947500 -0.42810229336444844 -0.41546929670906657
12948750 -0.43394699711846135 -0.41583140091414084
12950000 -0.43978567469939395 -0.4163208701155602
12951250 -0.44557011643580846 -0.41663653543088247
12952500 -0.45136173092598675 -0.41695176282106555
12953750 -0.4570246267820574 -0.41716259781070886
12955000 -0.4627762877704933 -0.4172425068777728
12956250 -0.4684837309979777 -0.417431505764005
12957500 -0.4740166806041841 -0.41739054803881115
12958750 -0.47950623239760487 -0.4173487516474915
12960000 -0.48488489197970597 -0.4172406816550397
12961250 -0.49030862967493116 -0.4169840519307917
12962500 -0.49564973401688467 -0.4167359190043349
12963750 -0.5008858988658876 -0.41636271723341794
12965000 -0.5060785168048741 -0.41604715532459813
12966250 -0.5111053895305888 -0.4154594602413513
12967500 -0.5163320172777054 -0.41489026051422856
12968750 -0.5212496057641085 -0.4142984499951832
12970000 -0.5262298429615472 -0.41361836443923294
12971250 -0.5310611222536853 -0.41295133691536906
12972500 -0.5358715761537124 -0.4120869069413705
12973750 -0.5408347963702749 -0.4113163879294878
12975000 -0.5455153675932751 -0.41046566938598505
12976250 -0.5503202341201336 -0.4095008570523904
12977500 -0.5549829929092901 -0.40868731453476104
12978750 -0.5596524578617164 -0.4076413173863412
12980000 -0.5643461507633307 -0.4066931733419732
12981250 -0.5688681424930915 -0.40564392661730153
12982500 -0.5735068402727561 -0.40457404259242236
12983750 -0.5779039527661435 -0.40356125755625954
12985000 -0.582378604159776 -0.40235167838728586
12986250 -0.5868386209094683 -0.4013411045327811
12987500 -0.5911291689293076 -0.40005671528156017
12988750 -0.5955457404178274 -0.39890587533135086
12990000 -0.5997576372296575 -0.39771246391033077
12991250 -0.6040696736577087 -0.39636162796629115
12992500 -0.608162579754784 -0.39515832872423706
12993750 -0.6122588141919537 -0.39375316658661946
12995000 -0.6164493851133124 -0.39256044817001734
12996250 -0.6203095546808318 -0.39102028772586256
12997500 -0.62435181339858 -0.3895499357710016
12998750 -0.6282343069615081 -0.38819354685862667
13000000 -0.6320790417884042 -0.38663446312714617
