# HZ S RI R 50
1000000 0.9884631444786277 -0.1397026419564094
1047500 0.987738894490709 -0.14678172025797195
1095000 0.9865407152786829 -0.15314325433189244
1142500 0.9853838740722914 -0.15980576968084964
1190000 0.9842298332583739 -0.16628564767465312
1237500 0.9830022785189774 -0.17303931289003327
1285000 0.981849891070848 -0.17951560737574557
1332500 0.9806932420494445 -0.18641787584525046
1380000 0.9792295714312826 -0.19310504597653783
1427500 0.9778474126343115 -0.19944036207597948
1475000 0.97658166083647 -0.20596629265512342
1522500 0.9754223431569776 -0.21304308606277797
1570000 0.9736216732761404 -0.2199657867819327
1617500 0.9718926291596427 -0.22645929772896675
1665000 0.9703073564682589 -0.2329578357412186
1712500 0.9687958966955165 -0.2397785643143621
1760000 0.966947972041735 -0.24652131841225625
1807500 0.9650595597376236 -0.2530186362953974
1855000 0.96336502523885 -0.2591802928787777
1902500 0.9615593208318071 -0.26639172140917267
1950000 0.9596063557347726 -0.27324623071889914
1997500 0.9573008972636731 -0.2799987316478945
2045000 0.9551892430974757 -0.2864247181439785
2092500 0.9532291217516518 -0.29293294505939127
2140000 0.9513490137805773 -0.2995403790407856
2187500 0.9493767568254781 -0.3064633671317961
2235000 0.9471219260095817 -0.31347520689094743
2282500 0.9445260467305716 -0.32018262927740876
2330000 0.9422325041404532 -0.32671265996983745
2377500 0.9400513742839643 -0.3334009755874047
2425000 0.9374669514032795 -0.3404331565284665
2472500 0.9347688959186246 -0.34706244821113513
2520000 0.9321034266347328 -0.35344819926152765
2567500 0.92976190142441 -0.35963069874016945
2615000 0.9274298814638505 -0.3664818419120321
2662500 0.9246262201472886 -0.37379587351890364
2710000 0.921738926851409 -0.380782440887795
2757500 0.9187075587709415 -0.3875413569488434
2805000 0.9158354727818666 -0.3944558964029172
2852500 0.9129687719848396 -0.4013616274021943
2900000 0.9096851502065908 -0.40829661948663026
2947500 0.9063416489732077 -0.4149861835437688
2995000 0.9031448252146784 -0.42161443446841734
3042500 0.9000848144027588 -0.42839158052275744
3090000 0.8967954638260456 -0.4354065111945561
3137500 0.893119383546701 -0.4422737958920063
3185000 0.8894987915243421 -0.4487906143582069
3232500 0.8860987227784571 -0.4554474078177396
3280000 0.8825764619894864 -0.4625267368432242
3327500 0.8788997219236352 -0.46956236474603436
3375000 0.8750139087612602 -0.47615037834092505
3422500 0.8713743396977129 -0.4828236273640388
3470000 0.8676239597546235 -0.4897782617533234
3517500 0.863642030036311 -0.4966682774406318
3565000 0.8594776249708109 -0.5034300658897303
3612500 0.8553909760248111 -0.5101489945519894
3660000 0.8510791113983606 -0.516961437749904
3707500 0.8469544293879777 -0.5237057082739014
3755000 0.8426916657385771 -0.5306049472917295
3802500 0.838105101819009 -0.5376118636301526
3850000 0.8334624669875854 -0.5442003688402486
3897500 0.8288607711231106 -0.5508410761587424
3945000 0.8245651838529886 -0.5576970588003496
3992500 0.819601790547395 -0.5646967081310789
4040000 0.8143952976969274 -0.57130743659468
4087500 0.809687188640285 -0.5777361305911826
4135000 0.8050623926872699 -0.5845628372832382
4182500 0.7998370190493729 -0.5914968658177401
4230000 0.7944686626453413 -0.5977396147494494
4277500 0.7898115533674706 -0.6036619349215857
4325000 0.7853850048741385 -0.6103103231295742
4372500 0.7803337630795547 -0.6179516692393731
4420000 0.7744812891799349 -0.6257354320953005
4467500 0.7687001144276462 -0.632724870574515
4515000 0.7628510590304799 -0.639649944686008
4562500 0.7569312246657468 -0.6464344422015088
4610000 0.750987286267224 -0.6533600657740982
4657500 0.7447111593457081 -0.6601355103287707
4705000 0.738472099584402 -0.6669445740222731
4752500 0.732326123331904 -0.673401832764833
4800000 0.7261987504980825 -0.6801067559442653
4847500 0.719728169423813 -0.6870241294792055
4895000 0.7129927493713272 -0.6937214345507745
4942500 0.7062047990741972 -0.7001510419992509
4990000 0.6997437794507726 -0.7066856250871645
5037500 0.6929480814026749 -0.7135653528393715
5085000 0.6856778779802867 -0.7202795818253311
5132500 0.678520913293415 -0.7266458106911327
5180000 0.6714620782843953 -0.7329449457093236
5227500 0.6643520167700532 -0.7396298822981746
5275000 0.6568144639678907 -0.7463329076473085
5322500 0.6490229033499383 -0.752750368700327
5370000 0.6414172465784059 -0.7589516225478733
5417500 0.6337965414641803 -0.7652737217200916
5465000 0.6258322736291534 -0.7717423076111127
5512500 0.6177904605091233 -0.7782684955595057
5560000 0.609422029785064 -0.7845220668943222
5607500 0.6010797523538075 -0.7904821505997258
5655000 0.5927777606135692 -0.7967902559395592
5702500 0.5842937929441773 -0.8030097913604345
5750000 0.5753968056726848 -0.8091876410117086
5797500 0.5663145360353742 -0.8150073197864661
5845000 0.5577919509778145 -0.8208144270417059
5892500 0.5487100422408256 -0.8269823960948558
5940000 0.5393056963721267 -0.8330210088795446
5987500 0.5297066579624362 -0.8388084662905778
6035000 0.5202596489201249 -0.8443797350458843
6082500 0.5105024908729391 -0.8500242964155678
6130000 0.5007446983062277 -0.8556745412324146
6177500 0.4907844480622043 -0.8613349900491262
6225000 0.48043709999694084 -0.8667500875312507
6272500 0.4701606019816809 -0.8717972312680001
6320000 0.4597843621400846 -0.87689142277009
6367500 0.4491180319553708 -0.8821275339355021
6415000 0.4381690396445653 -0.8869341016817133
6462500 0.4276003459910402 -0.891672025388436
6510000 0.41736846417687634 -0.8966931180157788
6557500 0.4068003225011408 -0.902214879299808
6605000 0.39551953963878045 -0.9072305210840584
6652500 0.3840639908036202 -0.9122530906091262
6700000 0.372664886653352 -0.9169830971188674
6747500 0.36085317669807143 -0.9215867218098722
6795000 0.34910459395166044 -0.9259980372731365
6842500 0.33701208699479407 -0.9306087882293806
6890000 0.32454311390105534 -0.934755015344423
6937500 0.31206802490360674 -0.9385051936714218
6985000 0.2996809814716 -0.9424919887728213
7032500 0.287008684842617 -0.9465066838556577
7080000 0.2738062562572258 -0.9500396888517206
7127500 0.2608185892645418 -0.9531658871644659
7175000 0.24787322808596948 -0.9566008253425987
7222500 0.23449659135814532 -0.9600286595662554
7270000 0.22072608146581993 -0.9631161060310637
7317500 0.20698011835718155 -0.9657684880520384
7365000 0.19340808760583886 -0.9683485653720727
7412500 0.17931201448930598 -0.9710495710188959
7460000 0.16498366717647425 -0.9730598760520375
7507500 0.15076310177399074 -0.975412949415696
7555000 0.13630906917407556 -0.977280127975335
7602500 0.12169945146126222 -0.978932968244888
7650000 0.10694306654366224 -0.9806155885300893
7697500 0.09188300090337523 -0.982052844527043
7745000 0.07664155135095249 -0.9830965726228784
7792500 0.061543881742783066 -0.9837057942908647
7840000 0.04640992545857521 -0.9845041524653054
7887500 0.03070342713736371 -0.9850271790544765
7935000 0.014838949535863573 -0.9851240000134773
7982500 -0.0008714091708618158 -0.9848757225122923
8030000 -0.016740136605418652 -0.9846627159695326
8077500 -0.03296381537574781 -0.9840034646052489
8125000 -0.04925071036678069 -0.983056726706132
8172500 -0.0652565792894077 -0.9819882210632552
8220000 -0.08199482623258443 -0.9805182089293201
8267500 -0.09863019653757399 -0.9789052867725773
8315000 -0.11525031707806291 -0.9767351732725688
8362500 -0.13211343016213065 -0.9745968694331626
8410000 -0.14923705714913268 -0.9718674798064854
8457500 -0.1662163351722164 -0.9686877670089283
8505000 -0.1831346347962382 -0.9653758498637245
8552500 -0.20043123702842403 -0.9619763009907127
8600000 -0.21794646767748632 -0.9577308076800044
8647500 -0.23521687264378394 -0.9533041814134366
8695000 -0.2523608456655916 -0.9486751553204796
8742500 -0.2700603568865962 -0.9438859424155048
8790000 -0.2878038506029638 -0.9383415790153136
8837500 -0.3053308761966298 -0.9324870880036391
8885000 -0.32292824706351975 -0.9263264199622455
8932500 -0.34064663331264766 -0.9198021330151464
8980000 -0.35846394572449386 -0.9126554227754189
9027500 -0.37594217762543614 -0.9051797590190217
9075000 -0.39361593904165604 -0.8974335104622192
9122500 -0.41127117232707394 -0.8889231567120296
9170000 -0.4288891300728274 -0.8805409193488176
9217500 -0.44667744007356064 -0.8714221707280907
9265000 -0.4644190356204146 -0.8619240508786762
9312500 -0.4818673418319384 -0.8516529823915922
9360000 -0.499179710532377 -0.8413650949300343
9407500 -0.5165938666867431 -0.8305843143510048
9455000 -0.5342479460988392 -0.8191673371980764
9502500 -0.5510673874564314 -0.807064817547931
9550000 -0.5680202487255189 -0.7949927341982527
9597500 -0.585181860064956 -0.782339839202549
9645000 -0.6020198003237393 -0.7690032457764172
9692500 -0.6184351371069656 -0.7552987207704223
9740000 -0.6348873037034727 -0.741241090988999
9787500 -0.6512815361699672 -0.7263832313361716
9835000 -0.6672301577775746 -0.7111781569387002
9882500 -0.6828834817070817 -0.695732511312645
9930000 -0.6986198576582546 -0.6795369651746079
9977500 -0.7138247528443274 -0.6628458775202989
10025000 -0.7289371261905864 -0.6460015238580816
10072500 -0.743667218488212 -0.62837684291467
10120000 -0.7583181993469617 -0.6102246107181675
10167500 -0.7723150461637756 -0.5916528451831269
10215000 -0.7859714795159678 -0.5726148359260418
10262500 -0.7994645251292591 -0.5533392059156051
10310000 -0.8125962629725352 -0.5331729350466928
10357500 -0.8251015666418348 -0.512776412066939
10405000 -0.8371305879143459 -0.49198424315448924
10452500 -0.8491158482942196 -0.4705845250074181
10500000 -0.8603858569842586 -0.4486479776767058
10547500 -0.8710189061613287 -0.42652262288778237
10595000 -0.8813679612773153 -0.40379799211328027
10642500 -0.8913477370341125 -0.38058635874256597
10690000 -0.9004413637352464 -0.35687792511307115
10737500 -0.9090874770322398 -0.33286562495955635
10785000 -0.917329867164852 -0.3085084483579354
10832500 -0.924904880635969 -0.28354504787756785
10880000 -0.9317191165993038 -0.25833175502673467
10927500 -0.9380006305859636 -0.2327048769579111
10975000 -0.9436895738955985 -0.20663783160990887
11022500 -0.9486753339252839 -0.1801167341338983
11070000 -0.9527884972642177 -0.1530884179678437
11117500 -0.956201195221718 -0.12583627391493704
11165000 -0.9589357134544244 -0.09820238621093232
11212500 -0.9606970801190993 -0.07015584315973016
11260000 -0.961827477478615 -0.04183290667432998
11307500 -0.9621348835215235 -0.01306667551231216
11355000 -0.9612850112794142 0.01623724590628675
11402500 -0.9595697504208296 0.045659042776442935
11450000 -0.9569674754752596 0.07536600870386453
11497500 -0.9533915286604958 0.1057785622829805
11545000 -0.9484700657660652 0.1364753086211361
11592500 -0.9423515194760494 0.1674596672186074
11640000 -0.9351934195420915 0.1985827018735387
11687500 -0.9268081847131838 0.2304832483639925
11735000 -0.9169036732231666 0.262638420742731
11782500 -0.9053025166222285 0.29518329333110244
11830000 -0.8921380081438752 0.3279701304434076
11877500 -0.8772607387052448 0.3611720890019964
11925000 -0.8605190638177372 0.3948465909369975
11972500 -0.8413478668898882 0.42896357934656293
12020000 -0.8198841140904045 0.46324632381013947
12067500 -0.7955971867237916 0.49797319310500826
12115000 -0.7684033894010496 0.5326397090313961
12162500 -0.7377048170697511 0.567744110780072
12210000 -0.7028937641699063 0.6028176280334215
12257500 -0.6635661966869552 0.6374244848132519
12305000 -0.6191253512462186 0.6714126835341926
12352500 -0.5685242333405084 0.7043216060734516
12400000 -0.5104664710092015 0.7353947545144849
12447500 -0.44402061708115115 0.7629002798308846
12495000 -0.36810836553753584 0.7856278815271496
12542500 -0.2810972886926792 0.8011383255594076
12590000 -0.1815656105839979 0.8057047599503326
12637500 -0.06892429120532007 0.7942217708942728
12685000 0.0554893626563583 0.7596773425348192
12732500 0.18783966384829953 0.6933765745801246
12780000 0.3188388909221679 0.5857294767978698
12827500 0.43139173350253857 0.4301135921216071
12875000 0.5011568138458089 0.2278983002768817
12922500 0.5029932622870912 -0.003807877983252653
12970000 0.4229021324491573 -0.23188645360076315
13017500 0.2702119949952299 -0.418158428393783
13065000 0.07440076342472833 -0.5374638888748924
13112500 -0.12970331684922132 -0.5861870510012791
13160000 -0.31551582357277397 -0.5767903353903242
13207500 -0.4717803344900594 -0.5293621341490772
13255000 -0.5953643264496362 -0.45945372526015077
13302500 -0.6894192213582409 -0.37923668882459316
13350000 -0.7589516504210976 -0.29677389019750605
13397500 -0.8093151058892967 -0.21642588748466243
13445000 -0.8448132820421186 -0.13996255428945148
13492500 -0.8687131654676642 -0.06850991843913769
13540000 -0.8837407095361157 -0.0026001695692675062
13587500 -0.8921161065051056 0.05827857401033239
13635000 -0.8956198156078058 0.11451794887466185
13682500 -0.8948564572152893 0.16638934329150268
13730000 -0.8909641301466215 0.2141794803840501
13777500 -0.8847071871129679 0.25845215243043007
13825000 -0.8765586756902557 0.299562964572928
13872500 -0.8669904911433737 0.33770247248055185
13920000 -0.8559968885394518 0.3734751402202457
13967500 -0.844029520219634 0.4069226871858414
14015000 -0.8312678284657266 0.43782085170320295
14062500 -0.8184068101202964 0.4669310492667161
14110000 -0.8048111522506897 0.49464531848633386
14157500 -0.7904196074130628 0.520580032067704
14205000 -0.7759330586280311 0.5450383511659538
14252500 -0.7611793535369853 0.5679738364847366
14300000 -0.7463225629171943 0.5899668819787376
14347500 -0.7312450427514637 0.6107034165948668
14395000 -0.7158437625166046 0.6303551222756723
14442500 -0.7005869827732002 0.6491084576978317
14490000 -0.6852449626443132 0.6667623831041816
14537500 -0.6698827981391107 0.6838078156371682
14585000 -0.6544356266966829 0.6996936611135177
14632500 -0.6388392637836939 0.7149288204091688
14680000 -0.6236389004758569 0.7291386572891388
14727500 -0.6085938768973956 0.743112138811829
14775000 -0.5931736725053175 0.7564749957936185
14822500 -0.5776881118751063 0.7689682181514427
14870000 -0.5625660968424642 0.7806663085765249
14917500 -0.5474931624080945 0.792102527416522
14965000 -0.5324859645115643 0.8030338024917747
15012500 -0.5173600563664534 0.8132836393298891
15060000 -0.5025157032764254 0.8231130237923128
15107500 -0.48759285652270007 0.8326144512822068
15155000 -0.4728304675709747 0.8416248875087863
15202500 -0.45815126975206544 0.8500087789494385
15250000 -0.4433707903581901 0.8582867219581428
15297500 -0.4287350410035532 0.8660959417274537
15345000 -0.4143369614873794 0.8731430982398307
15392500 -0.4003055565933781 0.8802295003105335
15440000 -0.3860109625449134 0.8872329955902191
15487500 -0.3714175777317691 0.8934640248569784
15535000 -0.3575723481900604 0.8993197850372223
15582500 -0.34384757065945104 0.9050520346868128
15630000 -0.32985025748230296 0.9105409208488193
15677500 -0.31599154859741446 0.9156392992382263
15725000 -0.30242064717464145 0.9204117728056299
15772500 -0.2889498583397644 0.9249190779543326
15820000 -0.27565944548217286 0.9294275177991491
15867500 -0.2622590248416806 0.9332679281056395
15915000 -0.24905559576406772 0.9370870525143558
15962500 -0.23607815444723512 0.9405669327586351
16010000 -0.2233054101169288 0.943697206926797
16057500 -0.21046593603824723 0.9468631493522872
16105000 -0.1977688822775494 0.9498214179019516
16152500 -0.18523044340490452 0.9523554917547806
16200000 -0.17292297416338512 0.9547597744364326
16247500 -0.16077162384746804 0.9571723885203214
16295000 -0.14850695435066635 0.9593880649192086
16342500 -0.13631819474023732 0.9613425936905656
16390000 -0.12447947323882835 0.9629291755976871
16437500 -0.11298451460236081 0.9644355126723665
16485000 -0.1011782322075478 0.965960317886516
16532500 -0.08968641108269183 0.9671353485961092
16580000 -0.07815449354942361 0.9681515544338046
16627500 -0.06692950690318178 0.9692988080106624
16675000 -0.05574087971549811 0.9699502808554409
16722500 -0.0445968160879868 0.9707641729909194
16770000 -0.03364775380076648 0.9712319121375276
16817500 -0.022845360382642562 0.97144212971291
16865000 -0.012239477629829664 0.9717548294638237
16912500 -0.0015683783601929046 0.9721064059039946
16960000 0.008995607023064418 0.9720706023631525
17007500 0.019503116363772006 0.9720334786326316
17055000 0.029671685069135114 0.9718440746603625
17102500 0.039874964575755394 0.9715963929141218
17150000 0.05003881282911069 0.9713174292182064
17197500 0.05995583925689606 0.97099365362873
17245000 0.07000242904867662 0.9704175151378651
17292500 0.07944366349163735 0.9697606390768168
17340000 0.08911312746878101 0.9691976085946775
17387500 0.09877381930380714 0.9686846121971459
17435000 0.10842666269716407 0.9676927072990978
17482500 0.11764665013236193 0.9665216318349307
17530000 0.12684512258304004 0.965589864820332
17577500 0.13631032506499813 0.9644210642480154
17625000 0.14530618613857882 0.9630634476229832
17672500 0.15402041235319208 0.9618921509357571
17720000 0.16295418309509752 0.9606222385973914
17767500 0.1717057842829883 0.9593582717791913
17815000 0.1805208429439121 0.9577454652222284
17862500 0.18889391408670864 0.9559331687676644
17910000 0.19739446508639907 0.9542835471400704
17957500 0.20564492626375983 0.952443092385167
18005000 0.21372688969779746 0.950550172357347
18052500 0.2218664904727143 0.9488980295684908
18100000 0.23007940336170388 0.9469268054876118
18147500 0.23811780102911767 0.9448430584407616
18195000 0.24575248734873859 0.9430130260058229
18242500 0.2536828464060277 0.9410909687817814
18290000 0.2616229188819479 0.9389085867311401
18337500 0.26905225289341517 0.9365968934810204
18385000 0.2764902238550948 0.9347703344863729
18432500 0.28408216033602945 0.9327099690276711
18480000 0.29161853000202637 0.9304204870045244
18527500 0.29877320436409865 0.9281669205141619
18575000 0.3059906345555484 0.9260592462998076
18622500 0.3131911556836496 0.9236251655357747
18670000 0.32023963699902736 0.9212437792856527
18717500 0.32714175411365143 0.9187923198742564
18765000 0.3342209064369248 0.9165458715063685
18812500 0.3409755405522353 0.9139970175005463
18860000 0.3475435023630963 0.9114481140532438
18907500 0.3543206387226453 0.9090899309652128
18955000 0.3610463691104996 0.9067077817890843
19002500 0.3674798841340503 0.9038779815233244
19050000 0.3739181886099458 0.9012822704479665
19097500 0.3802280468038868 0.8990853230262895
19145000 0.38656225898084273 0.8962596089249157
19192500 0.39290189535514525 0.8934590903044781
19240000 0.3988229223782879 0.8908808220068298
19287500 0.40500466821503894 0.888312332629409
19335000 0.41112215735886926 0.8857789875702503
19382500 0.41706218778712795 0.8829437213077085
19430000 0.4229339981538657 0.8802910956447675
19477500 0.42876492410718187 0.8775466182159575
19525000 0.4346181610043964 0.8748118644591938
19572500 0.44028860293403577 0.8718656621744645
19620000 0.44579484908764094 0.8692774456327286
19667500 0.4516322553746119 0.8664815921650487
19715000 0.45703052728911336 0.8635693296719829
19762500 0.4623772884617465 0.860861484130216
19810000 0.46790942835611177 0.8580908166288298
19857500 0.4733946480864933 0.8551318738536994
19905000 0.4785996850388419 0.8522092528146153
19952500 0.48369245864685023 0.8494778266063079
20000000 0.4889076639788385 0.8466147225431626
