# HZ S RI R 50
1000000 0.9887509732815742 -0.14301267400491144
1047500 0.9879182483272709 -0.14973871047088178
1095000 0.9865068457389691 -0.15680398745974006
1142500 0.9853372614667464 -0.1632341208898392
1190000 0.9843213933930998 -0.17018099514155022
1237500 0.9831993753697673 -0.17707706850367358
1285000 0.9817759638100572 -0.18390133573272474
1332500 0.9802964268992035 -0.1905916852642329
1380000 0.9789794922281282 -0.19726083594888033
1427500 0.9776109730250983 -0.204050342324877
1475000 0.9761959951807585 -0.2110276785693753
1522500 0.9746975410363442 -0.21791665700044197
1570000 0.973068587538432 -0.22482560991101655
1617500 0.9713351019674525 -0.23168883824027206
1665000 0.9696576821338794 -0.2385006214086369
1712500 0.9679198928583957 -0.24531671421570936
1760000 0.9659471266162588 -0.2519260680144883
1807500 0.9641986284995059 -0.25834488304658365
1855000 0.9625960986792191 -0.2654802952040536
1902500 0.9606499531257058 -0.2725397384131046
1950000 0.9585571762409512 -0.27954650036836426
1997500 0.9564882642003757 -0.28640604502873257
2045000 0.9543454537114433 -0.29326305242340084
2092500 0.9522122828874968 -0.30014567936864545
2140000 0.949888420507623 -0.3070452660820101
2187500 0.9475637507725251 -0.31397867664926543
2235000 0.9451488070658136 -0.3206899334988702
2282500 0.9428093943183439 -0.3276488994531875
2330000 0.9402551097674989 -0.3344658642373186
2377500 0.9376394452819247 -0.34129431216364603
2425000 0.9349823436176866 -0.347965824885096
2472500 0.932243650182062 -0.35443301044534603
2520000 0.9298009645908396 -0.3608686104106068
2567500 0.9274410567107326 -0.3679425363188944
2615000 0.9245734847665494 -0.37543038192848166
2662500 0.9216916940475982 -0.3825491847708623
2710000 0.9187989690431347 -0.38953937437203245
2757500 0.9157137504955234 -0.39649328885090673
2805000 0.9126401985396501 -0.4035211087206489
2852500 0.9094195785711403 -0.41052807220460147
2900000 0.9060707631664687 -0.41744496023915884
2947500 0.9028358796829047 -0.42431740979050475
2995000 0.8995046313421641 -0.4312244425326057
3042500 0.8959523373317148 -0.43819233975693594
3090000 0.8922247512519289 -0.4451552296126659
3137500 0.8886913571599239 -0.4519785162930001
3185000 0.8851704236227071 -0.45888290733311315
3232500 0.8816097763758525 -0.4659169590781255
3280000 0.877888486554078 -0.4729119766556947
3327500 0.8738951466497692 -0.4798455810759486
3375000 0.8700333789428801 -0.48666663520812814
3422500 0.8661259000350359 -0.4934457563943575
3470000 0.8620782079035172 -0.5005165639119561
3517500 0.8577542381304515 -0.5075147762024921
3565000 0.8533650243432169 -0.5144061321149557
3612500 0.8492509115077034 -0.5211162143716973
3660000 0.8449456403424475 -0.5280134826697225
3707500 0.8404213917581504 -0.5351305465582584
3755000 0.8356328462619569 -0.5418518055280952
3802500 0.8310729336456035 -0.5487716938795657
3850000 0.8263990039645621 -0.5554946183609297
3897500 0.8216518773748703 -0.562426335969216
3945000 0.8165940591143744 -0.5693173441391498
3992500 0.8115315682560413 -0.5760224937072331
4040000 0.8063061871724064 -0.5823589363141219
4087500 0.8014573363161336 -0.5888215391751639
4135000 0.7964905041103387 -0.595080484868525
4182500 0.7915695305672819 -0.6015383540493975
4230000 0.7866119164161663 -0.608314965257624
4277500 0.7816686927658124 -0.6157769844882621
4325000 0.7765617594595243 -0.623511367933703
4372500 0.7706784025114946 -0.6311421556976199
4420000 0.7645916133350187 -0.6384538614238227
4467500 0.758741005640647 -0.6452441961193724
4515000 0.7527443054069879 -0.6521134772223112
4562500 0.7468663299016093 -0.6591859624311529
4610000 0.7404060631597666 -0.6661900393205551
4657500 0.7339174384379378 -0.672845590095587
4705000 0.7276431427337432 -0.6794991335793398
4752500 0.7211879255433514 -0.686330353244023
4800000 0.7146907042802475 -0.693365806569702
4847500 0.7078419723978538 -0.7000990704637651
4895000 0.7007896451046793 -0.7064635740378862
4942500 0.6940807166981802 -0.7131100520972629
4990000 0.6872140329460111 -0.7199763841776754
5037500 0.6798784197242688 -0.726728647005694
5085000 0.6724610392988499 -0.7331969067555824
5132500 0.6651866778067493 -0.7395771811278119
5180000 0.6578030300541281 -0.7461777483101087
5227500 0.6502133763327163 -0.7530039427564357
5275000 0.6422709901269837 -0.7595600028912667
5322500 0.6342469811695842 -0.7658516823122341
5370000 0.6263449185597636 -0.7721032617980746
5417500 0.6183769717289582 -0.778483779922314
5465000 0.6100842908741403 -0.7848790468805491
5512500 0.6015128874941972 -0.7913474639517079
5560000 0.593034545006411 -0.7973564238909351
5607500 0.5843945358660549 -0.8034150496555158
5655000 0.5759054619019095 -0.8097719786344576
5702500 0.5666854403881098 -0.8159582915615659
5750000 0.5574318501715049 -0.8219180408938427
5797500 0.548304872511402 -0.8275918716966219
5845000 0.5392055245244723 -0.8336051456083516
5892500 0.5296341348535133 -0.8396045420609468
5940000 0.5196405374230161 -0.8453736272343018
5987500 0.5097967711939596 -0.8508233905852871
6035000 0.499941927729243 -0.856343011766259
6082500 0.4900297379817987 -0.8617782220002662
6130000 0.47950351367691013 -0.8673829273849301
6177500 0.4688303590694219 -0.8722870395999315
6225000 0.4584834559387832 -0.8770975967107061
6272500 0.44829806940535316 -0.8821835188869291
6320000 0.4377246922573081 -0.8875978803020019
6367500 0.42712674964873626 -0.8927453637609067
6415000 0.4163409588674837 -0.8977601050774698
6462500 0.4056096796098301 -0.9029501994615636
6510000 0.39455495472087154 -0.9080741433010417
6557500 0.3829822518482533 -0.9133608894670545
6605000 0.37115097840872907 -0.9181237021197444
6652500 0.3593859246821007 -0.9224215452259275
6700000 0.3475658469292157 -0.9269880356688455
6747500 0.3356125834995175 -0.9314093560086215
6795000 0.3230203107299006 -0.9358980869307622
6842500 0.3102956016528281 -0.9397192548736695
6890000 0.2977428234787571 -0.9435225054374734
6937500 0.2852220060506902 -0.9473399612037604
6985000 0.2720778175134926 -0.9512468887935974
7032500 0.2587492658885647 -0.9547265047948127
7080000 0.24547446015858324 -0.957841461112644
7127500 0.23213819604459607 -0.9606985692289353
7175000 0.21868035749368364 -0.9640583734030324
7222500 0.20458677940165057 -0.9670028480154094
7270000 0.1902481342929197 -0.9695466934205831
7317500 0.1762961920313653 -0.9718952603743127
7365000 0.16229234804444057 -0.974148207479736
7412500 0.14781825628643927 -0.9764784597651524
7460000 0.13282816694862062 -0.9783866590708502
7507500 0.11789671539565269 -0.9799382713864999
7555000 0.10331287730659271 -0.9813092271969485
7602500 0.08832929629858323 -0.9826481280772433
7650000 0.07278310367706575 -0.9838795562461513
7697500 0.05718113366140397 -0.9846608259407333
7745000 0.04168208380148951 -0.9849186154134344
7792500 0.026217987520004097 -0.9853620328377467
7840000 0.010303682759040497 -0.985589626372153
7887500 -0.006040846288512238 -0.9855837010576262
7935000 -0.022363347726255 -0.98471662694809
7982500 -0.038425725977162345 -0.9837621160975085
8030000 -0.05475582787054421 -0.9829572189555096
8077500 -0.07150354434781742 -0.9819478632174597
8125000 -0.08844188363196222 -0.9802554442819538
8172500 -0.10483545104018041 -0.9781845550058083
8220000 -0.12197642247815092 -0.9760849790265735
8267500 -0.13913449427513855 -0.9735749342532976
8315000 -0.15657773780530773 -0.9707649079426843
8362500 -0.17406957386862135 -0.9674238460368942
8410000 -0.1913258254502484 -0.9637155592664068
8457500 -0.20881791197782415 -0.9598532620503141
8505000 -0.2264271245347436 -0.9557859134393817
8552500 -0.24448915401937923 -0.951214197124638
8600000 -0.26221487105297275 -0.9459410281134789
8647500 -0.27993822445337063 -0.9404053770442271
8695000 -0.2977979955032782 -0.9347685105894215
8742500 -0.3160382995077058 -0.928809929017947
8790000 -0.33424757829744844 -0.9219075218028289
8837500 -0.352194920290394 -0.9146363215620249
8885000 -0.370264589427947 -0.9071503500406491
8932500 -0.3887097990354846 -0.8994442260757484
8980000 -0.40686404830011597 -0.8910465372484685
9027500 -0.4251781791587738 -0.8819093398254481
9075000 -0.44321883604884105 -0.8725184514519245
9122500 -0.4611687339639712 -0.8628916801847356
9170000 -0.47944653222241246 -0.8526292541766686
9217500 -0.4978069195337849 -0.8417285657404588
9265000 -0.5156561492302808 -0.8303379111907353
9312500 -0.5333901768282492 -0.8184585785531385
9360000 -0.5513103683514705 -0.8063716365839344
9407500 -0.5691515607729035 -0.7934673499223105
9455000 -0.5869612067139767 -0.7799776885256466
9502500 -0.6041459985125217 -0.765890560074462
9550000 -0.621443238844531 -0.7515368564419117
9597500 -0.6386535338094594 -0.7367607797093048
9645000 -0.6558199237022062 -0.7210231031326436
9692500 -0.6725987162939123 -0.7046857113695768
9740000 -0.688990464083511 -0.6878387174247852
9787500 -0.7054237489665212 -0.6706271598901558
9835000 -0.7216461886060044 -0.6525942599879629
9882500 -0.7373878362542966 -0.6338822204366824
9930000 -0.752720098678909 -0.6146840662062815
9977500 -0.7676916288562148 -0.595027997236517
10025000 -0.7826126353750639 -0.5746445987794258
10072500 -0.7971809827395346 -0.5536127315702796
10120000 -0.811034380088747 -0.5319644341157118
10167500 -0.8245491900430998 -0.5098081092276392
10215000 -0.8375733783876353 -0.4869529139321064
10262500 -0.850350652732162 -0.46339280226908386
10310000 -0.8624272315842463 -0.43922482051901574
10357500 -0.8739201503600577 -0.41439241665740945
10405000 -0.8848433006057093 -0.38906562790119675
10452500 -0.8953561170971658 -0.363044378980421
10500000 -0.9051248564731842 -0.3361775812445812
10547500 -0.9140634226889081 -0.3087367641461003
10595000 -0.9223295675193106 -0.2808477033131179
10642500 -0.9299457532909051 -0.2521343077328951
10690000 -0.9367707894361209 -0.2226138402113552
10737500 -0.9426508572171558 -0.1925419512533756
10785000 -0.9474291352576061 -0.16187462484944815
10832500 -0.9514241721515756 -0.13053144501359168
10880000 -0.9545673878316377 -0.09848463609817756
10927500 -0.956470250424395 -0.0655968952956339
10975000 -0.9570792367777783 -0.03215161011166157
11022500 -0.9565110546097781 0.001849454992466753
11070000 -0.9548360134415499 0.0365459865104586
11117500 -0.9518475989145609 0.07213976396395762
11165000 -0.9469849664625901 0.108384271110793
11212500 -0.9406421871464672 0.14510550931851926
11260000 -0.9326119917983365 0.18234516616056307
11307500 -0.9228901677242507 0.2204542164668771
11355000 -0.9109879139264738 0.2592083719097018
11402500 -0.8965728450560084 0.29842563281641216
11450000 -0.8800213560996019 0.33807183782913075
11497500 -0.861085587623865 0.3780810615805338
11545000 -0.8391822922327299 0.41886466581283566
11592500 -0.8139657537369387 0.45998780942750395
11640000 -0.7852738262140179 0.5009594192240725
11687500 -0.7528915391880711 0.5418749027513277
11735000 -0.7164498838237345 0.5826597865259782
11782500 -0.675184101211596 0.6230696989742932
11830000 -0.6285710903810844 0.6624092547277489
11877500 -0.576352252131055 0.6998416691901839
11925000 -0.518030674264834 0.7351843181089923
11972500 -0.45268750992285056 0.7675116388174844
12020000 -0.3796649233389412 0.7956069176996681
12067500 -0.29870615898376734 0.8177080314888543
12115000 -0.20937057457983163 0.831895761619394
12162500 -0.11183951296545676 0.835999860487012
12210000 -0.0061189523775260005 0.8275698054751055
12257500 0.1062691819978429 0.8026623302054178
12305000 0.22303700769543977 0.7579960592584877
12352500 0.33984020508083956 0.6904883588304703
12400000 0.45128324107709344 0.5970940146343484
12447500 0.5495802313551271 0.4767699995261459
12495000 0.6260312199418544 0.3312421207690088
12542500 0.6716190982875627 0.16531593820987134
12590000 0.6790141081036738 -0.012046871273266434
12637500 0.6453097958464908 -0.18893659570554822
12685000 0.5722985631316753 -0.35288422699222455
12732500 0.4666473649393871 -0.4932482220377826
12780000 0.33810222591550226 -0.603234670299633
12827500 0.19734964219611514 -0.6803842169244564
12875000 0.053846612659900005 -0.7253572182649646
12922500 -0.08464805731515301 -0.7422175388441106
12970000 -0.2130310872393657 -0.7357939404818655
13017500 -0.32862762207672125 -0.711734366373803
13065000 -0.4303825759596244 -0.6746241360944213
13112500 -0.5182318181554575 -0.6281456284031977
13160000 -0.5928554943933104 -0.5758898783078263
13207500 -0.6552447492883674 -0.5204816101190228
13255000 -0.7070374511323387 -0.46417119542183866
13302500 -0.7496525449235973 -0.4082970816009871
13350000 -0.7843213521857477 -0.3538881570970997
13397500 -0.812955903440258 -0.3017509123362664
13445000 -0.8370847634031316 -0.25184895462278223
13492500 -0.8575460294823714 -0.2034296234527607
13540000 -0.8747008108746059 -0.15610119954568488
13587500 -0.8886596858311271 -0.11004263626243659
13635000 -0.8997335730622202 -0.06487627470541003
13682500 -0.9079059133533532 -0.020784874512512052
13730000 -0.9130753110684973 0.022171346482972597
13777500 -0.9157233705147964 0.06360476084053837
13825000 -0.9161310332851498 0.10337704299443658
13872500 -0.9148192933280449 0.14153359580337607
13920000 -0.9116685927570416 0.17854842439974491
13967500 -0.9068612208505932 0.21366006825332212
14015000 -0.9008184578645556 0.2473474973253352
14062500 -0.8938517659727607 0.2795031905556641
14110000 -0.8859387839988091 0.31056550722753007
14157500 -0.8769688612310607 0.3403169349600231
14205000 -0.8671699605713907 0.36867542627962974
14252500 -0.8569464712747886 0.3957557452276245
14300000 -0.8463380825278953 0.42189139753383065
14347500 -0.8348398534768016 0.4471336838192723
14395000 -0.8229802251225216 0.4711784197733965
14442500 -0.8106094333122222 0.4942061184071398
14490000 -0.7981049716672431 0.5161571726975458
14537500 -0.7852983768361301 0.5375698451376495
14585000 -0.7720957511492353 0.5581860457579015
14632500 -0.7585697959805203 0.5777897223110956
14680000 -0.7450388670246108 0.5964857132834219
14727500 -0.7313548200526081 0.6145128576323604
14775000 -0.7174826642159557 0.6320631018587906
14822500 -0.703250394677196 0.6488980486926913
14870000 -0.689018362212567 0.6648847027893023
14917500 -0.6750002812301257 0.679997905883906
14965000 -0.6609013073662356 0.6948682890282943
15012500 -0.6464021354120406 0.709284804895915
15060000 -0.6320071574959188 0.7226664328201267
15107500 -0.6177024414278336 0.7354503691131872
15155000 -0.6034652140023686 0.7480647320276634
15202500 -0.5890354302146482 0.7603026823040655
15250000 -0.5744327796261502 0.7717715842035905
15297500 -0.5600998825426166 0.7826304888997159
15345000 -0.5459344688831763 0.7930296091256481
15392500 -0.5317834835446409 0.803347603420467
15440000 -0.5173450880972515 0.8132447265076357
15487500 -0.5029003089435453 0.8224428583745989
15535000 -0.4888140195070364 0.8312476516514441
15582500 -0.47486408654969753 0.8397438341592836
15630000 -0.4608305914374122 0.8481066307021975
15677500 -0.4465453718178492 0.8560550043325366
15725000 -0.43267719639527874 0.8631984101032238
15772500 -0.418875679152842 0.8703733088112131
15820000 -0.4052923969136917 0.8772923908881849
15867500 -0.3913695055444098 0.8839384550163398
15915000 -0.37766965439342826 0.8900940705178544
15962500 -0.36412359938930317 0.8959632010914667
16010000 -0.35074676396792165 0.9018861000718741
16057500 -0.33732654927668976 0.9073545432035931
16105000 -0.3237187784311791 0.9122878518196037
16152500 -0.3106043802202631 0.9165155855147683
16200000 -0.29780561715869014 0.920889703347286
16247500 -0.28504929059800854 0.9252867537541007
16295000 -0.27211161969658026 0.9295004226118911
16342500 -0.2592275148773039 0.9332978052803002
16390000 -0.2465732946755721 0.9368413605843262
16437500 -0.23421754891949764 0.9400422033928789
16485000 -0.22183655125942922 0.9434371033951843
16532500 -0.20931156792529534 0.9464594149599821
16580000 -0.19705480038303338 0.9491900404724899
16627500 -0.18525813638461952 0.9515730360153904
16675000 -0.17313599707606067 0.9541870460575728
16722500 -0.16123249788676638 0.9565438069017268
16770000 -0.14937074109534973 0.9585830876160313
16817500 -0.13761698498467845 0.9603931655227366
16865000 -0.1263420111916043 0.9620875942556418
16912500 -0.11490982205168723 0.9636683317302592
16960000 -0.10334757257881214 0.9653129427875523
17007500 -0.09211064061345375 0.9662668827398819
17055000 -0.0811349478327718 0.9673348519549694
17102500 -0.07028148146694597 0.9685311655932293
17150000 -0.05911988493735357 0.9694815237834893
17197500 -0.04818176980298334 0.9701924721729873
17245000 -0.03771493599208652 0.9707193263323478
17292500 -0.02718797413194024 0.9713830493687164
17340000 -0.01658506952486046 0.9719314949862266
17387500 -0.00595850485385997 0.9722456004560076
17435000 0.004216156476049529 0.9721906905520304
17482500 0.014229970843469681 0.9721290318092423
17530000 0.02426799322227003 0.9720308527738434
17577500 0.034412667702090255 0.9717936462850262
17625000 0.04436210767394065 0.9714699471626997
17672500 0.05402587458492045 0.9710072687065391
17720000 0.06362475027320517 0.9706151641169156
17767500 0.07315638257629047 0.9700011941523441
17815000 0.08273197530610356 0.9693788529115986
17862500 0.09208888442510729 0.9684176024259342
17910000 0.10121738102540419 0.9677328463623076
17957500 0.11027724128032071 0.9668881163821335
18005000 0.11948227416678908 0.9660903516648447
18052500 0.12865828739244264 0.9648969080348129
18100000 0.13724531458072742 0.9637029705711101
18147500 0.14590429993420667 0.9626396323161168
18195000 0.1547053068319268 0.9615323961562352
18242500 0.16346006555544218 0.9602815378735311
18290000 0.1719911482551342 0.9589111917928097
18337500 0.18026935659696264 0.9573355385850542
18385000 0.18847791799621053 0.955983645200538
18432500 0.19674079996908425 0.9544400170857804
18480000 0.2049342833819985 0.9526246149867972
18527500 0.2129236843661883 0.950760128291568
18575000 0.2208739865315952 0.9489866641456997
18622500 0.2287451744825161 0.947369818031304
18670000 0.2365972552150855 0.9455611103078722
18717500 0.24442139382393155 0.9434478176267282
18765000 0.25203162150310787 0.9414786863345085
18812500 0.2593875094851084 0.9394973101448094
18860000 0.26694373143361966 0.9375932244976294
18907500 0.2743797152350133 0.9355025144800854
18955000 0.2817036781252778 0.9332480994106859
19002500 0.2888290404172145 0.9311211232735224
19050000 0.2958887145545863 0.9290565547686387
19097500 0.3029884258364068 0.9269404623526076
19145000 0.31009210602344334 0.9246028444723523
19192500 0.31680846338782587 0.9223144020180505
19240000 0.32361598639348377 0.9201168786290101
19287500 0.3303296982011292 0.917890758325343
19335000 0.33706454869971236 0.9156113075994695
19382500 0.3437488262246678 0.9129736654432159
19430000 0.35008241331822454 0.9107679607185739
19477500 0.35655441109990815 0.9083990809623697
19525000 0.3631496061416731 0.9060761926152346
19572500 0.369486133772592 0.9032858403509407
19620000 0.3756910399914571 0.9009003974462833
19667500 0.3817857729753449 0.8983209182975768
19715000 0.3880600610082628 0.8958992670971531
19762500 0.39419151238887656 0.8933307039081517
19810000 0.40041294695744706 0.8906179291543547
19857500 0.406131771811881 0.8879832166950257
19905000 0.4120611207100388 0.8854921879176831
19952500 0.4179082638943689 0.8828433918244298
20000000 0.42361981765293033 0.8800563273948852
