# HZ S RI R 50
1000000 0.9885623357110707 -0.13987170560747628
1047500 0.9876902497108837 -0.14694598542232215
1095000 0.9864971192733815 -0.15327183559915553
1142500 0.9853480149316735 -0.15966951324662387
1190000 0.9844057975062558 -0.1664463478660681
1237500 0.9831582956045718 -0.17314011430153675
1285000 0.9818115433943491 -0.17971179422912756
1332500 0.9805760999674356 -0.18645977700870792
1380000 0.9793578644199189 -0.1929542652165144
1427500 0.9779661751003439 -0.19953138704118845
1475000 0.9766782003750544 -0.20632262462370346
1522500 0.9752730037027846 -0.21323689127730378
1570000 0.9734341175870871 -0.21993341773842326
1617500 0.9718496102661552 -0.22641076935243742
1665000 0.9704836685522912 -0.23307088237531814
1712500 0.9687658311888976 -0.2399529109436939
1760000 0.9668339112020334 -0.24645452077892688
1807500 0.9652849436172468 -0.2525987285963878
1855000 0.9637355406970044 -0.2596344347679797
1902500 0.9617855562734526 -0.26677470530503306
1950000 0.9594460365881275 -0.2735257726101859
1997500 0.957334665908146 -0.27997435502064727
2045000 0.9555273054169338 -0.2865582126724171
2092500 0.9534123326666406 -0.29329299531545266
2140000 0.9513933552429782 -0.30004549614740855
2187500 0.9491420534268409 -0.3068716142184187
2235000 0.9470007493174959 -0.31350195639871087
2282500 0.9446132667654336 -0.32011385969052586
2330000 0.9423512352415238 -0.326920999587468
2377500 0.9399431532709556 -0.3338708092338614
2425000 0.9371967234152939 -0.3404519554313098
2472500 0.9347845179585454 -0.34665817149519956
2520000 0.9326036085417598 -0.35298657457119603
2567500 0.9302163758782076 -0.36035206582891754
2615000 0.9272240940509412 -0.36750208252908995
2662500 0.9244023912850592 -0.3740862874947727
2710000 0.9217039817880025 -0.38089626143738564
2757500 0.9187805381706026 -0.3878782578780697
2805000 0.9157385370743426 -0.3949144849338697
2852500 0.9126306713940285 -0.40162007430454055
2900000 0.9095385738275836 -0.40833976620121304
2947500 0.9063743763228865 -0.4150589776987463
2995000 0.9031363719452922 -0.421879748973709
3042500 0.8997927582079291 -0.4286743844325349
3090000 0.8964426330272103 -0.43543653961585504
3137500 0.8929249980384518 -0.4422165305316804
3185000 0.8896245530474077 -0.4490143792166434
3232500 0.8862244764784064 -0.45591299887226916
3280000 0.8823648720877959 -0.46286521010842335
3327500 0.8786271675199393 -0.469617959469815
3375000 0.8750459473344364 -0.4760608588286303
3422500 0.8714070801824353 -0.4830349755171765
3470000 0.8675282989210918 -0.49008320863980265
3517500 0.8632416154711281 -0.4968629800231819
3565000 0.8592023313835639 -0.5033459506835278
3612500 0.8554424295703715 -0.5102269040665307
3660000 0.8509870326802598 -0.517197644283262
3707500 0.8466375952559552 -0.5239970539967507
3755000 0.8422271882845556 -0.530665344040976
3802500 0.8379615609903273 -0.5374548555761252
3850000 0.8334432540762811 -0.5442781427064678
3897500 0.8287220364997422 -0.5511178608958295
3945000 0.8242308549718448 -0.5578648173271574
3992500 0.8193286631495672 -0.564555668176606
4040000 0.8145110421013918 -0.5710533006064341
4087500 0.8099379248735881 -0.5777102880014741
4135000 0.8053933771915505 -0.5844170156181777
4182500 0.8005050907978408 -0.5910186822700721
4230000 0.7957988599297051 -0.5977179967732591
4277500 0.7908129766869828 -0.6049808320713539
4325000 0.785366772930552 -0.6124131528116583
4372500 0.7794383069746355 -0.6194077946124038
4420000 0.7737067832894957 -0.6261357199989458
4467500 0.7683116484885095 -0.6328424668830162
4515000 0.7625397984673123 -0.6399113751633756
4562500 0.756557441843007 -0.6468152620975002
4610000 0.7504785312768906 -0.6535295641369706
4657500 0.7443465025275927 -0.6600813400440376
4705000 0.738408909243585 -0.6668477269320379
4752500 0.7322192961933105 -0.6735884656699244
4800000 0.7258456457094999 -0.6802941202583691
4847500 0.7193773452354857 -0.6870371802862624
4895000 0.7127840511626302 -0.6937181063372725
4942500 0.706105965042961 -0.7002944734686427
4990000 0.6995102511132147 -0.7068823302611468
5037500 0.6924875073710548 -0.7138498228609529
5085000 0.6853117214648227 -0.7202358948651336
5132500 0.6782861077954209 -0.7265755110478084
5180000 0.6713598410939133 -0.7331934582504855
5227500 0.6640926682482712 -0.7399190933514777
5275000 0.6563403673982833 -0.7465224582018976
5322500 0.6487142492629264 -0.7527148771668454
5370000 0.6412491456541716 -0.759040651841194
5417500 0.6335867826224073 -0.7656073525882443
5465000 0.6254065486178033 -0.772023033865218
5512500 0.6173209999330174 -0.7783042403258319
5560000 0.6091288124212433 -0.7844692614090334
5607500 0.6009201602058923 -0.7906035617472105
5655000 0.5924717651232752 -0.7969671535548991
5702500 0.5837664529358849 -0.8031125075410871
5750000 0.5749255938230367 -0.809162829030086
5797500 0.5660659455838769 -0.8150751459061711
5845000 0.5574344129874951 -0.8210062755864536
5892500 0.5482276190335599 -0.8272414143812742
5940000 0.5386760039841388 -0.8330988980642553
5987500 0.5291126761908059 -0.8386527880744218
6035000 0.5197875211589622 -0.8444047603347542
6082500 0.5099095881571651 -0.8500209623306216
6130000 0.4998722903893786 -0.8555100186312132
6177500 0.48995682296136067 -0.8606769905247957
6225000 0.4800359564697449 -0.8660072630470763
6272500 0.46986567382813565 -0.8712693966249127
6320000 0.45967903263743715 -0.8766637856383084
6367500 0.44929089609034295 -0.8820575431743382
6415000 0.4387627155626992 -0.8873895227203965
6462500 0.4282593471313495 -0.8924918101916248
6510000 0.4176236939041646 -0.8978654813490281
6557500 0.40640252078977784 -0.9031076482721193
6605000 0.3949195248132826 -0.9076715681075415
6652500 0.38357185022509677 -0.9124429782726767
6700000 0.37216821058095595 -0.9171967688109518
6747500 0.3601951210664201 -0.9218436108744101
6795000 0.34810369604205277 -0.926189787886798
6842500 0.33624447413435765 -0.9304668963927463
6890000 0.32390260125167464 -0.9346560598306859
6937500 0.31148211525831443 -0.9386696341224386
6985000 0.2989062375987754 -0.9427504625538663
7032500 0.28607878666644615 -0.9463796062255421
7080000 0.2731342093553437 -0.9498603905406443
7127500 0.2603390031427676 -0.9531827912309542
7175000 0.24716936535465583 -0.9567711249271517
7222500 0.23360734286774978 -0.9600650083669748
7270000 0.21977795076984422 -0.9629719297463969
7317500 0.20615152783842092 -0.9655641108795514
7365000 0.1927405331214814 -0.9683772221666685
7412500 0.17842228252950026 -0.9710979438945458
7460000 0.16405027860822044 -0.9730243416455985
7507500 0.14992739748854503 -0.9752454050848854
7555000 0.1354311146507159 -0.9772292085540496
7602500 0.12074688137415503 -0.9789061830988713
7650000 0.10594084867036975 -0.9805765275737732
7697500 0.09084159080792907 -0.9818263311564519
7745000 0.07558644622091958 -0.9828362221507028
7792500 0.06058828790402576 -0.9834411691956468
7840000 0.04532402876696219 -0.9843559090979205
7887500 0.029418905026779272 -0.9848897374992875
7935000 0.01372321091029934 -0.9846989349442636
7982500 -0.0020231323657377274 -0.9845666257408725
8030000 -0.01799872840929051 -0.9844664779701562
8077500 -0.03437466927663379 -0.983880269504526
8125000 -0.05068016910852353 -0.9826378721142025
8172500 -0.06664017283084896 -0.9818082727219573
8220000 -0.08350040603588389 -0.9802070017233936
8267500 -0.10023670164781943 -0.9785546755456133
8315000 -0.11697835831273759 -0.9762261540848224
8362500 -0.1338426630455014 -0.9738660861873821
8410000 -0.1509001368251959 -0.9711974546045616
8457500 -0.16795710946985554 -0.9680359113368587
8505000 -0.18517160193509521 -0.9646707738345388
8552500 -0.2025066171381975 -0.9610118514822421
8600000 -0.2199018428720382 -0.9567377435377918
8647500 -0.23721151597859672 -0.9523508786428484
8695000 -0.25466440891097136 -0.9477308844727614
8742500 -0.27254223826740315 -0.9427751310573023
8790000 -0.29024126806082073 -0.9369213806864782
8837500 -0.30767450042142747 -0.9311085817047321
8885000 -0.32537419480535545 -0.9249119938526594
8932500 -0.3433195418834337 -0.9181609498282695
8980000 -0.36109029009103866 -0.9108243699377456
9027500 -0.3787306861717363 -0.9032673806950808
9075000 -0.3965008727342733 -0.8955459319017011
9122500 -0.41450720750171993 -0.8869674607692287
9170000 -0.4321927202605789 -0.8781692345414125
9217500 -0.44986651388122745 -0.8688859668411485
9265000 -0.4677822586685648 -0.8591087151548752
9312500 -0.48529853506761267 -0.8487135435213202
9360000 -0.5028336081389497 -0.8382222832386957
9407500 -0.5203656838450379 -0.8272101398634145
9455000 -0.538044853398997 -0.815375299369183
9502500 -0.5550737096530599 -0.8030585217978161
9550000 -0.5721163334849063 -0.7906678680721456
9597500 -0.5894826235887745 -0.7777313576259529
9645000 -0.6063701525474753 -0.7639978396475198
9692500 -0.6227961552229894 -0.7498141193477512
9740000 -0.6393683236895711 -0.7353743656724498
9787500 -0.65587861491663 -0.7202441626589281
9835000 -0.6719572255918258 -0.7044925866029719
9882500 -0.6876183933978011 -0.6886119517917312
9930000 -0.7034035550551347 -0.6720180711615211
9977500 -0.7188230689451969 -0.654796352140014
10025000 -0.7338168581283793 -0.63720044516474
10072500 -0.7485917589549749 -0.6190087106373847
10120000 -0.7631424980204339 -0.600274504621267
10167500 -0.7771873349534469 -0.5810277947638708
10215000 -0.7907690889021666 -0.5611943816377055
10262500 -0.8041543683059509 -0.5411907176311853
10310000 -0.8172132758689684 -0.5201993516202081
10357500 -0.829567131697783 -0.4988639433387649
10405000 -0.8415889198683771 -0.47720258993918324
10452500 -0.8533382032671792 -0.45474886978651347
10500000 -0.8643063862244894 -0.4318840037083042
10547500 -0.8747074992175775 -0.40858111534411473
10595000 -0.8847398857129205 -0.38463566674020294
10642500 -0.8943225130721665 -0.36010040098823376
10690000 -0.9029752893718551 -0.33513623825830613
10737500 -0.9110165755782997 -0.30968068433962836
10785000 -0.9187602801022201 -0.28383115493108263
10832500 -0.9255671211699389 -0.2572419272860466
10880000 -0.931513550503569 -0.23015029585577032
10927500 -0.9367995885398576 -0.20282279586378957
10975000 -0.9414865471617769 -0.17473624802630242
11022500 -0.945169322652766 -0.14611888701887013
11070000 -0.9478235054564541 -0.11691109370295949
11117500 -0.9495333328438416 -0.08747216076987219
11165000 -0.9503454891671268 -0.05730615781979167
11212500 -0.9500495027098613 -0.026586768664291875
11260000 -0.9486415444531144 0.004512163255994885
11307500 -0.945957800140843 0.03623262610226163
11355000 -0.9418839172688903 0.06858616327841995
11402500 -0.9365555473738725 0.10117780301597135
11450000 -0.9297741906719558 0.13451974904490632
11497500 -0.9212173439419311 0.1685113154193285
11545000 -0.9106625568071723 0.20295807777593927
11592500 -0.8980992767064047 0.23773021790966198
11640000 -0.8836427196157687 0.27293076728454646
11687500 -0.8666860888686762 0.3088642204299847
11735000 -0.8467039018675879 0.34513866018466244
11782500 -0.823487736870097 0.38149388387010597
11830000 -0.7971037238153527 0.41781553768983604
11877500 -0.7667782452280343 0.45421678868118465
11925000 -0.7317235058903608 0.49038482617029366
11972500 -0.691414595917692 0.5253835792235472
12020000 -0.6453224614896603 0.5588843204103355
12067500 -0.5922468616469212 0.5898452723933149
12115000 -0.5318863560187106 0.6169442741536008
12162500 -0.46299448206083754 0.638712348554739
12210000 -0.38499337619760293 0.6522608528214533
12257500 -0.29774810695711856 0.6544561277018435
12305000 -0.20249549970284333 0.6409410825926533
12352500 -0.1013700469317619 0.6072314535130732
12400000 0.0006395855501706826 0.5477465679905026
12447500 0.09481198550739893 0.4587548870182139
12495000 0.16941561392388724 0.33991680246859873
12542500 0.21152375855379216 0.19647524449051096
12590000 0.21037737064360812 0.040530868088069286
12637500 0.1625214557212214 -0.10981891775533742
12685000 0.07388739488986333 -0.237322879762491
12732500 -0.04192358932371482 -0.3301302586955076
12780000 -0.16931507209865793 -0.3846454209132359
12827500 -0.2945466115665596 -0.404436582734958
12875000 -0.4092903224202172 -0.39632762620940026
12922500 -0.509008358151812 -0.36828301758294585
12970000 -0.5923993030097435 -0.3270901578330185
13017500 -0.6606268429051784 -0.2784784961951252
13065000 -0.715338300463179 -0.22591028667017374
13112500 -0.7585355464415456 -0.17214711128517157
13160000 -0.79196551383217 -0.11875479928769384
13207500 -0.8173625558755659 -0.06670976266919112
13255000 -0.8363409467354979 -0.016521931650970934
13302500 -0.8496120826645354 0.031463347701896294
13350000 -0.8585152459867541 0.07682249901688641
13397500 -0.8638766461565471 0.11995428018891834
13445000 -0.8663082319312005 0.1610763700210814
13492500 -0.8658976242947469 0.20005810295744117
13540000 -0.8634105350060802 0.23669519438244957
13587500 -0.8593307233680739 0.2713487429034092
13635000 -0.853944670279119 0.30460323729647604
13682500 -0.8469026431842807 0.3361771298121694
13730000 -0.8389114668909022 0.36585282250948237
13777500 -0.830191620920084 0.39422832562457216
13825000 -0.8206051660290362 0.42128748981946873
13872500 -0.81025725281624 0.44712360276727425
13920000 -0.7992677371452779 0.4717438994753688
13967500 -0.7879083431423776 0.4951688300940013
14015000 -0.7762508151599405 0.517370173240373
14062500 -0.7642580394324804 0.5388565833244502
14110000 -0.7517583920253358 0.5594924176484225
14157500 -0.7387920771190014 0.5789758453915906
14205000 -0.7259554744198128 0.5976378503962203
14252500 -0.7128468038524968 0.6155045096630753
14300000 -0.6995691112901736 0.6328403668159264
14347500 -0.6859799662509763 0.6492691445460286
14395000 -0.67242788497997 0.6649816875664281
14442500 -0.6588906304298021 0.6802370817291441
14490000 -0.6452026031743975 0.6948931305325153
14537500 -0.6314250161472699 0.7090545806287156
14585000 -0.6177208811633075 0.7224395529448961
14632500 -0.6036328512964766 0.7352585338043013
14680000 -0.5901023256655967 0.747378108399072
14727500 -0.5764113216948961 0.7595279485780035
14775000 -0.5624093429434832 0.7711841580819974
14822500 -0.548438085067984 0.7820607909656994
14870000 -0.5345639039606305 0.7925939671095505
14917500 -0.5208336455363967 0.8028979788720124
14965000 -0.5068464604139269 0.8128485716869814
15012500 -0.4929146029224487 0.821984322015476
15060000 -0.4791694389861849 0.8310359792991358
15107500 -0.46531948062734396 0.8398567026088927
15155000 -0.45145213632331166 0.8481973545426336
15202500 -0.4376565260408222 0.8560472214670644
15250000 -0.4237924418229649 0.8637579158205729
15297500 -0.40993582550409424 0.8710406947926438
15345000 -0.3963641581585575 0.8776297375469216
15392500 -0.3828986222449756 0.8844396928940834
15440000 -0.36920836103022253 0.8910688603749354
15487500 -0.3554133752543688 0.8968934951716971
15535000 -0.34215251383527345 0.9024973780730953
15582500 -0.3289654728218687 0.9079382035422573
15630000 -0.31539240627105947 0.9132455993820138
15677500 -0.30215266382579925 0.917965387370466
15725000 -0.2890050983152119 0.9224543506407479
15772500 -0.2760802232741814 0.9267357304321706
15820000 -0.2631625469226692 0.9310053531734266
15867500 -0.250121454397685 0.9346954644352847
15915000 -0.23738750627223518 0.9382929891366991
15962500 -0.22479805765369876 0.9415620484809849
16010000 -0.21228097037874571 0.9444860578752713
16057500 -0.19976836486248176 0.9474909484244989
16105000 -0.18737480829029501 0.9503208207794814
16152500 -0.17516890322874845 0.9526623003769255
16200000 -0.16314953427185175 0.9550470099589355
16247500 -0.1513963241730788 0.9571709176849313
16295000 -0.1394673844224823 0.9592661185467973
16342500 -0.12746846160344655 0.9610264330513583
16390000 -0.11591708273072945 0.9623891159858936
16437500 -0.10473066688428663 0.9638207614408074
16485000 -0.09316073844054064 0.9653159434535196
16532500 -0.08205846064302397 0.9664374762603112
16580000 -0.07079120980491985 0.9672710448572814
16627500 -0.059860046779592335 0.9682367517210125
16675000 -0.04886058515864345 0.9691672878947549
16722500 -0.03775460987799948 0.9700434154827593
16770000 -0.02703269364803461 0.970254445629905
16817500 -0.016429519373186558 0.9705227842507621
16865000 -0.005992473147426668 0.9708274399026852
16912500 0.004571264858239336 0.971167244392529
16960000 0.014902584487275283 0.971061135899357
17007500 0.024996941594216143 0.9710559391853796
17055000 0.03507156792890902 0.9709953436932549
17102500 0.04519749579839416 0.9706768326558577
17150000 0.055140132699692736 0.9704225541846775
17197500 0.0649457244186291 0.9700638806949733
17245000 0.07479673893326948 0.969432570430603
17292500 0.08430027582772319 0.968781912825861
17340000 0.09369194471219548 0.968280725486474
17387500 0.10333234083275837 0.9675499912857163
17435000 0.11273169442262673 0.9665477286811831
17482500 0.12183148854425781 0.9653280645725693
17530000 0.13085718885535333 0.9645175222094733
17577500 0.14013707915369455 0.9636095609694393
17625000 0.14912100554151286 0.9621787718278034
17672500 0.15785443662252344 0.9609123520252497
17720000 0.16658257519772898 0.9595806535320652
17767500 0.17516771175124285 0.9581686058215139
17815000 0.18394565262823734 0.9564485814537065
17862500 0.19230783933134346 0.9546625644781588
17910000 0.20056312364824683 0.9529323443218586
17957500 0.2088670334220123 0.9512083111804972
18005000 0.21691410620923704 0.9495374409620005
18052500 0.22508006912082934 0.9478287250962206
18100000 0.23310972383469525 0.9458831176006176
18147500 0.24106300269759 0.9437755567746193
18195000 0.24867455796373034 0.9419277371861032
18242500 0.2565692319256646 0.94012147814973
18290000 0.26431146565471775 0.937830975895715
18337500 0.27184134021047196 0.9356446751010469
18385000 0.279204119412116 0.9336991985437567
18432500 0.28663202045357966 0.9316821915850856
18480000 0.29413457988577374 0.9294326142533337
18527500 0.3012061379929377 0.9271485596943942
18575000 0.3084137837894128 0.9250294334354804
18622500 0.31556328430445624 0.9225896315073209
18670000 0.3225131308447035 0.9202623768599041
18717500 0.32933438099801227 0.9178710694966022
18765000 0.3363968414407035 0.9156261377811138
18812500 0.3431313858872426 0.9130921752094502
18860000 0.34969412768569175 0.9105292130442348
18907500 0.3562751473037643 0.9081050141895453
18955000 0.36301326673269535 0.9057513807831625
19002500 0.3695047425509487 0.9029721174901705
19050000 0.37583440471375945 0.9003339268077482
19097500 0.3820935500642189 0.8981443615432877
19145000 0.38845107168216103 0.8954021052147864
19192500 0.3947513961459351 0.8926895129291442
19240000 0.4006360387540198 0.8899850198439254
19287500 0.40676016747718524 0.8874120815348111
19335000 0.4128559531270254 0.8848770217348287
19382500 0.41867525688853124 0.8820375679032738
19430000 0.4246589494729674 0.8794500783547868
19477500 0.4304432658689936 0.8767218709037675
19525000 0.4362851842790821 0.8739385577147022
19572500 0.4419059158322209 0.8710999558953547
19620000 0.4474970775889122 0.8685721961267661
19667500 0.4531576520716523 0.8657148750863743
19715000 0.4586449561311182 0.8629293677170634
19762500 0.46394365888590156 0.8599686484444045
19810000 0.46940944425826503 0.857316277403472
19857500 0.47485541250217667 0.854394895290219
19905000 0.47997510680347505 0.8514680213891921
19952500 0.4850944337602392 0.8486980425285024
20000000 0.4902528867537681 0.8458208393795836
