# HZ S RI R 50
1000000 0.9674988299596289 -0.25153586741257916
1047500 0.9644442301286801 -0.2634564499840372
1095000 0.9611315782537733 -0.2752212091073041
1142500 0.957465599876314 -0.287119540297474
1190000 0.9539593057145431 -0.2988525104911049
1237500 0.9500866623635513 -0.31063077546945866
1285000 0.9462578628015812 -0.3224037298918868
1332500 0.9421519184177686 -0.3341758620719266
1380000 0.937679577033851 -0.3459603551006541
1427500 0.9331684487738767 -0.3575081348061465
1475000 0.9286907741145141 -0.3692264790499546
1522500 0.9241743919081833 -0.3810917205510569
1570000 0.9191173637936312 -0.39271564423387084
1617500 0.9137792563142716 -0.4043614573394118
1665000 0.9085831491640598 -0.4156946101144684
1712500 0.9032802222505503 -0.4273055928026744
1760000 0.8977106170166492 -0.43907455913432025
1807500 0.891929273941322 -0.4506066866028552
1855000 0.8857761752785532 -0.4619345242429855
1902500 0.8798358727404821 -0.4732001624042744
1950000 0.873729336245222 -0.48460359494847166
1997500 0.8672544476975201 -0.49622970756407075
2045000 0.8604763125188956 -0.5075999527309857
2092500 0.853578273743895 -0.5186556661724919
2140000 0.8467364635973991 -0.5298274043735778
2187500 0.8397208360570529 -0.5411894317820709
2235000 0.8321276543098463 -0.5523750209217599
2282500 0.8244722788079561 -0.5633155191638032
2330000 0.8168905200175048 -0.5742550406785583
2377500 0.8091400055990565 -0.5852985936328999
2425000 0.8010958983387473 -0.5964275743703429
2472500 0.7926855461639357 -0.6074173560466799
2520000 0.7841788396979732 -0.6179781217851182
2567500 0.7755762970015515 -0.6286402381743365
2615000 0.7669392720644499 -0.6394325529752619
2662500 0.7577542314834737 -0.6502096557873696
2710000 0.748315813780641 -0.6606256833709433
2757500 0.7388398726055144 -0.6709921404417561
2805000 0.7295680713165373 -0.6812385442503851
2852500 0.7197744756497558 -0.6918126532666237
2900000 0.7096656377192467 -0.7022248033333376
2947500 0.6992038519089803 -0.712081323713994
2995000 0.6888844205275192 -0.7219698702392623
3042500 0.6783812635806357 -0.7320100038669414
3090000 0.6675606571986499 -0.7420086166631598
3137500 0.6561348769664164 -0.7517421747001246
3185000 0.6447984700268354 -0.761124611868858
3232500 0.6336081232511188 -0.7705001231287927
3280000 0.6220716537870614 -0.7800453055294863
3327500 0.6101122637983981 -0.7895766519873738
3375000 0.5978065244496974 -0.7987165938915715
3422500 0.5854339784769215 -0.8073782594317676
3470000 0.5731095955067997 -0.8161850006307668
3517500 0.5605195001373613 -0.8251725532859088
3565000 0.5474029069523296 -0.8338072317616186
3612500 0.533941872003695 -0.8420559553576551
3660000 0.5208309614489086 -0.850118262097395
3707500 0.5073541355106483 -0.8582451114271898
3755000 0.49338762996135455 -0.8664323929931697
3802500 0.4793072365946787 -0.8739582022109115
3850000 0.46512252570311136 -0.881429632858961
3897500 0.4509215879030968 -0.8887091567165121
3945000 0.4362591512885228 -0.8960506441089611
3992500 0.42122055094566224 -0.9031957934901809
4040000 0.40596096881169424 -0.9097352166785592
4087500 0.3910778372462968 -0.916072460816963
4135000 0.3758130651623138 -0.922464190435648
4182500 0.35997465425805997 -0.9288898524439032
4230000 0.34387007259131297 -0.934700611717416
4277500 0.3277749199779502 -0.9400469217864944
4325000 0.31179645762335345 -0.9452999023598349
4372500 0.295583208154098 -0.9508354001646508
4420000 0.2786015702271184 -0.955755810255963
4467500 0.26168021258794616 -0.9602338882880959
4515000 0.24480726510572406 -0.9642774988455979
4562500 0.2277843636140678 -0.9684307784888067
4610000 0.21061627662581162 -0.9726522169040124
4657500 0.1928144392479406 -0.9760342374116412
4705000 0.17498347762140987 -0.9789334200455
4752500 0.15733318393322826 -0.9816408496885515
4800000 0.13943520870223802 -0.9845439882566441
4847500 0.12109891103817436 -0.986812368588162
4895000 0.10257227957612244 -0.9887300974747587
4942500 0.084412298698192 -0.9900186421034305
4990000 0.06605427674669474 -0.991241152086014
5037500 0.04734138410388652 -0.9925304725956221
5085000 0.028372466388825044 -0.9931550078815775
5132500 0.009210993642369327 -0.9931061257337508
5180000 -0.009587500814467357 -0.9928321505621112
5227500 -0.028793846585952614 -0.9923560856044903
5275000 -0.04792865762324448 -0.9917990286355218
5322500 -0.0673629829754864 -0.9902902371729922
5370000 -0.08670579807549843 -0.9885783578117573
5417500 -0.10585742981443066 -0.9862555545182146
5465000 -0.12530984423439742 -0.9841218312331463
5512500 -0.14495585278028725 -0.9813248214298634
5560000 -0.16467447386885828 -0.9777883823718351
5607500 -0.18415957746609185 -0.9740836097433182
5655000 -0.20343986480600562 -0.9701819495859024
5702500 -0.22328691559255115 -0.9658047483086869
5750000 -0.24299396124088155 -0.9607281910396007
5797500 -0.26253024904384553 -0.9552685891515161
5845000 -0.28184424100140604 -0.9494446924318102
5892500 -0.3013160497238655 -0.9436444358576725
5940000 -0.3209040905636303 -0.9369290607768515
5987500 -0.3404237803430467 -0.9298959386518648
6035000 -0.35971017201806466 -0.9221045285449773
6082500 -0.37873753931354587 -0.914397389939682
6130000 -0.39784952571238724 -0.9060985809340526
6177500 -0.4170119008979356 -0.8974107231536557
6225000 -0.4359349306337971 -0.887838294173102
6272500 -0.4543473449934257 -0.8782136640099021
6320000 -0.47294928992013585 -0.8683680204223676
6367500 -0.4914339631322064 -0.8580594868762849
6415000 -0.5097819266062023 -0.8470818216863945
6462500 -0.5278232500591667 -0.835536441842245
6510000 -0.5453565529029827 -0.8237835496398601
6557500 -0.5629560284759961 -0.8117630544217819
6605000 -0.580613177413423 -0.7993409197310459
6652500 -0.5976727703626437 -0.7862093793173024
6700000 -0.6144336799892979 -0.772798181339455
6747500 -0.6308733520779805 -0.7592369360648468
6795000 -0.6474460122262371 -0.7451750068309805
6842500 -0.6636351940395897 -0.73070189858882
6890000 -0.6792999469787849 -0.715698850375648
6937500 -0.6946285726300586 -0.7004433890364721
6985000 -0.7097533887084397 -0.6851085853752341
7032500 -0.724727885086223 -0.6691401580220284
7080000 -0.7391932068089303 -0.6529042939163354
7127500 -0.7531006513719929 -0.6362314349258535
7175000 -0.7667930336489733 -0.6194723358360387
7222500 -0.7801940898374228 -0.6024410314272076
7270000 -0.7933498497417536 -0.5849484160205887
7317500 -0.8058871997237016 -0.5671626480293906
7365000 -0.8179732457127787 -0.549211051115045
7412500 -0.8297497986715274 -0.5310309320885994
7460000 -0.8413558418358189 -0.5124948047541872
7507500 -0.8522371105139167 -0.49383783006840065
7555000 -0.8627448307370228 -0.4749689954992177
7602500 -0.8727972009317781 -0.45589366524908687
7650000 -0.8824881135440217 -0.4366740885674999
7697500 -0.8918541273711428 -0.4171873523169691
7745000 -0.9006371776600367 -0.3974970570892729
7792500 -0.9089406964314819 -0.3776850733145239
7840000 -0.9168269578807847 -0.3578906792031121
7887500 -0.9243504905350647 -0.33789427522464927
7935000 -0.9313300490868164 -0.31774937810850246
7982500 -0.9378311618621598 -0.29749227188452737
8030000 -0.9438048998576105 -0.277255491861099
8077500 -0.9494365082597376 -0.256954652345074
8125000 -0.9546609729879764 -0.23650539567777812
8172500 -0.9590760683697092 -0.21603787197735252
8220000 -0.9632242925554579 -0.19572101332975175
8267500 -0.9668934087837241 -0.17545959656620258
8315000 -0.970266377291508 -0.15529448442431665
8362500 -0.9731959206085832 -0.1352247264107732
8410000 -0.9757503687118138 -0.11514083524724657
8457500 -0.9781205743096515 -0.0950655902878071
8505000 -0.9800685757045327 -0.07490078189397127
8552500 -0.981564012854433 -0.05485488617375138
8600000 -0.9825849247395014 -0.03465148958691502
8647500 -0.9831773584550697 -0.014695029239122153
8695000 -0.9833467008119487 0.00519822329734981
8742500 -0.9831493400014866 0.025091010549467132
8790000 -0.9824557626740522 0.044803000249833885
8837500 -0.9813849594570447 0.06443505905180603
8885000 -0.9799367158465072 0.08387519871830522
8932500 -0.9781627131344149 0.10312591063089722
8980000 -0.9759725297891706 0.12226381820538365
9027500 -0.9733336605658037 0.14127191083694032
9075000 -0.9704517491665379 0.16004891196820623
9122500 -0.9672200517634979 0.17856934428336613
9170000 -0.9637810046643592 0.1971050160084715
9217500 -0.9597854555650064 0.21534905039507624
9265000 -0.9556224936849469 0.23337314817986302
9312500 -0.9509883487256526 0.25116211586550174
9360000 -0.9463096496617974 0.26866891135742366
9407500 -0.9411737277432799 0.2861951988597879
9455000 -0.9358869989224181 0.30349081367831987
9502500 -0.930134739041752 0.320306495215473
9550000 -0.9242186369850892 0.33698932863884434
9597500 -0.9180811705879389 0.35352716778123044
9645000 -0.9116361307233467 0.36978316534395506
9692500 -0.90497313147154 0.3858417938906844
9740000 -0.8980499459923041 0.40155434223298275
9787500 -0.8910564102652722 0.4169979782229722
9835000 -0.8838579671770718 0.4324574531809404
9882500 -0.8761198840123229 0.447412202165481
9930000 -0.868472831688251 0.4621412707331541
9977500 -0.8606938954291827 0.4766711781795492
10025000 -0.8526069868077051 0.49094870043560657
10072500 -0.8442829752713499 0.5051258850071876
10120000 -0.835813621106944 0.5188260015328124
10167500 -0.8273489699587191 0.53226728767524
10215000 -0.8186567787694702 0.5455684161410913
10262500 -0.8098960186064383 0.5584909456077448
10310000 -0.800856822224603 0.5711950010028225
10357500 -0.7918322391381333 0.5838128692985912
10405000 -0.7827503279100628 0.5959850047928406
10452500 -0.7734180377034974 0.6080931856526284
10500000 -0.7639210940892287 0.6198578031850366
10547500 -0.754387068495318 0.6313032287074489
10595000 -0.7448866825360696 0.6424555293799659
10642500 -0.7352403025796654 0.6534681247634947
10690000 -0.7254944943999578 0.6643200244864834
10737500 -0.715571113448716 0.674947709895522
10785000 -0.7058349274144744 0.6851323869405479
10832500 -0.6959875663790848 0.6952222410626994
10880000 -0.6858918760555541 0.7050373433285186
10927500 -0.6757365265139532 0.7147066918128492
10975000 -0.6655887716298983 0.7239114210224341
11022500 -0.6556086785866813 0.7330977843317993
11070000 -0.6453854093927618 0.7419617259653228
11117500 -0.6353099222539864 0.7508705255524024
11165000 -0.6250166383434015 0.7593243874929891
11212500 -0.6146518537609275 0.7674966754510133
11260000 -0.6046573389587269 0.7754579580543789
11307500 -0.5944165155408174 0.7835380864496871
11355000 -0.5839241253454964 0.7911064048160168
11402500 -0.5735058856211782 0.7985584478221263
11450000 -0.5634076673781437 0.8056787281882202
11497500 -0.5531381536111117 0.8126861281118468
11545000 -0.5427712031702793 0.8195427790897949
11592500 -0.5326366662323078 0.8260779456360885
11640000 -0.5224368271536559 0.8326339883597762
11687500 -0.512294114211512 0.838962385733323
11735000 -0.5019400628013062 0.8450765825285301
11782500 -0.4918109307489054 0.8510153907893984
11830000 -0.48162534654543704 0.8566575256369946
11877500 -0.4715426507519707 0.8622613788673537
11925000 -0.46140388856805326 0.8677490284140456
11972500 -0.45128556485434235 0.8729889395166048
12020000 -0.4412750605969254 0.8780401979063154
12067500 -0.43131322978124753 0.8829462171269803
12115000 -0.4214201675407965 0.887678536925191
12162500 -0.41150091569301683 0.8923524592159677
12210000 -0.40141440089147296 0.8967989115694383
12257500 -0.39158337383375125 0.9010637933131367
12305000 -0.3818093049077647 0.9050680118125021
12352500 -0.3720616065826683 0.9093171951189674
12400000 -0.3623112819990692 0.9132057789581755
12447500 -0.35262981589207626 0.9168591416491233
12495000 -0.34299149778115734 0.9203121239246811
12542500 -0.33349663076149655 0.9239310565722795
12590000 -0.32401125693249877 0.9271874411822277
12637500 -0.3145491550187208 0.9305581056933026
12685000 -0.3050202335823284 0.9334786263881588
12732500 -0.29565723197602156 0.9364154934783746
12780000 -0.2864988406085656 0.9391641032642284
12827500 -0.2772881971963235 0.942124812593243
12875000 -0.2680081777330258 0.94471114750739
12922500 -0.25875184080293534 0.9471059295668388
12970000 -0.24989329672596475 0.9495258664915457
13017500 -0.24093376024163343 0.9520755609876113
13065000 -0.23182493780610766 0.9542436876232157
13112500 -0.22281110465061868 0.9561292141675924
13160000 -0.21404567573892042 0.9580711189049357
13207500 -0.2053374775308056 0.9600240807943992
13255000 -0.19673363277744615 0.9617656411546326
13302500 -0.18797752346790242 0.9635008641882333
13350000 -0.17940706432777728 0.9652076177996838
13397500 -0.17100611148977168 0.9667027238009555
13445000 -0.1623429671625302 0.9681996435995411
13492500 -0.15388913498484544 0.96960545048884
13540000 -0.14566330644948786 0.9708297517305238
13587500 -0.13733076876060102 0.9719579680075151
13635000 -0.1291393483493517 0.9730516703083112
13682500 -0.12098168961811426 0.9740447562337472
13730000 -0.11302397507475896 0.9749861956668155
13777500 -0.1049108539518342 0.9758649651230599
13825000 -0.0969283219511387 0.9767293291026817
13872500 -0.08898146130616787 0.9774937686116149
13920000 -0.08105378836460837 0.9782598357842873
13967500 -0.07335762923824488 0.9788281930399437
14015000 -0.065605278046993 0.9791849894356647
14062500 -0.05798465457671492 0.9796615225144713
14110000 -0.05048027305035532 0.9800518907524645
14157500 -0.04280536026110361 0.9804947567189293
14205000 -0.03537724146144137 0.9808722138581413
14252500 -0.02803469868374008 0.9811541424155833
14300000 -0.02052834441035715 0.9812742108772493
14347500 -0.013163678364815232 0.9813294470295238
14395000 -0.00606472057254052 0.9815701576764427
14442500 0.0010781561403077095 0.981486461690929
14490000 0.008329769546926297 0.981533843413736
14537500 0.01534576011018448 0.9813996447828474
14585000 0.022402774050444194 0.9813850510201494
14632500 0.029169601111546622 0.9811442253516212
14680000 0.03604680680788381 0.9810121340077347
14727500 0.0430095114076179 0.9808028800817679
14775000 0.049775539171457224 0.9804613845487188
14822500 0.05652050548580562 0.9800647789358852
14870000 0.06320019200168571 0.9795897926939047
14917500 0.06977071428806685 0.9791066978808801
14965000 0.07639807646073127 0.9788254610100091
15012500 0.08290674308124009 0.9781545875403751
15060000 0.0891603530291244 0.9776782292624392
15107500 0.09561742240480754 0.9770824592408328
15155000 0.1019926689565246 0.9765077781727146
15202500 0.10835008407100842 0.9758010634887402
15250000 0.11441438702599503 0.9750822314262896
15297500 0.12059194593564855 0.9742876540271908
15345000 0.12676496677329796 0.9736453576075136
15392500 0.13290442789031712 0.9726621277008208
15440000 0.1389602612873212 0.9719914598972285
15487500 0.14481545026491954 0.9710520320577777
15535000 0.1506512543193311 0.9702135007662557
15582500 0.1566083696648357 0.9693194980115345
15630000 0.16246883078734797 0.9683769595130808
15677500 0.168169359003141 0.9673454007634906
15725000 0.17392347014747497 0.96631953897951
15772500 0.17952189241997224 0.9655087833056064
15820000 0.1851247928977961 0.9644095262026118
15867500 0.19070677060187266 0.963219708925582
15915000 0.1961266144947279 0.9621193999821274
15962500 0.2016015498897039 0.9612675849110879
16010000 0.20719379398902937 0.9601493193949492
16057500 0.21254006114751037 0.9588605003508717
16105000 0.21781182834159607 0.957690133597939
16152500 0.22295357496008317 0.9565693054011196
16200000 0.22824176747057567 0.9554389980085082
16247500 0.2335767250535252 0.9541723660884496
16295000 0.23878655821499092 0.9528841641206289
16342500 0.2437032599008374 0.9515769050228656
16390000 0.24865767699338034 0.9505251953364898
16437500 0.2539671448725275 0.9492767405332788
16485000 0.2589954085283666 0.9478589868794323
16532500 0.26374175115536647 0.9465396732497273
16580000 0.26860014521394565 0.945173583186333
16627500 0.2735416386209552 0.9438453249712854
16675000 0.27853142895438043 0.942574870512116
16722500 0.28314412149068713 0.9409380697324399
16770000 0.2877706639130562 0.9395518496715596
16817500 0.2923391981943789 0.9381585372060778
16865000 0.2971643894901247 0.9368314919079228
16912500 0.30187454874029823 0.9353887916291326
16960000 0.30639513635092375 0.9338283310284774
17007500 0.31074756520940716 0.9325135434524541
17055000 0.3153341716079948 0.9310951529275937
17102500 0.31995451008615206 0.9295706303814523
17150000 0.32424837130575973 0.9279960547241173
17197500 0.328540787182911 0.9264189856669393
17245000 0.33277642495286247 0.9250438053511156
17292500 0.3372052251634164 0.9237392816596615
17340000 0.34155205705457636 0.9219690874856231
17387500 0.34568960850460717 0.9204055006606312
17435000 0.34995830606795053 0.9188723396701375
17482500 0.3540259633185268 0.9173990160341627
17530000 0.3583418792602324 0.9159572398734819
17577500 0.36237692563301493 0.9141989615739438
17625000 0.36624915772295735 0.9125616029779395
17672500 0.3702527803319659 0.911015802287523
17720000 0.3742825978959577 0.9095813747793162
17767500 0.378411719869749 0.9079690613854338
17815000 0.3823638910310445 0.9062599982328624
17862500 0.38614275367657264 0.9046216901838096
17910000 0.3899533153042108 0.9031590495853388
17957500 0.3939185780703439 0.9016150223140896
18005000 0.3978184784353972 0.8998733397344502
18052500 0.40135905887240186 0.8981817824239879
18100000 0.40501684419694006 0.8966436160106006
18147500 0.4086822752123835 0.8950770419919603
18195000 0.41252855971961394 0.8935356139963927
18242500 0.4161883479857722 0.8917738029539498
18290000 0.4198623312490457 0.8900513856122783
18337500 0.42330906255839146 0.8886692237024154
18385000 0.4268833277020295 0.8870242142841138
18432500 0.4305778167556223 0.8852780144804652
18480000 0.4340053110199149 0.8834608860619468
18527500 0.4373328783114245 0.8819057234989892
18575000 0.4408696561532399 0.8803325220705636
18622500 0.44426480803319074 0.8789047210986777
18670000 0.4478040103575466 0.8770792731613576
18717500 0.45108744327622846 0.8753586636566169
18765000 0.45432739222119495 0.8737595751537478
18812500 0.45767431908440454 0.872118097131102
18860000 0.461104010995922 0.8705901731961543
18907500 0.4643136125672779 0.8687095270253311
18955000 0.4673974592591343 0.8670268537296426
19002500 0.47054260031481027 0.8654976532692106
19050000 0.47399573707561876 0.8639650299267017
19097500 0.4771804746598419 0.8620058763720707
19145000 0.48027262615967725 0.8603741312622422
19192500 0.48329930289814776 0.8586356222990978
19240000 0.48631519977366616 0.8571141410856701
19287500 0.4895475933660302 0.855410133672695
19335000 0.4925706184504356 0.8535240025736026
19382500 0.49554369144878524 0.8518193986547693
19430000 0.4984580957052636 0.8503758541780636
19477500 0.5013940516852888 0.8488472534143735
19525000 0.5046567622372087 0.846991468432232
19572500 0.5076062082106535 0.8450415290506752
19620000 0.5102049892015197 0.8433934116642668
19667500 0.5130966359429519 0.841841705092773
19715000 0.5160183228217413 0.8401453051866881
19762500 0.5188384362796999 0.8384861804036701
19810000 0.5215209557823343 0.8364804914728627
19857500 0.5242792035015782 0.8349280668551389
19905000 0.5270592246619799 0.833446035229399
19952500 0.5299695545445313 0.8317780726825992
20000000 0.5327610338786593 0.8298548419332489
