# HZ S RI R 50
1000000 0.9636783934667708 -0.2644069934842386
1047500 0.9603530727925468 -0.2769891207715569
1095000 0.9564529035173843 -0.28919691232099215
1142500 0.9525638373834766 -0.30145929574695013
1190000 0.9487022999771842 -0.3138941914455053
1237500 0.9444043877508695 -0.3262524045162276
1285000 0.9401356210978393 -0.3386271338592766
1332500 0.9354527059059515 -0.35084482405203665
1380000 0.9306193024461237 -0.3631283164430635
1427500 0.925828880746018 -0.3752630790655781
1475000 0.9207038170849062 -0.3875607313269232
1522500 0.9155551559304753 -0.3997935118847259
1570000 0.9100396779111581 -0.41181409124165974
1617500 0.9044569402297639 -0.42401302528246715
1665000 0.8986571902919149 -0.4359754141029513
1712500 0.8927119432009688 -0.4481317460898123
1760000 0.8864555544491239 -0.4600804785468806
1807500 0.8800939828960878 -0.4720060319855841
1855000 0.8734953470005798 -0.4839040695872937
1902500 0.8667919369524679 -0.4957531553710037
1950000 0.8599784779841371 -0.5075812298385555
1997500 0.8527574203847681 -0.5193296757624253
2045000 0.8455586122520036 -0.5311098680669746
2092500 0.8380921873807451 -0.5426901631506752
2140000 0.8304098214579718 -0.5543477021405949
2187500 0.822510447755916 -0.5659926456277333
2235000 0.8142611235355631 -0.5771916914032227
2282500 0.8059776384598375 -0.5886302017921856
2330000 0.7976124505392609 -0.6000213337312827
2377500 0.7889720491851991 -0.6113185707175265
2425000 0.7800767432265346 -0.6225169314176893
2472500 0.7710091940078936 -0.6336567497341388
2520000 0.7617755932753758 -0.6446630632580428
2567500 0.7522794698173204 -0.6556593607268502
2615000 0.7425066620404518 -0.6666042349661393
2662500 0.7326249618210275 -0.6773307840108187
2710000 0.7225400231296958 -0.6880583255455203
2757500 0.712087335735534 -0.6986147461939884
2805000 0.7017739907951134 -0.7090715800961939
2852500 0.6908519114501778 -0.7195058624906617
2900000 0.6799663229108736 -0.729830395016782
2947500 0.6688806276291063 -0.7399711860594693
2995000 0.6574833012578947 -0.750086502120042
3042500 0.645795722068976 -0.7601253802053723
3090000 0.6339957823310622 -0.7698848095749179
3137500 0.6217843803979763 -0.7794809120661423
3185000 0.6095219146773252 -0.7889462059658158
3232500 0.5972025406014089 -0.7984627959729582
3280000 0.5844250163570238 -0.8076810301891152
3327500 0.571488827938357 -0.8168637662744039
3375000 0.5583693596320134 -0.8257556688772141
3422500 0.5450227543851818 -0.8345398793865522
3470000 0.5314664949656412 -0.843167923384461
3517500 0.5176814090431389 -0.8516212629478883
3565000 0.5035750713730475 -0.8599099395413972
3612500 0.48922966356381853 -0.8678782565428551
3660000 0.4750499017286019 -0.8758098313193143
3707500 0.46028787011132205 -0.8835019959507557
3755000 0.445455221549693 -0.8910682297145428
3802500 0.4304166463943185 -0.8980749083850416
3850000 0.4151283832205397 -0.9052123026359953
3897500 0.399676235109719 -0.9121306493597849
3945000 0.3837562914452494 -0.9188280526245377
3992500 0.3678459570312003 -0.9252620344674759
4040000 0.3517890668352442 -0.9310839988834981
4087500 0.33559084661441196 -0.9369155741698277
4135000 0.3191333090573415 -0.9425764810276601
4182500 0.30229818131821173 -0.9481216743527257
4230000 0.2854130380969457 -0.9530041880338306
4277500 0.2683834245901409 -0.9577994096607654
4325000 0.2512153095828575 -0.9623802346031823
4372500 0.23385393877819502 -0.9668473724256527
4420000 0.21597839310803038 -0.970606914033097
4467500 0.19819542357672182 -0.9743173591388887
4515000 0.18035485731172018 -0.9774293041254334
4562500 0.16224673082863125 -0.9804685778168878
4610000 0.1440448482702032 -0.9834535319564661
4657500 0.1256754440128032 -0.985679961416257
4705000 0.10702702835842572 -0.9875229951151825
4752500 0.08860179005060562 -0.9892484336436791
4800000 0.06972046892634381 -0.9908126399051801
4847500 0.050607211249281456 -0.9917635343434341
4895000 0.031491644612654184 -0.9922785252790414
4942500 0.012571339021630086 -0.992439105620096
4990000 -0.006535977961051878 -0.9923176110937331
5037500 -0.026044031467854115 -0.9920262381412669
5085000 -0.045326927959986996 -0.9911517321047791
5132500 -0.06494149092700699 -0.9896923565842662
5180000 -0.08439249808741263 -0.9881541733050782
5227500 -0.10410448115316444 -0.9861839226134672
5275000 -0.12372523987185945 -0.9838379912853744
5322500 -0.14365793459532294 -0.9807907823491325
5370000 -0.1632446037241147 -0.9774937788259633
5417500 -0.1827224824398822 -0.9736820692747367
5465000 -0.20255167558905748 -0.9697998218450881
5512500 -0.22232737971519015 -0.9652709989274658
5560000 -0.24213515353156537 -0.9601498504283362
5607500 -0.2616783511079595 -0.9547531585705448
5655000 -0.2812310218670143 -0.9491522800276836
5702500 -0.30102657137935085 -0.9430633550277444
5750000 -0.32068782540797464 -0.9361937854172099
5797500 -0.3400893564485202 -0.9290733768713464
5845000 -0.35924178446946564 -0.9215869241081219
5892500 -0.378687674924654 -0.9137246417141613
5940000 -0.3978299227341987 -0.9052118856775629
5987500 -0.41693050876863286 -0.8964430931540497
6035000 -0.4358562302273957 -0.8870300810457453
6082500 -0.4546421008287705 -0.8775650275522016
6130000 -0.4732621577203374 -0.8674878820755788
6177500 -0.4918435999631426 -0.8568724083300279
6225000 -0.5100627319262189 -0.8457676812041462
6272500 -0.5279185963856099 -0.8344104030928717
6320000 -0.5458526182336043 -0.8227852791698521
6367500 -0.5634023340124085 -0.8106852449920365
6415000 -0.5809048519122065 -0.798025382119684
6462500 -0.5979898243752129 -0.7849783482420594
6510000 -0.6148248069286169 -0.7716122553745408
6557500 -0.6314731390387843 -0.7578305709533988
6605000 -0.6479979549734707 -0.7437253616653485
6652500 -0.6639533374235012 -0.7291819828038615
6700000 -0.6795319356277695 -0.7143259173357654
6747500 -0.6949370117080449 -0.6993331450145568
6795000 -0.7101033142456518 -0.6836896854522317
6842500 -0.7249274991034721 -0.66772933264293
6890000 -0.7392436142460866 -0.6514751375034047
6937500 -0.7532119806215983 -0.6349894695296779
6985000 -0.7668803290597196 -0.618297279471349
7032500 -0.7803778568903982 -0.6011714018035431
7080000 -0.7933315957923932 -0.5837073555086931
7127500 -0.8057672825305814 -0.565918807021657
7175000 -0.8177906906726228 -0.5481932861449039
7222500 -0.8294687000952081 -0.5301841201556433
7270000 -0.8410024387238558 -0.5117785481930945
7317500 -0.8518515916068928 -0.49311323910773913
7365000 -0.8622134080715893 -0.4742787569804869
7412500 -0.8721572375229696 -0.45546038572081127
7460000 -0.8819985639993503 -0.4362121432420723
7507500 -0.891233624942173 -0.41687729429193554
7555000 -0.8998861706372753 -0.3973296954849663
7602500 -0.9081642705729989 -0.37781513596897176
7650000 -0.9160049316378278 -0.35818080630695887
7697500 -0.9236564368072291 -0.3382637559317947
7745000 -0.9305848358389108 -0.3182522947554996
7792500 -0.9370272177480743 -0.29818519176081243
7840000 -0.9430693320050274 -0.27834373229125964
7887500 -0.9487526315876981 -0.25819463670177395
7935000 -0.9541808387823494 -0.23794681741592993
7982500 -0.9588329987470017 -0.21757128271434809
8030000 -0.9631111618087924 -0.19739327994764683
8077500 -0.9668826192359203 -0.1773166059807288
8125000 -0.9705124238478305 -0.15716859457716745
8172500 -0.9734861417807565 -0.13671056040726798
8220000 -0.9761253484526221 -0.1166124050455134
8267500 -0.9782474978752561 -0.09660376284152557
8315000 -0.9800660802928509 -0.0766293711079748
8362500 -0.9814808167381529 -0.05655212490654089
8410000 -0.9824055449509419 -0.03643713329602137
8457500 -0.9826975095789603 -0.01663475333347644
8505000 -0.9828360321071565 0.002922787141381159
8552500 -0.9827166758541244 0.022453858073820658
8600000 -0.9822773638332852 0.042160011521867435
8647500 -0.9810854575974227 0.06169843343212546
8695000 -0.9795308784440103 0.08071290188265104
8742500 -0.977881462624099 0.09965041994502506
8790000 -0.9758801988904529 0.11862135164812347
8837500 -0.9733530980482705 0.13761999968515393
8885000 -0.9703781593878404 0.15615354869721812
8932500 -0.9672386141620086 0.17440178216654756
8980000 -0.9639850056063413 0.1926137721047877
9027500 -0.9602435854997942 0.2107915573890597
9075000 -0.9560557310155984 0.22880093585689593
9122500 -0.9515573118482449 0.24639672664941872
9170000 -0.9470036421912839 0.26361986613258226
9217500 -0.9420837815564639 0.28088457168273345
9265000 -0.9369347698505862 0.2980666550311543
9312500 -0.9312129900198916 0.31488228524861894
9360000 -0.9253466506984961 0.3311625162246334
9407500 -0.9195418757284687 0.34748374571941776
9455000 -0.9132755042972036 0.3637479714574389
9502500 -0.9068303239294001 0.3798569387775673
9550000 -0.9000103184330377 0.39534655006695474
9597500 -0.8931322825430522 0.41058719979290376
9645000 -0.8862631978597844 0.4257456396865104
9692500 -0.8788670112776215 0.4408933914706849
9740000 -0.8711331647958758 0.4555423616693132
9787500 -0.8634818418594847 0.4697882946779105
9835000 -0.8558033425692636 0.4838640367352201
9882500 -0.8477632763675795 0.4980297328864921
9930000 -0.8395113398120186 0.5118300508166285
9977500 -0.8310852784908082 0.5251845961585994
10025000 -0.8226679503832157 0.5381378333036078
10072500 -0.8141235683997506 0.5511627868786051
10120000 -0.8052170594280113 0.5641114491789894
10167500 -0.7962579506200369 0.5765923955305058
10215000 -0.7871970305297902 0.5885272805972614
10262500 -0.7784509975723861 0.6004338818213729
10310000 -0.7693067760890286 0.6123029002894711
10357500 -0.7597114379298064 0.6239373803215975
10405000 -0.7503791057796407 0.634959038728391
10452500 -0.7409916314184902 0.6458928554949313
10500000 -0.7314935782273969 0.6566791197037604
10547500 -0.7217681737805912 0.6674633494055091
10595000 -0.7119468260866185 0.6776863775617635
10642500 -0.7022584372532342 0.6875743435004386
10690000 -0.6926951367003298 0.6972162477526175
10737500 -0.6827392346878821 0.7071176263126742
10785000 -0.67287956638241 0.7166678441601496
10832500 -0.662774806531344 0.7257100244655433
10880000 -0.6529132779978544 0.7344478539050658
10927500 -0.6430106391374294 0.7434059073431788
10975000 -0.632881832381586 0.7518588621206723
11022500 -0.6227588575262383 0.7602956217432723
11070000 -0.6125679448133087 0.7681618007970088
11117500 -0.6027653690902782 0.7760469668799505
11165000 -0.5927328678495113 0.783754966634883
11212500 -0.5824370554784132 0.7915845479645468
11260000 -0.5722520391197166 0.7986836013628218
11307500 -0.5621758447943513 0.8057987521361623
11355000 -0.552153326473781 0.812583869099197
11402500 -0.5420124903378865 0.8195170377109114
11450000 -0.5318356825103944 0.8261437999202418
11497500 -0.5217281990528263 0.8321906804834962
11545000 -0.5118239595909365 0.8382973661520706
11592500 -0.501998094942259 0.8442538936774795
11640000 -0.49178940840183916 0.8504622817613944
11687500 -0.4816776257008463 0.8560988551795786
11735000 -0.4716757748844963 0.8613833184482862
11782500 -0.4619661221822207 0.8666314006885754
11830000 -0.4520247438637219 0.871988775331017
11877500 -0.44201599167482275 0.8770833129863317
11925000 -0.4322408665453569 0.8817611581064414
11972500 -0.4224313521945188 0.886282714636309
12020000 -0.41293075874530527 0.8909158638728202
12067500 -0.4031156830508359 0.8955495675145992
12115000 -0.39329749062047525 0.8998051222530792
12162500 -0.3836539053325053 0.9037204967976852
12210000 -0.3740139027747629 0.9076131534559563
12257500 -0.3646119582467282 0.9116712533298114
12305000 -0.35500384619337116 0.9154662340876215
12352500 -0.3454804595321662 0.9191035480561444
12400000 -0.3360778222104816 0.9223563174977808
12447500 -0.3268978359258064 0.9255922942844217
12495000 -0.3176053916838898 0.928935295109611
12542500 -0.3081974365111271 0.9321858829338868
12590000 -0.29887438059087107 0.9349303182637183
12637500 -0.28979997168905414 0.9377831288939997
12685000 -0.28074699381580226 0.9404109659103992
12732500 -0.2716550006673101 0.9431787305442164
12780000 -0.2625962701878589 0.9454982957246741
12827500 -0.2537546974868098 0.9479683771375692
12875000 -0.24495101585413087 0.9501403362063122
12922500 -0.23611293530455335 0.9524029866225218
12970000 -0.2273499264120938 0.9546213488908692
13017500 -0.21852100167372382 0.9567253236958558
13065000 -0.20979182182775896 0.9584770091296972
13112500 -0.20135238911522457 0.9601776194150726
13160000 -0.1928196749962594 0.96209482721002
13207500 -0.18416430337500322 0.963857920830982
13255000 -0.1758292910556064 0.9651270177758722
13302500 -0.1676758478846907 0.9664622436509743
13350000 -0.159505044036857 0.9681293713959337
13397500 -0.15116327006008906 0.9696308153975801
13445000 -0.1426794696695595 0.970761077099702
13492500 -0.1346506245641248 0.9718163507500147
13540000 -0.1267460400234825 0.9728371179608196
13587500 -0.11885121234083228 0.9738941874790463
13635000 -0.1106620743059536 0.9749703932653231
13682500 -0.10268966208323146 0.9756243337544636
13730000 -0.09515093299880373 0.9761165106073437
13777500 -0.08759092520111306 0.9770781841933053
13825000 -0.07964682520624534 0.9779903383722399
13872500 -0.07186365002692682 0.9784934190226557
13920000 -0.06423780837189808 0.9788871682149629
13967500 -0.05694277931616845 0.9792548640791416
14015000 -0.04950574767172139 0.9798289408530856
14062500 -0.041967558241692446 0.9802294048380239
14110000 -0.034483421977180864 0.9803288702059215
14157500 -0.027363192325747816 0.9804438306697137
14205000 -0.020286158755434328 0.9806478524707627
14252500 -0.013128822332368933 0.9810664488522142
14300000 -0.005866284557907732 0.9810452953450005
14347500 0.001332740962596306 0.9809692616197697
14395000 0.008143525199460397 0.9809010938468571
14442500 0.0149419439344747 0.9808437801304599
14490000 0.02203124434024948 0.9809138793950904
14537500 0.028860060553625184 0.9805936174140406
14585000 0.035672149419927385 0.9803925712208362
14632500 0.042054216856506905 0.9800702231314702
14680000 0.048644699379897814 0.9800441207967189
14727500 0.055546817236259365 0.9798238066032176
14775000 0.06217293923581304 0.9792760828306512
14822500 0.0685609974211316 0.9786894502626245
14870000 0.0748958077771322 0.9782126345927213
14917500 0.08142730112242696 0.9779957150258521
14965000 0.08791518939114883 0.9775084343152324
15012500 0.09410440529200474 0.9767867168578731
15060000 0.10010209815370191 0.9761055918054652
15107500 0.10628461455261795 0.9756229031441324
15155000 0.11256063574147913 0.9751495512935667
15202500 0.11878168793617222 0.9742109311412347
15250000 0.12472178026857111 0.9734963401338987
15297500 0.1305070271310986 0.9726345813619923
15345000 0.1365069995872131 0.9719605685516395
15392500 0.1426029984671721 0.971177945669248
15440000 0.14854938661934905 0.9702034222629511
15487500 0.15401331925025147 0.9690926354812862
15535000 0.15961198857814748 0.9684036447014124
15582500 0.16539914474859052 0.9675496477556857
15630000 0.1712117725609433 0.9665657499364005
15677500 0.17666994777246012 0.9653810596177208
15725000 0.18223096085062496 0.9644011518963892
15772500 0.1875470800784109 0.9635301696542896
15820000 0.19312706111235564 0.9625474225954501
15867500 0.19852071953469252 0.9612033681448863
15915000 0.20386062802501229 0.9600339996178311
15962500 0.20896236974790236 0.9592327603594142
16010000 0.21449009323076423 0.9581215612285837
16057500 0.2197966890039548 0.9568720558676833
16105000 0.22498611199991528 0.9556165525992668
16152500 0.22988913605203246 0.9544388371677057
16200000 0.23502904929154714 0.953442210718327
16247500 0.24025617625379245 0.9521456882300977
16295000 0.24535991075617375 0.9507869079716745
16342500 0.250099440482439 0.9494947529966118
16390000 0.25472546520988 0.9483653589816678
16437500 0.2599401204760962 0.9472638498362883
16485000 0.2648882017967124 0.9458882061286518
16532500 0.2695392071972532 0.9445720594315512
16580000 0.27417668829429537 0.943148758302922
16627500 0.2789191951401676 0.9418737718533751
16675000 0.2838463110649993 0.9405830393103057
16722500 0.2883986495934141 0.9390454393013806
16770000 0.2928550366152365 0.9377071000811165
16817500 0.29712715688023084 0.9361792871084711
16865000 0.3017404239637849 0.9349856814785193
16912500 0.30656447912944323 0.9335715852455843
16960000 0.31097737884076937 0.9319745217798339
17007500 0.31526252716476755 0.9307126578029576
17055000 0.3196496633377777 0.9292425203943644
17102500 0.32418957027616163 0.9278160940710752
17150000 0.32842566125092637 0.9262239393694427
17197500 0.3325940884767651 0.9246263832727045
17245000 0.336609072411229 0.9232650701379311
17292500 0.34095316298044426 0.9219642657018718
17340000 0.3452642964801752 0.9203212953620576
17387500 0.34935078758452504 0.9186989291309272
17435000 0.3534721894020248 0.9171318721136185
17482500 0.3574009034551545 0.9156208390624129
17530000 0.36166322800273354 0.9142187468212443
17577500 0.3654994074574837 0.9127000771749311
17625000 0.36933170882699307 0.9108945480346562
17672500 0.3731537146371738 0.9093952830077785
17720000 0.3771493588328274 0.908088678166206
17767500 0.3812196426607252 0.9064961683890908
17815000 0.3850547317180019 0.904756560597205
17862500 0.3887442668813185 0.9030657408958446
17910000 0.39246082233570034 0.9016973584597563
17957500 0.396367444900061 0.9002482478562494
18005000 0.40013675582205815 0.8985292813575277
18052500 0.40367258895008595 0.8968133077290622
18100000 0.4071297714083107 0.8952225213194829
18147500 0.4107562407011592 0.8937117938399198
18195000 0.4145316861753212 0.8921815687025274
18242500 0.4181055247154366 0.8904876923381523
18290000 0.42166227987859356 0.888829087521844
18337500 0.42506716594682975 0.8872217934769243
18385000 0.42868262369562 0.8857282645313217
18432500 0.43225408306443036 0.8841431046737601
18480000 0.43562093501951765 0.8822522896503736
18527500 0.43876953889747616 0.8807155340063241
18575000 0.44229863274252346 0.87904006128781
18622500 0.445646476813828 0.8777562753736179
18670000 0.44901287637165155 0.8759389880260152
18717500 0.45236997654905353 0.8742673776915539
18765000 0.45541147996440867 0.8727388353936004
18812500 0.4587788819699476 0.8710915720853035
18860000 0.46217116967617233 0.8696299524380874
18907500 0.46523584237208426 0.8677954823166193
18955000 0.4682816648299721 0.8660142832155993
19002500 0.4713308965838839 0.8645687768797432
19050000 0.4746795746548984 0.8630397744043621
19097500 0.4778435747408337 0.8612990064207433
19145000 0.48102380922757176 0.859529144624149
19192500 0.483861839875029 0.8577995863066679
19240000 0.486840830874817 0.8563610165183695
19287500 0.49007569815844493 0.8547687394454256
19335000 0.4930313693737142 0.8530229895547392
19382500 0.49582438626708036 0.8512913344102199
19430000 0.49874408856547303 0.8497427793657713
19477500 0.5016695596805717 0.8482438860914333
19525000 0.5047805375880154 0.8465292417994418
19572500 0.5076751542997692 0.8446112090251473
19620000 0.5102725124607613 0.8430072659732579
19667500 0.513041100951893 0.8414312719106852
19715000 0.5160980214869557 0.8397641168424923
19762500 0.5188511724501634 0.8379599131814056
19810000 0.5215681187778083 0.8361771076284029
19857500 0.5241154950581218 0.8346700093902043
19905000 0.5269421125733105 0.8331110950680178
19952500 0.5296544503799457 0.8314352776475771
20000000 0.532437862917823 0.8297341972690514
