# HZ S RI R 50
1000000 0.981747521663206 -0.18654778764204005
1047500 0.9800038061486636 -0.19533457637732515
1095000 0.9782186655999897 -0.20425916775765843
1142500 0.9761673914651054 -0.21309465547993894
1190000 0.9743849268544942 -0.22199028522441655
1237500 0.972218692250567 -0.23091065295361696
1285000 0.9699888176362619 -0.23979540118619844
1332500 0.9678009709597849 -0.24856931688003248
1380000 0.9653994533248813 -0.2574292291484242
1427500 0.9630180789349286 -0.2663377168823865
1475000 0.960538318101114 -0.27525161847898094
1522500 0.9579870602400267 -0.28416283896122624
1570000 0.9551133547837751 -0.2929927401498492
1617500 0.9523635922631251 -0.3018549412386967
1665000 0.949433882361334 -0.31071725777269626
1712500 0.9465390563006449 -0.31958956357842494
1760000 0.943316521125398 -0.3285230930358317
1807500 0.940240869567764 -0.3374044245246823
1855000 0.9369539205630942 -0.34622601606969106
1902500 0.9335941684533717 -0.3550114897090988
1950000 0.9301969446744341 -0.36398899890973174
1997500 0.9266080329328928 -0.37290084049860395
2045000 0.9228971597878517 -0.3817140686343369
2092500 0.9192331685099029 -0.39051182746643426
2140000 0.9154730483746768 -0.39941807801981816
2187500 0.9114992832429683 -0.40832073802028374
2235000 0.9073178922867179 -0.4171120082897832
2282500 0.9031037248154212 -0.42587785754290663
2330000 0.8989412207190367 -0.43473779165602433
2377500 0.8946389486175357 -0.44364436923556017
2425000 0.8901786286239802 -0.452563652623654
2472500 0.8854443784976681 -0.46139809815328203
2520000 0.8807438894541085 -0.47007159159517653
2567500 0.8761110977797755 -0.47880857229888985
2615000 0.8711957867932802 -0.487772866220457
2662500 0.8661107537149411 -0.4965884296850838
2710000 0.8608642870235543 -0.5053021629720296
2757500 0.8555919952842925 -0.5139987844773649
2805000 0.850383397333959 -0.5228157212271991
2852500 0.8448508612355906 -0.5316586215324728
2900000 0.8392851133952457 -0.5404263967642794
2947500 0.8334774342029774 -0.5489459996344103
2995000 0.8277356508489485 -0.5577365088924778
3042500 0.8216118795745138 -0.5663984803482871
3090000 0.8156000973487791 -0.5751857500474425
3137500 0.8091694884775343 -0.5838331087702092
3185000 0.8029068574731899 -0.5923949832429125
3232500 0.7965276576778535 -0.6010111286596416
3280000 0.7898612347385598 -0.609657386782344
3327500 0.7830984794568986 -0.6183569316104293
3375000 0.7761435865792411 -0.6268813627429535
3422500 0.7690612934617261 -0.635324380699424
3470000 0.7620318422315955 -0.6437506379108687
3517500 0.7548419260151169 -0.6523369151760225
3565000 0.747252880638363 -0.6608244832248418
3612500 0.7395440210871607 -0.6691808521456141
3660000 0.7320667760386581 -0.6774684304384572
3707500 0.7241764498076414 -0.6859320124601748
3755000 0.7161003591755154 -0.6942874909661585
3802500 0.7078540761289854 -0.7023985657583791
3850000 0.6996483496116255 -0.710628539660794
3897500 0.6913014507720774 -0.7187323416533262
3945000 0.6826597141207624 -0.7270071983840115
3992500 0.673884229318336 -0.7351143749320639
4040000 0.6647921897097732 -0.742890839320921
4087500 0.6559436489052913 -0.7507820298089304
4135000 0.6467888956199324 -0.7587204632686461
4182500 0.6372864281406683 -0.7667013661538853
4230000 0.6276364194174232 -0.7744804990965594
4277500 0.6179299929040322 -0.7820875324683177
4325000 0.6081805993962217 -0.7896301092497465
4372500 0.5983634612940533 -0.7972918029875619
4420000 0.5878303154337947 -0.804824363179835
4467500 0.5775001483101385 -0.8121248938061919
4515000 0.5669612205049405 -0.8192933709975295
4562500 0.5564389142898292 -0.826658369870465
4610000 0.5455833621724598 -0.8339602417168669
4657500 0.5343506672827715 -0.8409374403030574
4705000 0.5230838683562142 -0.8477228628200087
4752500 0.5117277416452878 -0.8544706199490056
4800000 0.5002964965621309 -0.8613770255981791
4847500 0.48834277755428296 -0.8680448401174392
4895000 0.4764260609354149 -0.8745223153060449
4942500 0.4644282717464994 -0.8806085867026371
4990000 0.4523657846269589 -0.8869372974650086
5037500 0.4399532153877612 -0.8933284418748955
5085000 0.42711032825558687 -0.8993836568422959
5132500 0.4142754393501904 -0.9051072820738576
5180000 0.4014174010454853 -0.9106752299711637
5227500 0.38825361729540514 -0.9163774959295248
5275000 0.37493850245171867 -0.92205469671118
5322500 0.36124016096929695 -0.9272018409896217
5370000 0.3476726656425482 -0.9321413422637985
5417500 0.33393094934279427 -0.9368864240362912
5465000 0.3199213462570301 -0.9419970255117678
5512500 0.30573645915042347 -0.9466438403119977
5560000 0.29101536162225206 -0.9508377539655958
5607500 0.2766760767302279 -0.9549179423380768
5655000 0.26212625245744287 -0.9591313836957785
5702500 0.24709395187158303 -0.9630569767085518
5750000 0.23189436952298656 -0.9665143799999604
5797500 0.21661110509995732 -0.9699040281378041
5845000 0.20158423366500802 -0.9729958217655329
5892500 0.18611006547535447 -0.9763506432029273
5940000 0.17007046179647678 -0.9790214356344568
5987500 0.15413685021616821 -0.9815187140525582
6035000 0.13819905481723854 -0.9834701560405908
6082500 0.12224914924434072 -0.9856825488542945
6130000 0.10588469268591799 -0.9875123923578736
6177500 0.0892332498350478 -0.9890926941700509
6225000 0.07254545360343256 -0.9900697958390896
6272500 0.05611053261585268 -0.9908777972921333
6320000 0.03927282752984797 -0.9919298864915973
6367500 0.022334418231582685 -0.9924088229954788
6415000 0.004968324699700751 -0.9925249533117001
6462500 -0.012252499259781495 -0.992115293801208
6510000 -0.02944308021523719 -0.99157385807252
6557500 -0.04683018362249214 -0.9908232078402794
6605000 -0.0646278577593779 -0.9900089684262116
6652500 -0.08217154486972644 -0.9883738818867109
6700000 -0.09972788119301326 -0.9864669606548284
6747500 -0.11726355246836097 -0.9845949327068279
6795000 -0.1354334939119548 -0.9822692925203644
6842500 -0.15359146067385046 -0.9794535734164773
6890000 -0.17151536269709672 -0.9762289799715895
6937500 -0.18936955590464358 -0.9726568916266214
6985000 -0.2073864749499734 -0.9690901672190215
7032500 -0.22581096089632474 -0.9649706526004178
7080000 -0.2439308831583015 -0.960229393217345
7127500 -0.2619532681623873 -0.9550259442213527
7175000 -0.279922715235444 -0.9498903980590045
7222500 -0.2980762159636798 -0.9444924436867256
7270000 -0.316460614951228 -0.9383399706909759
7317500 -0.3345967486051862 -0.9317461437810025
7365000 -0.3524852804955024 -0.9248933859303732
7412500 -0.3704731245930425 -0.9178089634003669
7460000 -0.3887163291183615 -0.9102037544400966
7507500 -0.40647855019526496 -0.9022347640539196
7555000 -0.42418529230583507 -0.8937573502374392
7602500 -0.44177293035978943 -0.884896033193939
7650000 -0.45939654190410273 -0.8758677654945572
7697500 -0.4773254325175063 -0.8665328700016204
7745000 -0.4945601843809924 -0.856403486033032
7792500 -0.511726543092222 -0.845852358823172
7840000 -0.5286939993650509 -0.8351418421656571
7887500 -0.5458333636449272 -0.8240976827049858
7935000 -0.5626899686776087 -0.812507353199645
7982500 -0.5793151342926546 -0.8004361949465756
8030000 -0.5954821913057979 -0.7881479905368077
8077500 -0.6116406388773263 -0.7755854767444438
8125000 -0.6277610112064054 -0.7626396200612201
8172500 -0.6434204065430932 -0.7488313493127488
8220000 -0.6589697656180404 -0.735113202488538
8267500 -0.6742634140663663 -0.7210667446918589
8315000 -0.6893747310215511 -0.7066816336377314
8362500 -0.7042959854077201 -0.6917337002054075
8410000 -0.7187640769439442 -0.6764041001618206
8457500 -0.7326788212946812 -0.6607500277785036
8505000 -0.7465756911671572 -0.6450361801467964
8552500 -0.7601061059336132 -0.6288502587890838
8600000 -0.7733930386416131 -0.6122879392864804
8647500 -0.7861262912434025 -0.5954794628775142
8695000 -0.7984947127361085 -0.5785090293316171
8742500 -0.8106836500211698 -0.5612398214672647
8790000 -0.8226092756484562 -0.5436554242091268
8837500 -0.8340587471385815 -0.5256459923870407
8885000 -0.8449626457080349 -0.5074586248090185
8932500 -0.8556219021071921 -0.48917113638355775
8980000 -0.8659335772357101 -0.4706917216059406
9027500 -0.875740289152912 -0.4518162316237189
9075000 -0.8851824330549799 -0.4327223041899181
9122500 -0.8940899108156407 -0.41367904258253513
9170000 -0.9027516595542687 -0.3943280901812319
9217500 -0.9110794505898101 -0.37494051252254057
9265000 -0.9189153246574988 -0.35515681847311675
9312500 -0.9261516062114247 -0.3353087298349727
9360000 -0.9330122261858736 -0.3153700368006763
9407500 -0.939508150674615 -0.29540633912851044
9455000 -0.9456565591839514 -0.2752250032714623
9502500 -0.951158371235907 -0.255080489398396
9550000 -0.9562410088560932 -0.2347578141512155
9597500 -0.9609212983664652 -0.2145144590590638
9645000 -0.9652128786071609 -0.19417671554458302
9692500 -0.969170075944383 -0.17382846559165638
9740000 -0.9725813180946159 -0.15334779218545083
9787500 -0.9753593649449848 -0.1330296855649938
9835000 -0.9779948175702096 -0.11271829033054614
9882500 -0.9801257531454362 -0.09236659493313006
9930000 -0.98185832616422 -0.07199576358730672
9977500 -0.9831739512617637 -0.05177006482001851
10025000 -0.9838744299069702 -0.031577980033661406
10072500 -0.9843681418010409 -0.01157982315189096
10120000 -0.9844099156629791 0.008535481270832578
10167500 -0.9840519927193049 0.02850002125229415
10215000 -0.9831725676745319 0.04844135327943865
10262500 -0.9819979411990527 0.06795499114569621
10310000 -0.9804395875909114 0.08744329115404126
10357500 -0.9786302486167607 0.10700102964498183
10405000 -0.9763423859867432 0.12636289492500105
10452500 -0.9736245367746721 0.14543833166276876
10500000 -0.970549736607937 0.16434740318795615
10547500 -0.967337366080108 0.18320421247671506
10595000 -0.9636502599969238 0.20191219244995115
10642500 -0.9595638004035015 0.22041019950300847
10690000 -0.955119212728139 0.23869133357075156
10737500 -0.9503991398511358 0.25659084185107023
10785000 -0.9456774629800695 0.2744920968425928
10832500 -0.9403401076737345 0.29220155879800985
10880000 -0.9347035899142283 0.3095350461745739
10927500 -0.9287637404862545 0.3267674659600929
10975000 -0.9226204394328232 0.34354208866092445
11022500 -0.9164586041018309 0.360423772216714
11070000 -0.909677337392425 0.37688860589821
11117500 -0.9027712872593718 0.3931795044216094
11165000 -0.8956172977194787 0.40903104578722715
11212500 -0.8882810154623214 0.42485736701063975
11260000 -0.8807930397158645 0.44034286742936324
11307500 -0.8730592533237881 0.45582920298426904
11355000 -0.864874526947016 0.47068958899502067
11402500 -0.8566052938071813 0.4853892963877687
11450000 -0.8484519688857118 0.4998674602685744
11497500 -0.8399337714493608 0.5141771507870285
11545000 -0.8311378011408248 0.528104267971724
11592500 -0.8221745217251542 0.5418598486944115
11640000 -0.8132276226767245 0.5552418060151139
11687500 -0.8041573012740528 0.5686624413889445
11735000 -0.7947309441991285 0.5815971433839795
11782500 -0.7852196486600637 0.5942145698739834
11830000 -0.7755837323792604 0.60657918488971
11877500 -0.7660951236655638 0.6188624863060106
11925000 -0.7562497719579554 0.6307501423452285
11972500 -0.7462908074372223 0.6424395904122698
12020000 -0.7362741554356781 0.6538281173566336
12067500 -0.7263561882384153 0.6649570626989886
12115000 -0.7162099103687382 0.6757623113362757
12162500 -0.7060698033903753 0.686402621117816
12210000 -0.6956096087126779 0.6969613491429157
12257500 -0.6851751932816843 0.706972401167164
12305000 -0.6748577026624726 0.7167612092595151
12352500 -0.664512830210299 0.7266377285420172
12400000 -0.6539860489015976 0.7361206939659792
12447500 -0.6433147489229587 0.7453019839631576
12495000 -0.6327275391765885 0.7541891176337834
12542500 -0.6222279454526632 0.7629111561121156
12590000 -0.6116582015883557 0.7713635441801178
12637500 -0.6010601681484921 0.7798482626447739
12685000 -0.5903149297435424 0.7877725193762545
12732500 -0.5795874626826991 0.795534081565128
12780000 -0.5688947251297727 0.8031445614986732
12827500 -0.5584920193884413 0.8106493094848382
12875000 -0.5475966465542997 0.817845936026002
12922500 -0.536781306184177 0.8248663548953992
12970000 -0.5262732682491987 0.8315330962040013
13017500 -0.5157242906154338 0.8382501346261999
13065000 -0.5049903618668012 0.8447471038629304
13112500 -0.49421121767544507 0.8508647920217144
13160000 -0.4836068991359366 0.8567701277479931
13207500 -0.4733057336271895 0.8626230392771822
13255000 -0.46279635277443915 0.8682330670137426
13302500 -0.45226916667278066 0.8737198442421419
13350000 -0.4417559436637433 0.8790274105520393
13397500 -0.4314286000714595 0.8840799163607149
13445000 -0.4209477579170793 0.8891861768285542
13492500 -0.4106667462764898 0.8940514510926167
13540000 -0.4003167209779512 0.898579198427193
13587500 -0.3900016573995784 0.9029908117346498
13635000 -0.3798347075177592 0.9072845767582505
13682500 -0.36956889085687233 0.9114295030861549
13730000 -0.3596073808945977 0.9153590262170596
13777500 -0.34950656032875116 0.9193406670703145
13825000 -0.33936503955575503 0.9230072579382418
13872500 -0.3293754277669815 0.9265249047677431
13920000 -0.3194010550682111 0.9300426827714334
13967500 -0.30957295162565296 0.9334020133568507
14015000 -0.29969823011906754 0.9364728822388935
14062500 -0.2900423345956871 0.9395228382175596
14110000 -0.28034738792603203 0.9423291601853055
14157500 -0.27058834889962735 0.9452835937092425
14205000 -0.2610132905116099 0.947894004673281
14252500 -0.25150008043691335 0.9504663092714142
14300000 -0.24213494043304556 0.9528465387905565
14347500 -0.23268553470618886 0.9551426160525665
14395000 -0.2233889814445106 0.9573783679474709
14442500 -0.21420066096233864 0.9592847536900563
14490000 -0.20488545722104198 0.9614446369493207
14537500 -0.19587788077654852 0.9632752158169147
14585000 -0.1867347796285671 0.9651077458206283
14632500 -0.17789385128026308 0.9667524880155008
14680000 -0.16888507695967875 0.9683061578108713
14727500 -0.16001641481080126 0.9699178217656463
14775000 -0.1511829941392548 0.9711662737139943
14822500 -0.14244012372788054 0.9724934792072314
14870000 -0.13371977463782853 0.9735560282765138
14917500 -0.12530430410834859 0.9747225936570958
14965000 -0.1167912191482592 0.9759123404044258
15012500 -0.1082001472154598 0.9768778401756405
15060000 -0.09992566542685406 0.9777030736846529
15107500 -0.09160941163217597 0.9785219228519094
15155000 -0.08335933689034522 0.9793167831252827
15202500 -0.07498236012109548 0.9799012171679822
15250000 -0.0668996502319576 0.9804743398500216
15297500 -0.05883532307662133 0.9808758583458987
15345000 -0.05092796778920971 0.9813497715986856
15392500 -0.04289504519336069 0.9817176120319754
15440000 -0.03496975466304217 0.9821754070998661
15487500 -0.027230060520407665 0.9822062796708274
15535000 -0.01967249851969878 0.9823633024977363
15582500 -0.011889744748586766 0.9825199303560491
15630000 -0.004251274303514582 0.9826613237200268
15677500 0.003237621459956841 0.9825182419658743
15725000 0.01073407959497721 0.9824230110312859
15772500 0.01805069980736355 0.9824165054795827
15820000 0.025243762698833 0.9823486353532858
15867500 0.03256008977565441 0.9819831475909954
15915000 0.03986433063506598 0.9816939315190217
15962500 0.04679073586048774 0.9815399047382237
16010000 0.05413876392236285 0.9812176617645595
16057500 0.061160633702227726 0.9807596403512706
16105000 0.06804153991525755 0.9802373582429816
16152500 0.07488284506067126 0.9797576879107404
16200000 0.0817333790997092 0.979307991390728
16247500 0.0885797895795498 0.9786376925580693
16295000 0.09545970047451842 0.9780140642254571
16342500 0.10199416489313293 0.9773044278157863
16390000 0.10850630566413033 0.9766751348096845
16437500 0.1152502134342536 0.9760136733390566
16485000 0.12167957172912025 0.9751038362739138
16532500 0.12794889022631634 0.9744265784518048
16580000 0.13429687313343483 0.9734555436514777
16627500 0.14062856200911253 0.9726168017729613
16675000 0.14710549788396454 0.9718031699954558
16722500 0.15332276382393892 0.970674464508037
16770000 0.1593167573794075 0.9697818076280088
16817500 0.16530972370009084 0.9686537082167292
16865000 0.1713180202946906 0.9678063443824719
16912500 0.17745149003131908 0.9666585410464603
16960000 0.18331243957995286 0.9655976515579503
17007500 0.18909049130338315 0.9645353000818084
17055000 0.19485947836730613 0.9633999569836618
17102500 0.20075978918106355 0.9621842191729105
17150000 0.2063999018565202 0.9610901706292443
17197500 0.21211962955214506 0.959739312287152
17245000 0.21757930901236186 0.9585579725295202
17292500 0.2231279100143356 0.9574819908463641
17340000 0.22875904391413585 0.9562125962791067
17387500 0.2341779539896889 0.9548213383841048
17435000 0.23971048484264157 0.9534193170960267
17482500 0.24490592167581668 0.9521667023634391
17530000 0.25030700273641104 0.9509304423496353
17577500 0.2556842227444865 0.949549862705916
17625000 0.2608074434912731 0.9479693844868087
17672500 0.2658292033543996 0.9466300901089458
17720000 0.270913404177518 0.9454314366894434
17767500 0.27617820186157815 0.943961882951654
17815000 0.28133416305893544 0.9422909405215011
17862500 0.28613305806823264 0.9408189215601516
17910000 0.2909604179202626 0.939535718274336
17957500 0.2959816038615531 0.9382211579437414
18005000 0.30107967101408806 0.9366091770245805
18052500 0.3057475835267074 0.9349638066962445
18100000 0.31034233876777306 0.9334924109723463
18147500 0.31498764501916315 0.9319652046373524
18195000 0.31991661873398075 0.930495486889265
18242500 0.3244361798451739 0.9288068109359812
18290000 0.32905786022427436 0.9271800238708182
18337500 0.33351210153460686 0.9255915872747971
18385000 0.3381279829198815 0.92421937774999
18432500 0.34280249789318235 0.9225873589441365
18480000 0.3472494924254887 0.9206754298119624
18527500 0.3513810769215761 0.9190693984863895
18575000 0.35577983423525744 0.9175698563462247
18622500 0.3601833900586671 0.9160334935029681
18670000 0.3644882439668378 0.9142752497579696
18717500 0.36878670526534596 0.9125264106246953
18765000 0.37281037246065507 0.9110205059502737
18812500 0.3770309080120892 0.9094223446145601
18860000 0.38139952648854303 0.9078381635071967
18907500 0.38544808376289685 0.9059244390809323
18955000 0.38944046449489234 0.9041760990091654
19002500 0.3933936031638817 0.9025625364839431
19050000 0.39752974257483037 0.9011200460859751
19097500 0.40149921797378485 0.8992196216275069
19145000 0.40549891968067336 0.8974534940385657
19192500 0.40926709510011583 0.8957448720410954
19240000 0.4131005276342725 0.8942307998432885
19287500 0.4171241983711427 0.8925746932308043
19335000 0.42093920069205054 0.8906536370363691
19382500 0.4244877693047961 0.8888521626521275
19430000 0.42822303014215174 0.8873361254688616
19477500 0.43184727847219867 0.8855844644645529
19525000 0.43576351296199023 0.8838455380414721
19572500 0.4394508735663673 0.8818791580043127
19620000 0.44274669188240184 0.8801487738629951
19667500 0.4463413148507517 0.8785291441484859
19715000 0.45009657610085035 0.8767958794785873
19762500 0.45356017723718134 0.8749165308618996
19810000 0.45709494055248784 0.8729492352556073
19857500 0.4603012196668913 0.8712384970929292
19905000 0.4638494153416324 0.8695737679113054
19952500 0.46729501790341954 0.8678935394464673
20000000 0.47080658198654796 0.8662069696028063
