# HZ S RI R 50
1000000 0.9710313605066797 -0.239022113224493
1047500 0.9684889311114733 -0.2504817364524291
1095000 0.9652615751155498 -0.26160213513642133
1142500 0.9620342435596485 -0.27279445696160426
1190000 0.9588600705496684 -0.284019214736305
1237500 0.9553890404066852 -0.29527146941261034
1285000 0.9519167302471372 -0.30662942782090413
1332500 0.948217642232024 -0.31783319122584264
1380000 0.9441855968261678 -0.32898284521833837
1427500 0.9402096629813826 -0.34009861964443955
1475000 0.936154546050659 -0.3512956032751313
1522500 0.9319098629652273 -0.3626345229372192
1570000 0.9273652136827307 -0.37369857002590806
1617500 0.9227931218179841 -0.3848357322573564
1665000 0.9180382834754461 -0.3958147386606353
1712500 0.9132329492843969 -0.40700972857276335
1760000 0.9081091690067513 -0.4181596806630093
1807500 0.9028714331127898 -0.4291909960378206
1855000 0.897388513387106 -0.44015916882111195
1902500 0.8919220637163634 -0.45103409598142846
1950000 0.8863357419028377 -0.46203863098718084
1997500 0.8805328181189976 -0.47312633711005386
2045000 0.8745294662554937 -0.4840475279903016
2092500 0.868338826289445 -0.4947248070889679
2140000 0.8621331903150793 -0.5055911057040144
2187500 0.8557076603535037 -0.516622125139199
2235000 0.8488527681740152 -0.5273778918330901
2282500 0.8419184782640406 -0.5379530391661544
2330000 0.8350926150369747 -0.5486079727430268
2377500 0.8280555991305619 -0.5592793700307497
2425000 0.8207499097194357 -0.5700446408072819
2472500 0.8131102189257874 -0.5806789681981488
2520000 0.8054919018824732 -0.5910281659455733
2567500 0.7976954036042164 -0.6014890596060878
2615000 0.7897693079025742 -0.6120366791430184
2662500 0.7814338849881962 -0.6225661115780973
2710000 0.7729256714588996 -0.6327491089326192
2757500 0.7642912990420516 -0.6429057705033727
2805000 0.7558420556785608 -0.6530348540897624
2852500 0.74690082648403 -0.6633311758220654
2900000 0.7377070300716644 -0.6734497549487353
2947500 0.7282668274620551 -0.6833397243462993
2995000 0.7189802002199855 -0.6931775172965491
3042500 0.7092876601540244 -0.7031660180782158
3090000 0.6994320391426951 -0.7130594343982991
3137500 0.6890716530788514 -0.722750295266259
3185000 0.6787429957872981 -0.7321797264899507
3232500 0.6685247063845818 -0.741621615660724
3280000 0.6578414104413283 -0.7510626432771489
3327500 0.6470492080092066 -0.7605067364349235
3375000 0.6357955959169146 -0.76978060130927
3422500 0.6245621458144613 -0.7787192181253515
3470000 0.6131958138956499 -0.7876032121097467
3517500 0.6016193413922672 -0.7967800281474096
3565000 0.5895069359520131 -0.8055800841481807
3612500 0.5772448040886163 -0.8141081967920525
3660000 0.565252292888674 -0.8223904999788398
3707500 0.5527986570205322 -0.83090660362224
3755000 0.5400808012567514 -0.8393449700824769
3802500 0.5270615498617996 -0.8471585111720061
3850000 0.5140622454491838 -0.8550852829035257
3897500 0.5008005763128186 -0.862876960919675
3945000 0.48733442820169787 -0.8706692579754045
3992500 0.47343393940687356 -0.8783157161731137
4040000 0.4593454621423732 -0.8852816925812357
4087500 0.4453931320980428 -0.8922304558516407
4135000 0.43115349417311677 -0.8991946578097435
4182500 0.4165939043102322 -0.9061367644314486
4230000 0.40155431843995304 -0.9127075548144317
4277500 0.38667492876319776 -0.9187278228165346
4325000 0.3717643772221603 -0.9248316833532326
4372500 0.3565895386353924 -0.931124758386043
4420000 0.34067137976375944 -0.9368734721175515
4467500 0.3248467187922166 -0.9422723095552833
4515000 0.30899069050491895 -0.9470354906909966
4562500 0.29302462327614415 -0.9521649954523937
4610000 0.2767991830244524 -0.9573294246672356
4657500 0.26011946808012143 -0.961758595363627
4705000 0.24322461224032615 -0.9656613365539668
4752500 0.22657191360526457 -0.9694988479662866
4800000 0.20974043909603782 -0.9735373371359185
4847500 0.19228744400212197 -0.9769746982646734
4895000 0.17471914958513238 -0.9801625366703611
4942500 0.1573363943302385 -0.9825832665840047
4990000 0.1399252681090861 -0.9852260749337168
5037500 0.12209508719303468 -0.9877245179375634
5085000 0.1039909978529868 -0.9897243975922994
5132500 0.08568342811923504 -0.9911718341093799
5180000 0.06756305447133329 -0.9922765205240492
5227500 0.049172314985645366 -0.9933586473717472
5275000 0.03061991128056522 -0.9943548380811369
5322500 0.011786944977110749 -0.9943071284880662
5370000 -0.006944905146696204 -0.9940881221797309
5417500 -0.025479503022188692 -0.9933922969308423
5465000 -0.04428222065500389 -0.9929411998898742
5512500 -0.06349029329289461 -0.9919071405842184
5560000 -0.08279921402930032 -0.9900000389488262
5607500 -0.10188113857063767 -0.9880630686373012
5655000 -0.12091028408808197 -0.9857786356995555
5702500 -0.1402709799874541 -0.983285487538306
5750000 -0.15979131174078784 -0.9801581744538257
5797500 -0.1792260086976491 -0.9765270472200809
5845000 -0.19828720982208584 -0.9724627590684466
5892500 -0.21762452940731417 -0.9684696831292425
5940000 -0.23730142623685746 -0.9635397273710369
5987500 -0.25675800534636734 -0.9584683861286263
6035000 -0.27605430232946815 -0.9526166278717896
6082500 -0.2952143916709671 -0.9469141170720615
6130000 -0.31454865028065104 -0.9405382212000317
6177500 -0.3339532021608554 -0.9338578185844534
6225000 -0.3533530907121951 -0.9262759342728123
6272500 -0.3721452511810629 -0.918517616993563
6320000 -0.391125130977819 -0.9106156654263986
6367500 -0.4100609338973946 -0.9022281143533332
6415000 -0.42904992543826503 -0.8932120963708329
6462500 -0.4477543278146436 -0.8835915328704894
6510000 -0.466086655565817 -0.8737272084150289
6557500 -0.4843872375792096 -0.8636780667315228
6605000 -0.5029786444554823 -0.8531261344542657
6652500 -0.5209119448559275 -0.8417929186702844
6700000 -0.5386480770989245 -0.8302241269408059
6747500 -0.5562042452689566 -0.8185011122893165
6795000 -0.5738207330970153 -0.8062100528455587
6842500 -0.5911034186383748 -0.7933810567822264
6890000 -0.608108055592955 -0.7801948230689139
6937500 -0.6246839288421507 -0.766564346625658
6985000 -0.6410994403204086 -0.7529201942476191
7032500 -0.6575501798928137 -0.7386403123872611
7080000 -0.6733411525733775 -0.7239397172690162
7127500 -0.6889316465298715 -0.7086465245885764
7175000 -0.704122235487472 -0.6934763772981868
7222500 -0.7190996428089659 -0.6778695251014406
7270000 -0.7338570200634107 -0.6616778183954496
7317500 -0.7480156472024343 -0.6452405560624825
7365000 -0.76186465824959 -0.6284961611823963
7412500 -0.7754169585143279 -0.6115953441782612
7460000 -0.7887556537386136 -0.5942768267083649
7507500 -0.8015258641487435 -0.5766573759194535
7555000 -0.8139102064398777 -0.5587483847960129
7602500 -0.8258954374217528 -0.5405965933691039
7650000 -0.8375164276878495 -0.5223196512645779
7697500 -0.8488121937051942 -0.5037173649014601
7745000 -0.8595649377554793 -0.4848429436221841
7792500 -0.869845915286256 -0.4657224177652653
7840000 -0.8797197170379455 -0.44664114644971903
7887500 -0.8892216700622264 -0.4272213731457391
7935000 -0.8984200347382123 -0.40749994549978985
7982500 -0.9070350542688684 -0.38766656401998806
8030000 -0.9151274075473422 -0.3678447551362951
8077500 -0.9228451838781404 -0.34783674973442036
8125000 -0.9301750571643195 -0.32782662769864473
8172500 -0.936872560064075 -0.3074881399331958
8220000 -0.9433084985361406 -0.2872060661968307
8267500 -0.9492782251084687 -0.26682893023990906
8315000 -0.9548099964284907 -0.2464037865491239
8362500 -0.9597697712018908 -0.2258958776242244
8410000 -0.9642958199041968 -0.20533259110278318
8457500 -0.968314208960577 -0.18483955207329433
8505000 -0.9720163411945547 -0.16432439363158635
8552500 -0.9752170824419305 -0.14386639815514615
8600000 -0.978085283498001 -0.1232733724522545
8647500 -0.9804097160562216 -0.10281163254882797
8695000 -0.9823518160929731 -0.08236648249342156
8742500 -0.9837263808939913 -0.06207991282211923
8790000 -0.9848538649480129 -0.04183179175323747
8837500 -0.9854901020125837 -0.021491962496703525
8885000 -0.9856146204369853 -0.0013398888675644953
8932500 -0.9854480093324692 0.018596757721324457
8980000 -0.9848734974049959 0.03839665262139352
9027500 -0.9839681408307261 0.05823381620085824
9075000 -0.9826531956046894 0.07797344223554332
9122500 -0.9808263631462191 0.09748598550156366
9170000 -0.978724589759281 0.11670795073935183
9217500 -0.9762250013528239 0.1359364084724513
9265000 -0.9734316092636608 0.1549857270021799
9312500 -0.9701717002077552 0.1739154163305136
9360000 -0.9666117423456312 0.1924217002260941
9407500 -0.96285675919746 0.21083128147834432
9455000 -0.9589110484798903 0.22912432790285847
9502500 -0.9542246103324029 0.24723303843179725
9550000 -0.9494132679863508 0.2650697559638576
9597500 -0.9442639629679733 0.28278771785822054
9645000 -0.9389259189882881 0.3000222960244445
9692500 -0.9333050505262234 0.31724022056547024
9740000 -0.9273231705174196 0.33419574614535624
9787500 -0.9211243962178689 0.3509055838827528
9835000 -0.9147569990495852 0.36738341830849003
9882500 -0.9079978339306904 0.38352252906324946
9930000 -0.9012557581901335 0.39952374932172
9977500 -0.8941245946235167 0.4153617061357205
10025000 -0.8866491971984026 0.4309077473614217
10072500 -0.8789992717159808 0.4461039184441557
10120000 -0.8712265053726456 0.4610369375982241
10167500 -0.863270651251171 0.4758123782699163
10215000 -0.8551357197016299 0.49031659675574496
10262500 -0.8467658709365199 0.5043643777223626
10310000 -0.8383181570689258 0.5182367468411846
10357500 -0.829786117883441 0.5320484791244899
10405000 -0.8211302189015551 0.5455620797713101
10452500 -0.8120610135325047 0.5587147495547334
10500000 -0.8029302434464466 0.5716610271543451
10547500 -0.7936804165943453 0.5843365725286369
10595000 -0.7844984494398355 0.5966550650070103
10642500 -0.7750340549683904 0.6088583422620704
10690000 -0.7654989685046089 0.620812309526575
10737500 -0.7559884406126655 0.6325205891820547
10785000 -0.7462975810730851 0.643742202120427
10832500 -0.7364922152319668 0.6550149971331627
10880000 -0.7265158006652122 0.665904667851516
10927500 -0.7164855942746402 0.6766274018580174
10975000 -0.7064389235023222 0.6868333794232951
11022500 -0.6965166007090987 0.6970356092041254
11070000 -0.6862928309526991 0.7070056947837747
11117500 -0.6761640287179722 0.7167341927115093
11165000 -0.6658407193089338 0.7260762749039698
11212500 -0.6555817371134821 0.7354224080310153
11260000 -0.6454038916251531 0.7445152576866908
11307500 -0.6349783328589332 0.7534617802135091
11355000 -0.6244663463420228 0.7616939472023662
11402500 -0.6140782979845266 0.7701442563584322
11450000 -0.6038658637747595 0.778392502761581
11497500 -0.5933394572910358 0.7862978376995381
11545000 -0.5828807359832623 0.7939025171782199
11592500 -0.5724797769155887 0.8012029191945803
11640000 -0.5622090768736836 0.8085810298519712
11687500 -0.5517899010599824 0.8157746243225545
11735000 -0.5412580491436867 0.8227760321187665
11782500 -0.5308633477135812 0.8293495386053771
11830000 -0.5204268508297698 0.8357572655307502
11877500 -0.5101945860668258 0.8420416683813307
11925000 -0.49984411813846463 0.8483161532885359
11972500 -0.4893879568098543 0.8541076740305827
12020000 -0.47911439749581614 0.8598728637368893
12067500 -0.46891747302142694 0.8654197821786234
12115000 -0.45880930051993296 0.8709555530543177
12162500 -0.44857181335407637 0.8761705501983728
12210000 -0.43821845754618194 0.8812711485147837
12257500 -0.4280234229017878 0.88613641552399
12305000 -0.4180042693929948 0.8907924192564061
12352500 -0.40794555953072126 0.895553804020866
12400000 -0.39783203286308955 0.8999435512403975
12447500 -0.3879155269897924 0.9041876193815804
12495000 -0.3779467500081479 0.9082961679539605
12542500 -0.36816756535117995 0.9122905552919163
12590000 -0.35836953411668576 0.916224708985819
12637500 -0.3485206838568171 0.920040588778338
12685000 -0.33864125302149123 0.9235685624099624
12732500 -0.3289497331397335 0.9269537439177683
12780000 -0.3194196932309736 0.9302505009278348
12827500 -0.3099012710672852 0.9335421290564359
12875000 -0.30030787297086553 0.9364656938565192
12922500 -0.29080492166796246 0.939309119016719
12970000 -0.28149058728884285 0.9421968334063356
13017500 -0.2722246807771718 0.9450365370427558
13065000 -0.26285413468291824 0.9478122486907408
13112500 -0.25338578288106167 0.9500015561112314
13160000 -0.24428774929117894 0.952337182799425
13207500 -0.23520215138634398 0.9546769845794508
13255000 -0.22628633844449927 0.9567355480835732
13302500 -0.21725853937035128 0.9587827849772679
13350000 -0.2085051545086363 0.9608778339099145
13397500 -0.19952845902614974 0.9627189769892959
13445000 -0.19065419173148324 0.9645171158221107
13492500 -0.18195564228862723 0.9663169073758152
13540000 -0.1731707228183845 0.967917723039085
13587500 -0.16460507144443648 0.9692625176003458
13635000 -0.15595166926671972 0.9706224413537934
13682500 -0.14749663059793083 0.971944015205297
13730000 -0.13918675412382883 0.9730809198498094
13777500 -0.13087668372217542 0.9741509678265464
13825000 -0.12261978158444187 0.9752582122161693
13872500 -0.11423960310021962 0.9763096216930088
13920000 -0.10605254874670672 0.9773291259844014
13967500 -0.09794530328525831 0.9779277967279734
14015000 -0.08997282932842747 0.9786648967061791
14062500 -0.08205384008492726 0.9793449977377262
14110000 -0.0739729601071185 0.9799697840917304
14157500 -0.06611364384368977 0.9804596659451102
14205000 -0.0584458546236432 0.9808369242618369
14252500 -0.05084515768792196 0.9814737162380123
14300000 -0.0431320340352784 0.9817919939023829
14347500 -0.0353868182252353 0.982026074457139
14395000 -0.027909054488337446 0.9822819922249186
14442500 -0.020544160012947822 0.9823561812353182
14490000 -0.01305919700795835 0.9825398348340343
14537500 -0.005734763694169161 0.9826824400629725
14585000 0.001693150597318301 0.9827150377891898
14632500 0.00877100012245478 0.9825318641503903
14680000 0.01579401500390985 0.9825403318895556
14727500 0.023043654924275393 0.9825278558462044
14775000 0.030097494103258123 0.9822813523693367
14822500 0.03708064715091346 0.9819731001571927
14870000 0.04410636229565779 0.9815668891159177
14917500 0.050927522835470515 0.9814081899325585
14965000 0.05777297245296996 0.9810489694099103
15012500 0.06461566436926344 0.9805581478446982
15060000 0.0711499990200015 0.9800198032707906
15107500 0.07769443809495095 0.9795592441944458
15155000 0.0843718107890832 0.9791855070000778
15202500 0.0909955128492037 0.9785400874485326
15250000 0.09739860199252165 0.9779328111005186
15297500 0.10375668671895824 0.9771583095071028
15345000 0.11010636225654802 0.9765850169052743
15392500 0.11653199556010835 0.975827445394971
15440000 0.12288785851523171 0.9751582801371752
15487500 0.1289479262573106 0.9742252230103962
15535000 0.13489627257272124 0.973433616919087
15582500 0.14105578830317925 0.9726684311008149
15630000 0.1472448365965034 0.971874777836546
15677500 0.15310875497554524 0.9708428610018751
15725000 0.15904940453829022 0.969889641580258
15772500 0.16483919343901998 0.9690741394064468
15820000 0.17073491543795546 0.9680863119822761
15867500 0.1764836943558975 0.9670005614590745
15915000 0.18227046316839998 0.9658332810105303
15962500 0.18780226029282565 0.9649133885056617
16010000 0.19365353119698614 0.9639010218977717
16057500 0.1991377409487022 0.9626791703330511
16105000 0.20467132303490243 0.961623817725144
16152500 0.21004730816072856 0.9605844564643413
16200000 0.21558924183938405 0.9593562606857945
16247500 0.22102880594943639 0.9580446250465285
16295000 0.22649414874716886 0.9568882459872299
16342500 0.2316376862899347 0.955565975207657
16390000 0.23682499009868138 0.9545190374753114
16437500 0.24207300252485964 0.9532739452252367
16485000 0.24736151959365 0.9520179152039381
16532500 0.2523032574589597 0.9508066506804347
16580000 0.25730238253196686 0.9493338163919359
16627500 0.262447933495522 0.948150722021162
16675000 0.2676041261106065 0.9467862383694179
16722500 0.2724797577342299 0.9452554434714622
16770000 0.2772924553313841 0.9439382995858259
16817500 0.28192005398710074 0.9424229389648767
16865000 0.2867648055427205 0.9411747845219816
16912500 0.29171812942944486 0.9397178088448747
16960000 0.2964217151204323 0.9381988768462997
17007500 0.30101232269439265 0.9368063855653832
17055000 0.30567243042126907 0.9353942174829848
17102500 0.3103851025825691 0.9337298750301539
17150000 0.3149794468688029 0.9323522841008205
17197500 0.31946991366129607 0.9306144957128707
17245000 0.3236958558227665 0.9292233678477586
17292500 0.32829731844716253 0.9278702642965205
17340000 0.33292086917766467 0.9262454248916008
17387500 0.33704307268130085 0.9246014993186094
17435000 0.3415052617939659 0.9230543955333832
17482500 0.34572629719295567 0.9215107952453127
17530000 0.3500949248287829 0.9200617231940241
17577500 0.3543755387826899 0.9184438926838109
17625000 0.35845463754596707 0.916755444025775
17672500 0.3625196611861216 0.9150979572392729
17720000 0.3665519749438768 0.9137077581905276
17767500 0.37079148310594034 0.9120300433589488
17815000 0.37483357285438673 0.910439609949507
17862500 0.3788261236267566 0.9087391314027484
17910000 0.38276032094502493 0.9072839983849255
17957500 0.38681099204472946 0.9056147834346929
18005000 0.39083899524335397 0.9039254053268957
18052500 0.3946514978045328 0.9022477831348918
18100000 0.39822716352177556 0.9005066279729146
18147500 0.40211071794428 0.8990168275195718
18195000 0.40601438557062086 0.8973801732405153
18242500 0.40971706628362264 0.8956477621468903
18290000 0.4135550143610321 0.8939434263087991
18337500 0.41691469287638144 0.8925309889454442
18385000 0.4208800955327016 0.8908001089116593
18432500 0.42464042552405135 0.889100450250361
18480000 0.4282363899840968 0.8872156914665228
18527500 0.4315396464695443 0.8856043944724331
18575000 0.43511994474918286 0.8839899969530812
18622500 0.43864054086888066 0.8824561029527331
18670000 0.4422224328214238 0.8806208340563805
18717500 0.4457074234348308 0.8789014020338438
18765000 0.44895990065843344 0.8773179864171636
18812500 0.4524331484662413 0.8757602666571417
18860000 0.4560411519178718 0.8740522504871077
18907500 0.4593258708106655 0.8721610145165231
18955000 0.46244825417628715 0.870370727309137
19002500 0.46564169573345826 0.8687449100491613
19050000 0.4691117074201109 0.8672099518924089
19097500 0.47243822823790177 0.8653335573866033
19145000 0.4756184932347735 0.8636431065881992
19192500 0.47871638514764675 0.8618281582001379
19240000 0.481867594111981 0.860321932812396
19287500 0.4851659430755599 0.8586285061941635
19335000 0.4883043357115675 0.8567804704767563
19382500 0.49129580582292687 0.8549589198321695
19430000 0.49422780628018326 0.8534493526859562
19477500 0.4972983165498629 0.8518773827613723
19525000 0.5005474090751431 0.8500779231333236
19572500 0.5035770038079416 0.8481426034728808
19620000 0.506265418058276 0.8464477252981515
19667500 0.5091741363496344 0.8448117165881305
19715000 0.5123621201350458 0.843163260518835
19762500 0.5152711196203904 0.8414760241795773
19810000 0.5180195163023994 0.8394579609859879
19857500 0.5207016612292343 0.8378481862625046
19905000 0.5236419308490271 0.8363372463828059
19952500 0.5265161266686114 0.834661338083627
20000000 0.5293569905512917 0.8327282510336641
