# HZ S RI R 50
10000000 -0.9854448569529135 -0.050370770622221846
10000750 -0.9856710569896037 -0.049765932436136466
10001500 -0.9854416356045911 -0.04978567908317624
10002250 -0.9853008155014777 -0.04932671618787816
10003000 -0.9855026912996899 -0.04891048474286023
10003750 -0.9854818650146209 -0.048647452312487446
10004500 -0.985408662139498 -0.048299606976829036
10005250 -0.9852928096032763 -0.04776282806559139
10006000 -0.9854044152448462 -0.047458758399120865
10006750 -0.9855740316925219 -0.047240455329940166
10007500 -0.9854551193629567 -0.04689876200695585
10008250 -0.9852344874508593 -0.04635647795821528
10009000 -0.9854589413629742 -0.04590904962129042
10009750 -0.9854626992441503 -0.04572763994424442
10010500 -0.9854596373874455 -0.04541199626433945
10011250 -0.9853198131973212 -0.04481379556883569
10012000 -0.9855407846524241 -0.04445347900627795
10012750 -0.9855806946404011 -0.044267728027502
10013500 -0.9853697357580472 -0.04392409064836071
10014250 -0.9853196642901518 -0.043415058226809855
10015000 -0.9854215236459107 -0.042980878036787296
10015750 -0.9855284869616233 -0.042700206248883384
10016500 -0.9854724794913723 -0.04240509557532085
10017250 -0.9853974528996038 -0.041972910757327564
10018000 -0.9854744532795694 -0.04143695807078461
10018750 -0.9855770635489292 -0.041244323605265656
10019500 -0.98546836702605 -0.04096853485312928
10020250 -0.9854047759542336 -0.04043784001714544
10021000 -0.9855334955842996 -0.039998548123612705
10021750 -0.9855068549361667 -0.039750047619242786
10022500 -0.9854296671648415 -0.03943390530031062
10023250 -0.9853331619353976 -0.03893489741954739
10024000 -0.9855480453940553 -0.03863319133908909
10024750 -0.9855428509683755 -0.038372357009037156
10025500 -0.985410715636539 -0.03800279967689418
10026250 -0.9854109903973438 -0.03746943646135957
10027000 -0.985435177263462 -0.036994363919855236
10027750 -0.9855690016109413 -0.03679478656574436
10028500 -0.9853939410547531 -0.036407295721174356
10029250 -0.9853618371455072 -0.03587101120038561
10030000 -0.9855284174413731 -0.03557280399782256
10030750 -0.9855629365482234 -0.035379760836692316
10031500 -0.9853781054625742 -0.03511742563527665
10032250 -0.98534030173816 -0.03450021259409749
10033000 -0.9854331461228336 -0.034063101195205184
10033750 -0.985457696043349 -0.03379918402987643
10034500 -0.9854761194088498 -0.03339220662939641
10035250 -0.9854293940885508 -0.03304614874470119
10036000 -0.9855478895365968 -0.03259715233554934
10036750 -0.9855487727247768 -0.03235371152969499
10037500 -0.9853502693006456 -0.03212788974270653
10038250 -0.985218388898394 -0.0315409758979816
10039000 -0.9854734156260101 -0.03105892817740514
10039750 -0.9855249861527953 -0.03090546080042763
10040500 -0.9854955694027547 -0.030561238309081765
10041250 -0.9853116971182199 -0.030073558572196304
10042000 -0.985452208849213 -0.02959421331309286
10042750 -0.9854514276307644 -0.02940821579623596
10043500 -0.9853661125281886 -0.02915576265140324
10044250 -0.985300504407041 -0.028535658442666596
10045000 -0.9853764398167555 -0.028145092629959935
10045750 -0.9853568958134612 -0.02783128416962821
10046500 -0.9853700694815059 -0.02753229398857974
10047250 -0.9851896505208926 -0.027076487867134923
10048000 -0.9854126157992585 -0.026741121210189206
10048750 -0.9854456519408762 -0.026345041370054435
10049500 -0.9853710126526686 -0.026115769856401617
10050250 -0.9853010927452093 -0.02560788583914624
10051000 -0.9853701364351035 -0.025124626985319747
10051750 -0.9853911811240044 -0.024913684012332758
10052500 -0.9853806604468344 -0.024635000299001144
10053250 -0.9852991059332485 -0.024053333191988865
10054000 -0.9853323034057008 -0.023754593144735364
10054750 -0.9854000177638668 -0.023597010201986488
10055500 -0.9852718014047119 -0.023114895152540966
10056250 -0.985162039120271 -0.0226277456443259
10057000 -0.9853122394240434 -0.02229601813032749
10057750 -0.985339899733524 -0.02180829875636658
10058500 -0.9852130451126414 -0.02166439717268805
10059250 -0.985195912880166 -0.02115125663672917
10060000 -0.9853357795552108 -0.020788948961533653
10060750 -0.9854111121007469 -0.02055128293282908
10061500 -0.985284133530611 -0.020167539787609084
10062250 -0.9851294366646782 -0.019794867076572575
10063000 -0.9851355528991976 -0.01932718993229078
10063750 -0.9853336202093795 -0.0189523578353411
10064500 -0.9852182630598217 -0.018598182105179804
10065250 -0.9850662782210157 -0.01819827890734869
10066000 -0.9852960803654905 -0.017810775363976905
10066750 -0.9852605766829335 -0.017540788764056618
10067500 -0.9852589680292326 -0.017247898277987114
10068250 -0.9849668419104559 -0.01676281155991663
10069000 -0.9851190937231658 -0.016405982880355125
10069750 -0.9851870621575581 -0.01598718146244165
10070500 -0.9851905512357745 -0.01579238013161231
10071250 -0.9850957005696804 -0.015347405120560572
10072000 -0.9851119604290721 -0.014836163207862272
10072750 -0.9852716794984534 -0.014633972817635024
10073500 -0.9850993276501763 -0.014302818162855642
10074250 -0.9849307798627931 -0.013867041456943147
10075000 -0.9850122394351014 -0.013327843987677147
10075750 -0.9851584678244184 -0.013083222581997279
10076500 -0.9850469986640736 -0.01275461656858393
10077250 -0.9849668604061255 -0.012344033460842903
10078000 -0.9849785093937481 -0.011907084758127845
10078750 -0.9850399089643812 -0.01164706932696985
10079500 -0.9850472083435575 -0.011378484706315388
10080250 -0.984931357917317 -0.010979089632837271
10081000 -0.9849854376058983 -0.010426651458788102
10081750 -0.9850943349716714 -0.010058118892641854
10082500 -0.9849303044978455 -0.009864271045375114
10083250 -0.9848174503421415 -0.009333173953318676
10084000 -0.984932927642032 -0.008968118323665893
10084750 -0.985029882120587 -0.008630332055310915
10085500 -0.9849803447124232 -0.008395259742766637
10086250 -0.9848304187827741 -0.00795308491199462
10087000 -0.9848003648866503 -0.007416086073645123
10087750 -0.9849049111783692 -0.007120715434054294
10088500 -0.9850019280542281 -0.006861633637548917
10089250 -0.9847611515947254 -0.0064881658660369945
10090000 -0.9848173254358144 -0.005996298122640337
10090750 -0.9849397017864944 -0.005752291816071869
10091500 -0.9848408860760689 -0.0054736506971470806
10092250 -0.9846727760249273 -0.005060854810995037
10093000 -0.9846847844064709 -0.004602479027574145
10093750 -0.984837843717966 -0.004196261809265105
10094500 -0.9847752670193866 -0.003955321494338458
10095250 -0.9847096051106102 -0.003544140870409479
10096000 -0.9846511042868964 -0.0031705540002781676
10096750 -0.984819573822774 -0.0027810437422917194
10097500 -0.9846811209869627 -0.0024452459822500512
10098250 -0.984543467096534 -0.0019960659562341027
10099000 -0.9846457796548567 -0.001648430201679785
10099750 -0.984667518095385 -0.0012640421028149334
10100500 -0.9847581693617433 -0.0010057684260938488
10101250 -0.984543763322435 -0.0006203836506480328
10102000 -0.9846803967077636 -0.00012699773638749772
10102750 -0.9846447727301842 0.00013968358993999576
10103500 -0.9845328927131752 0.00039579805738961486
10104250 -0.9844104476488046 0.0008904263822240299
10105000 -0.984502498798095 0.0013495010499842035
10105750 -0.9846514494651933 0.0016780832995268722
10106500 -0.9844962145952301 0.001916219844346391
10107250 -0.9843676376168932 0.002315644406364946
10108000 -0.9844724800419812 0.0027619159617213716
10108750 -0.9845076414326652 0.0030155235691535285
10109500 -0.9844792950484635 0.00334250006468752
10110250 -0.9843422975045033 0.003798663350989033
10111000 -0.9843195789147542 0.004326419087916317
10111750 -0.9844949320346049 0.00457644121707467
10112500 -0.9843014925227687 0.004803633136181225
10113250 -0.9842428669711509 0.005315795353098748
10114000 -0.9843808875956211 0.005792088755601668
10114750 -0.9844869351047859 0.006004404062907774
10115500 -0.9842654652592707 0.0062591965328603755
10116250 -0.9840988150138257 0.006693615514582051
10117000 -0.9842307536548451 0.0072024963741953345
10117750 -0.9843351726324201 0.007486955757860565
10118500 -0.9842574361137846 0.007789475818146749
10119250 -0.9841988745185754 0.008209769709784516
10120000 -0.9841346972206029 0.008640572882260637
10120750 -0.9841977501207408 0.0089301469488327
10121500 -0.9841467273588919 0.00913646417374291
10122250 -0.9840396824368729 0.009661765665835688
10123000 -0.9840842418253063 0.01015202614680441
10123750 -0.984145037041505 0.010373951792617981
10124500 -0.9840615765166411 0.010759399041295142
10125250 -0.9840684130433467 0.011116467555106698
10126000 -0.9839509972239984 0.01162872223668237
10126750 -0.9840550047742619 0.011925466515458342
10127500 -0.9839866181171207 0.012093325457391
10128250 -0.9838073122531862 0.012540145562137697
10129000 -0.9838975981979221 0.01301375056937845
10129750 -0.9839666706901022 0.013364124540018561
10130500 -0.983887456946794 0.013641248524739177
10131250 -0.9838702232233022 0.013980537888678446
10132000 -0.9838793218774851 0.014544445702303482
10132750 -0.9840273523776787 0.014761385323759561
10133500 -0.9838831755780844 0.015062530516140779
10134250 -0.9837277973356882 0.01550688963071667
10135000 -0.9837784884842024 0.015972822175966912
10135750 -0.9838542007479868 0.01625233902231375
10136500 -0.9837558900210288 0.016600491932316053
10137250 -0.9836946376682965 0.01694934130633086
10138000 -0.9836446654949272 0.017353126101366963
10138750 -0.9837479422180975 0.01769840775368392
10139500 -0.9836847319419838 0.017938372946674566
10140250 -0.9835812805565782 0.01833101607966639
10141000 -0.983534888321094 0.018920541504848624
10141750 -0.9836805649055522 0.019204635078413083
10142500 -0.9836702710958016 0.01944254181712192
10143250 -0.9834932765138951 0.019860490661871556
10144000 -0.9835015916880706 0.020309282757637385
10144750 -0.9835959856510174 0.020648892825348885
10145500 -0.9835469827140181 0.02092746107809517
10146250 -0.9834493446130346 0.021354389555199332
10147000 -0.9833807375868714 0.02183687938821881
10147750 -0.9835390615800549 0.022131070235253042
10148500 -0.9834658939736927 0.02234224411911497
10149250 -0.9832920894016667 0.02283789980262817
10150000 -0.9833525044411994 0.023272943741014112
10150750 -0.9833822984387458 0.023587870595376516
10151500 -0.9833914339994563 0.023831849995534213
10152250 -0.9832061361050075 0.02417454036900562
10153000 -0.983237788300466 0.024682316760736414
10153750 -0.9833311496439049 0.02501476975675995
10154500 -0.9833160124678043 0.025260947202011587
10155250 -0.9831162485847307 0.025644164351402658
10156000 -0.9831594717297696 0.026157278986102157
10156750 -0.983177873689133 0.026483502706505322
10157500 -0.9831102311395378 0.026674693474244292
10158250 -0.9830555490926055 0.027167159014550576
10159000 -0.9830224699143296 0.02766583588634501
10159750 -0.9830946407243359 0.02800177961229011
10160500 -0.9831415856164599 0.028217060680269516
10161250 -0.9828804220469831 0.028547814800703054
10162000 -0.9830325363812386 0.029023354136077446
10162750 -0.9829438567517136 0.029335881060309175
10163500 -0.9829386170902527 0.029633321632582272
10164250 -0.9828259477785235 0.030005988745197217
10165000 -0.982896446818353 0.030592991813775904
10165750 -0.9828973086062299 0.03087651982141398
10166500 -0.9829231714955865 0.03118742921001275
10167250 -0.9826919199790134 0.03149938984451305
10168000 -0.9827079882670979 0.03197665672127566
10168750 -0.9828041650707362 0.032331227500837514
10169500 -0.982774377827573 0.03252484471785021
10170250 -0.9826027729571997 0.032928416607129085
10171000 -0.9825820347011104 0.03340346382834099
10171750 -0.982628747996433 0.033801371557588326
10172500 -0.9826510630897874 0.0340939026407481
10173250 -0.982562637629011 0.034415174397403235
10174000 -0.9824953767683392 0.03489933990032082
10174750 -0.9826117423151272 0.03519752371283495
10175500 -0.9825729790499622 0.03550285975791291
10176250 -0.982419857884741 0.03583415615326238
10177000 -0.9823174822692247 0.03634747913261475
10177750 -0.9824893732439335 0.03668948432563425
10178500 -0.9823822516411165 0.03694259614971486
10179250 -0.9823249030761285 0.037287205255906584
10180000 -0.9823291161804508 0.03775719557863916
10180750 -0.9824140384131494 0.038097376488497106
10181500 -0.9823442846945547 0.0383316237087394
10182250 -0.9820371409652422 0.03876427568089398
10183000 -0.9821242699051322 0.03919492693553084
10183750 -0.982210532336686 0.039524329118431074
10184500 -0.9822487749753027 0.039827890666383
10185250 -0.9821401726816489 0.04014942067530424
10186000 -0.9820227405516104 0.040675828703008475
10186750 -0.9821745215210825 0.04097394923987882
10187500 -0.9821377686455017 0.04127004091046514
10188250 -0.9819361748811978 0.04162782883078306
10189000 -0.9818363303408759 0.04220064575280009
10189750 -0.9820037396452419 0.04246764861902985
10190500 -0.9820056009389417 0.042688926925205074
10191250 -0.9818453579719416 0.043113508985442875
10192000 -0.9817938547908789 0.043543632168749756
10192750 -0.9818545544915414 0.04379923148764178
10193500 -0.9818802354974153 0.04419337015330688
10194250 -0.981737542095839 0.0444739738422926
10195000 -0.9816927224183878 0.04506557524585356
10195750 -0.9816862422615467 0.04531434556007429
10196500 -0.9816505803130939 0.045585053746679004
10197250 -0.9815529458786709 0.045925597858392134
10198000 -0.9815983453054236 0.04640385655732809
10198750 -0.9816834118693191 0.04680745300832887
10199500 -0.9815938542088803 0.04703512420900958
10200250 -0.9813974913090452 0.047409231784220476
10201000 -0.9813922014650325 0.047870650079849066
10201750 -0.9814921189128558 0.04827043808382758
10202500 -0.9814733900515292 0.04847209391896859
10203250 -0.9812708514947154 0.04886632481214847
10204000 -0.9813126643783504 0.04933370913831334
10204750 -0.9813841007120653 0.04972495512256178
10205500 -0.9813969694202793 0.05003754625934712
10206250 -0.9811054009436881 0.05022845368709235
10207000 -0.981125522546549 0.05083004154670353
10207750 -0.9812019163702173 0.051182614473540805
10208500 -0.9812064561254358 0.051401232149786195
10209250 -0.9810185284424309 0.05170924317015358
10210000 -0.9809405979510288 0.05220503838264242
10210750 -0.9810902892615265 0.052574217749862116
10211500 -0.9810224938789585 0.05272147584771321
10212250 -0.9808402434131652 0.05309508058758206
10213000 -0.9808420591848657 0.0536912141282299
10213750 -0.9809255646550858 0.05407885976966735
10214500 -0.9808842577619143 0.05429691137792826
10215250 -0.9808246510194192 0.054649933921061176
10216000 -0.9807686601236513 0.05510839689675973
10216750 -0.9808163794365594 0.05545531539419522
10217500 -0.9808661632961442 0.055717384641998866
10218250 -0.9805733042694438 0.05602293134021097
10219000 -0.9805600455935513 0.05654498383351689
10219750 -0.9806646124922241 0.05688147657349801
10220500 -0.9806116904958637 0.057114906533313976
10221250 -0.9805308690602831 0.05758884789654448
10222000 -0.9803879935900353 0.0579019424757427
10222750 -0.9804934340112355 0.058267698899429454
10223500 -0.9805050172242149 0.05853365360631439
10224250 -0.9802858023710754 0.05896485590883709
10225000 -0.9802569459286786 0.05937032458872403
10225750 -0.9803589073045867 0.05982719245417548
10226500 -0.9803772586966268 0.060059592648452766
10227250 -0.9802222270517503 0.06034820665904888
10228000 -0.9801395638294103 0.06080721076887364
10228750 -0.9802619510904674 0.06115389228294888
10229500 -0.9801781057961674 0.06139378212322977
10230250 -0.9800000644390311 0.06182925478678617
10231000 -0.9799274925089826 0.06222423564998964
10231750 -0.9800842608782149 0.06271905067052007
10232500 -0.9800803129669896 0.06288644543768408
10233250 -0.9799169562512849 0.06328542365325715
10234000 -0.9798164133394508 0.06373320525849051
10234750 -0.9799645928236651 0.06406687042237393
10235500 -0.9798685749687565 0.06432722379891116
10236250 -0.9796758379401276 0.0646719166077221
10237000 -0.9796549567212991 0.06519948643041786
10237750 -0.9797611958532721 0.06553749328771002
10238500 -0.9797006962249738 0.06583556218762529
10239250 -0.9796682830235353 0.06613508293457689
10240000 -0.9795604362427512 0.06662769659673627
10240750 -0.9796195858689196 0.06689429896704623
10241500 -0.9795301290784258 0.06714319027370341
10242250 -0.979329268532761 0.06754313254841146
10243000 -0.9792737325169103 0.0680789714015916
10243750 -0.9794152075941227 0.06828211835793498
10244500 -0.9793673104530058 0.06869269804541649
10245250 -0.9792380840625486 0.06897655230254984
10246000 -0.979186256714938 0.06945941024629468
10246750 -0.9792585877226216 0.06980060461151294
10247500 -0.9792369298263082 0.07002284772165299
10248250 -0.9790498369620014 0.07041410044434297
10249000 -0.9790148157926118 0.07082939927695474
10249750 -0.9790240026615421 0.07129955294803487
10250500 -0.9790997576253343 0.07159919601886519
10251250 -0.9789643561175767 0.07192444146644804
10252000 -0.9788607560078998 0.07232169658766845
10252750 -0.9789097129277462 0.0727261508743967
10253500 -0.9790011843398411 0.07287684304891463
10254250 -0.9787443659571073 0.07320090109856857
10255000 -0.9786780028105481 0.0737037806740648
10255750 -0.9787266351432482 0.07406107839442137
10256500 -0.9788170347929215 0.07435526881488964
10257250 -0.9786275528203184 0.07470072730591587
10258000 -0.978486300901025 0.07520554453467306
10258750 -0.9785732757929085 0.07560458303718284
10259500 -0.9785760300200106 0.07577326154587492
10260250 -0.978394766182843 0.07608377321031488
10261000 -0.978303765624813 0.0766031867323441
10261750 -0.9784139875633497 0.07701245607187232
10262500 -0.9783505643850899 0.07716583654224109
10263250 -0.9781658594681018 0.07756616849582366
10264000 -0.9781251120646595 0.07799697130143707
10264750 -0.9782951822560619 0.07838831933756756
10265500 -0.9782028230573371 0.07861935181203804
10266250 -0.978040647077407 0.07897270433201514
10267000 -0.9779137331339962 0.07940129388597111
10267750 -0.97795913733625 0.07987278111651445
10268500 -0.9779471303799856 0.08009843302990648
10269250 -0.9778937701032602 0.08042060299917492
10270000 -0.9778064416180224 0.08089348514330379
10270750 -0.9779124964675854 0.08121677407006873
10271500 -0.9778300098545819 0.08149547868521034
10272250 -0.977692652344998 0.08179219022994295
10273000 -0.9775696775775953 0.08232543680652991
10273750 -0.9775976918424205 0.08266920401586174
10274500 -0.9776663627631204 0.08292900089025058
10275250 -0.9775141979525643 0.08326747091971443
10276000 -0.9773745778768026 0.08370864220356006
10276750 -0.9775553970834944 0.08400556247765044
10277500 -0.9774138722205833 0.08432309314493448
10278250 -0.9772514379815052 0.08465929778039147
10279000 -0.9772377195667262 0.08516098060152538
10279750 -0.9772972201583068 0.08552897490748027
10280500 -0.9773093081266436 0.08580433691782301
10281250 -0.977078426605732 0.08606984049064147
10282000 -0.9770568868295166 0.086510162656563
10282750 -0.9771445581672403 0.08691494861120735
10283500 -0.9770747100543421 0.0871962142815572
10284250 -0.9768502439312997 0.08745410578489576
10285000 -0.9767498010844082 0.08795553705667247
10285750 -0.9769116249047127 0.08845061823184994
10286500 -0.9768969834155627 0.0885818568620704
10287250 -0.9766702664783431 0.08889600047174644
10288000 -0.9767028924441242 0.08933020066948896
10288750 -0.9766355246603672 0.0897448461699402
10289500 -0.9767085630126634 0.09009535397336874
10290250 -0.9765679117542064 0.09030805720284696
10291000 -0.976499635811091 0.09075713483685141
10291750 -0.9765410390915518 0.09125745850737195
10292500 -0.9765046054259033 0.09145833066193819
10293250 -0.9762998482811119 0.09181962261978846
10294000 -0.976141583580074 0.09220888123507621
10294750 -0.9762875594659493 0.09269462059111999
10295500 -0.9762657295733337 0.09282722486423814
10296250 -0.9760598019863839 0.09312613871829668
10297000 -0.9759437131625066 0.09358210474962948
10297750 -0.9760498509819651 0.09407705161506934
10298500 -0.9760232589491304 0.09431869846757271
10299250 -0.9759128142784192 0.09464926355623311
10300000 -0.9757615034590603 0.09496325309867862
