# HZ S RI R 50
1000000 0.9703123320129946 -0.23959269552542958
1047500 0.9677108769019938 -0.2509697164556777
1095000 0.964503294639916 -0.26225638878916036
1142500 0.9612383391751536 -0.2734880200212047
1190000 0.9579926329779438 -0.2847449689929086
1237500 0.9545028212799112 -0.2959655179840039
1285000 0.9511784765909389 -0.30727829500422105
1332500 0.9471910879352704 -0.3186295332259319
1380000 0.9433101871192425 -0.329865504179251
1427500 0.9392390141025341 -0.34089446648675886
1475000 0.9350427156220409 -0.35214770083276736
1522500 0.9308425736576162 -0.3634729870875759
1570000 0.9262285435223311 -0.37440422326333755
1617500 0.9217053080189651 -0.3856306510289815
1665000 0.9168417073765864 -0.39673732611003926
1712500 0.9119880252334773 -0.407972477124519
1760000 0.9068259673754174 -0.419013614799635
1807500 0.901653059599542 -0.4300094503326448
1855000 0.8962201263968302 -0.4410868221937998
1902500 0.8906151976150078 -0.45203146985270143
1950000 0.8849483489889007 -0.4629805156915379
1997500 0.8791138473584627 -0.47398808571806245
2045000 0.8730626294719975 -0.48494182731529517
2092500 0.8669339473953785 -0.49570798448490067
2140000 0.8605853878804016 -0.5066566544850923
2187500 0.8540300335267527 -0.517485630028003
2235000 0.8472015147122953 -0.5280917182491554
2282500 0.8403261960304158 -0.5388501115110806
2330000 0.8334126976381672 -0.5496191635565162
2377500 0.8260973571742526 -0.5601933824479086
2425000 0.8188276642109626 -0.5706623050006638
2472500 0.8114475095173336 -0.5813960160758843
2520000 0.8037856765202092 -0.5919294593714325
2567500 0.7957265335583178 -0.6024468825780847
2615000 0.7876259874085192 -0.6127903761337025
2662500 0.7794444592558833 -0.6231423170935062
2710000 0.7710206621100018 -0.6334220130913601
2757500 0.7623360603928617 -0.64374713170891
2805000 0.7536718626385306 -0.653815039469717
2852500 0.7446167432201131 -0.6638352960782767
2900000 0.735592783850286 -0.6739785578164409
2947500 0.7263295675148426 -0.6838848939388129
2995000 0.7167826190008967 -0.6938703138740653
3042500 0.706793491777344 -0.7038094103735426
3090000 0.6969785953452593 -0.7133821156014208
3137500 0.6868385247426798 -0.7230370275704706
3185000 0.6764682562555566 -0.7326013508759088
3232500 0.6660570919286283 -0.7421405778183765
3280000 0.6553183524525148 -0.7514139256755638
3327500 0.6444500215636975 -0.760626601049495
3375000 0.6334460851956026 -0.7698828197416976
3422500 0.6219993420857595 -0.7790328505004588
3470000 0.6104361285675923 -0.7878893411646399
3517500 0.5988798035780656 -0.7967238161108119
3565000 0.5869930312005452 -0.8054181659735306
3612500 0.574670164904431 -0.8140266512462844
3660000 0.5625958206126385 -0.8225062703650547
3707500 0.5498460657692449 -0.8306673104656507
3755000 0.5372946519141544 -0.8388839825972552
3802500 0.5243378216210608 -0.846724243863055
3850000 0.5113364097460159 -0.8548162134119974
3897500 0.49799044876605 -0.8625972351520671
3945000 0.4843861805027525 -0.8700071343803432
3992500 0.47064713591458773 -0.8776216903159559
4040000 0.45665287530970144 -0.8845239660543617
4087500 0.4426253656755805 -0.8915675738219982
4135000 0.42832291358161056 -0.8983124787130344
4182500 0.4137510190887654 -0.905043091985246
4230000 0.3990233502494541 -0.9114640743703045
4277500 0.3841716462407731 -0.9176925802813025
4325000 0.3690921696276326 -0.9237689539807297
4372500 0.353789231089602 -0.929819086855655
4420000 0.33802507079071586 -0.935215124456132
4467500 0.3224673477893031 -0.9405724158460987
4515000 0.3064805424205983 -0.9456225310573226
4562500 0.2903378728931595 -0.950551184099774
4610000 0.27426848455479924 -0.9553812888603156
4657500 0.257902228228169 -0.9596961350336265
4705000 0.24113179788179676 -0.9638474690062989
4752500 0.22433510745086505 -0.9677385948245838
4800000 0.2073146312332914 -0.9713027892060216
4847500 0.19024965069465546 -0.9744756302995452
4895000 0.17293654427132918 -0.9776703652822905
4942500 0.15554400720739095 -0.9802710466569435
4990000 0.13794905652579248 -0.9827881851342031
5037500 0.12026753070823536 -0.9850479205668338
5085000 0.10246877666278412 -0.9867845364130801
5132500 0.08438469954086654 -0.9882994213692978
5180000 0.06624287376898325 -0.9895756613845758
5227500 0.04780627227764464 -0.9903871825943323
5275000 0.029463525358501108 -0.9910901174145486
5322500 0.01093833734327096 -0.9910873740013321
5370000 -0.007622230158211958 -0.9909398803329311
5417500 -0.026304164990039416 -0.990262948312586
5465000 -0.045110990275809934 -0.9894941556332617
5512500 -0.06393326635695243 -0.9882425245338584
5560000 -0.08294741283671081 -0.986546363054329
5607500 -0.1019464065951955 -0.9847260731951838
5655000 -0.12090251306396685 -0.9824858278608818
5702500 -0.14014941542318402 -0.9796093744935955
5750000 -0.15938176624944664 -0.9763248996454189
5797500 -0.17848504578371072 -0.9729149460579122
5845000 -0.1975338597396418 -0.968923110196047
5892500 -0.21675855058691454 -0.964690366667757
5940000 -0.2361149714906067 -0.9598988386564757
5987500 -0.2553429074559694 -0.954703160882349
6035000 -0.27451892174780274 -0.9490694081086729
6082500 -0.29363793847296005 -0.9433508887605331
6130000 -0.31285508969821696 -0.9369126451610326
6177500 -0.3319498601313537 -0.9300840946443744
6225000 -0.35098230539492536 -0.9226209509690816
6272500 -0.36962280979670953 -0.9150136631718505
6320000 -0.38853894135714645 -0.9071190862638149
6367500 -0.40707280525173345 -0.8987114970476404
6415000 -0.425838795205776 -0.8896710582306402
6462500 -0.44428415452026043 -0.8803391481619246
6510000 -0.46259993086118506 -0.8706225708626718
6557500 -0.48076157110002826 -0.8605157918018465
6605000 -0.4989000171049891 -0.850064315092212
6652500 -0.5166786616471157 -0.8389003441332139
6700000 -0.5342777756249011 -0.8275173099616245
6747500 -0.5516247508346261 -0.8157525325682354
6795000 -0.5689645003794289 -0.8036944753463875
6842500 -0.5860953821797531 -0.7909773221900698
6890000 -0.6027703226765163 -0.7780212777798295
6937500 -0.6193688375717368 -0.7646022408995591
6985000 -0.6356093309850255 -0.7510348273098427
7032500 -0.6517514207759709 -0.7368664209765785
7080000 -0.6674922310614557 -0.7223116530738274
7127500 -0.6828328554813602 -0.7073650233276987
7175000 -0.6979162432210226 -0.6922960642994636
7222500 -0.7127016633478943 -0.676783543924294
7270000 -0.7273690752512617 -0.6609494705919546
7317500 -0.7413517033643627 -0.6447084833238508
7365000 -0.7551306224281621 -0.6281643990511544
7412500 -0.7685731560325276 -0.6114582195201571
7460000 -0.7818336164350466 -0.5942954321071272
7507500 -0.7944958122544727 -0.5769922425831869
7555000 -0.8067294865027465 -0.5593032704651081
7602500 -0.8185973068876912 -0.5414077008682955
7650000 -0.8300725171462884 -0.5234703456790579
7697500 -0.8413439154125059 -0.5051177705891324
7745000 -0.8520037172617456 -0.4864415454689753
7792500 -0.8622282207087123 -0.46760713265178006
7840000 -0.8720104355992762 -0.4488155590116651
7887500 -0.8814599612408031 -0.42970791836225275
7935000 -0.8906066557551653 -0.41034607210222795
7982500 -0.8991109272768198 -0.3906906647785048
8030000 -0.9070850026784204 -0.3711130915104696
8077500 -0.914696731519953 -0.351457805835778
8125000 -0.9219994442063701 -0.33175232673077093
8172500 -0.9286952185712642 -0.3115558012297539
8220000 -0.9348515946945343 -0.2916504385819185
8267500 -0.940543304743388 -0.2716640877612354
8315000 -0.9459127028822013 -0.25184332055343006
8362500 -0.9510412246963156 -0.23177070513440381
8410000 -0.9556798269416418 -0.2117670832245608
8457500 -0.959800244868666 -0.19176655415825083
8505000 -0.9637202912001557 -0.17180168254880093
8552500 -0.9672665299305877 -0.15174779210273523
8600000 -0.9703977655453327 -0.1313755620373251
8647500 -0.9729467641111073 -0.11106444864507806
8695000 -0.9749623549239363 -0.09097957582544933
8742500 -0.976626834311469 -0.07109621979814913
8790000 -0.9779742331846083 -0.051034897875785384
8837500 -0.978841031342609 -0.0309065848118608
8885000 -0.9792057074336533 -0.010935844800729663
8932500 -0.9791338914121923 0.00865087167227474
8980000 -0.9788670522701317 0.02824128037370102
9027500 -0.9782375907262963 0.04785086123130327
9075000 -0.9771351793393886 0.06750806539929496
9122500 -0.9753837871552187 0.08667513746159386
9170000 -0.973627945929252 0.10562671623038837
9217500 -0.9714166564510694 0.12465302189673859
9265000 -0.9689226831493097 0.14362303154717357
9312500 -0.9657485280645727 0.16225306422527258
9360000 -0.9624065741534079 0.1804504350005325
9407500 -0.9590036322969818 0.19866656970370322
9455000 -0.9549689772161962 0.21686408445236305
9502500 -0.9509220558895956 0.23508539104667137
9550000 -0.9461914680732665 0.25283540162787477
9597500 -0.9413307357902696 0.27010981161878356
9645000 -0.9363976548530873 0.2874087425145745
9692500 -0.9311060198453781 0.3047115689154588
9740000 -0.9251841117460622 0.3217452803078299
9787500 -0.9191864141629703 0.33813467127120506
9835000 -0.9131238170628215 0.3543547371571069
9882500 -0.9068013558217167 0.37058976885967976
9930000 -0.9002300271813887 0.38672231655222283
9977500 -0.8932384684091927 0.40251889065100027
10025000 -0.8859199792885998 0.41767864033014646
10072500 -0.8788028477052 0.43284401699635366
10120000 -0.8713610931410927 0.44786514909463254
10167500 -0.8636233231806291 0.46274109789233003
10215000 -0.8555708180073166 0.47702366100353094
10262500 -0.847624722355607 0.4909679190900336
10310000 -0.8395799790452526 0.5047985686505835
10357500 -0.8311823043283711 0.5187807549718626
10405000 -0.8226661270002721 0.5323694530696897
10452500 -0.8138452917813557 0.5453321460741359
10500000 -0.8050756992633444 0.5581807300677936
10547500 -0.7963153851585014 0.570979010059644
10595000 -0.787204545061217 0.5834833925889701
10642500 -0.7778561795226013 0.5956373205299785
10690000 -0.7686025719177768 0.6072706827030151
10737500 -0.7594639938741934 0.6191725378307126
10785000 -0.7500294156980956 0.6307184943217805
10832500 -0.740380830315225 0.6421236984358248
10880000 -0.7306294236514463 0.6528528642690725
10927500 -0.7209058324590957 0.6635211791282949
10975000 -0.7111822060370068 0.67392208952148
11022500 -0.7014138555915826 0.684335060569645
11070000 -0.6912112951155527 0.6942881795506
11117500 -0.681322055361482 0.7040589078054249
11165000 -0.6714595326450972 0.7134307649098992
11212500 -0.6614370821792658 0.7229973198850296
11260000 -0.6512733398810137 0.73212722838313
11307500 -0.6409897997171272 0.7411068511765473
11355000 -0.6308607014399334 0.749442980920684
11402500 -0.6207654129206958 0.7579673311606326
11450000 -0.6105434233347892 0.7664916221801977
11497500 -0.6002226253972887 0.7742952453330536
11545000 -0.5899613093727554 0.7817162758441936
11592500 -0.5799478667444607 0.7893681604983318
11640000 -0.5698554912892192 0.7970324890558633
11687500 -0.559424975730649 0.8044226958563212
11735000 -0.5490701715594128 0.8112552712461963
11782500 -0.5389605309890036 0.8179060253562748
11830000 -0.5287526708855727 0.8244592448884388
11877500 -0.5186430677387637 0.8310499933693372
11925000 -0.5082646015100829 0.8373618536398367
11972500 -0.4979219720879686 0.8432494233706408
12020000 -0.4880124620482725 0.8490214096895811
12067500 -0.4780431122957625 0.8549312344046258
12115000 -0.4677722381516295 0.8606571602571904
12162500 -0.45755409689547305 0.8658591009190763
12210000 -0.44745331271781397 0.8709076642015352
12257500 -0.43748642734552873 0.8760158702984147
12305000 -0.4276020987129359 0.8809883731851516
12352500 -0.4174285443770975 0.8858448731126778
12400000 -0.4074804786791264 0.890343933799706
12447500 -0.3979102023957076 0.8946877718782706
12495000 -0.38799567456984874 0.8990399546682212
12542500 -0.37824989032837886 0.9033654589369192
12590000 -0.36833968338637246 0.9073800904507139
12637500 -0.35866741759049664 0.9111235977530334
12685000 -0.3491126411302296 0.9147678876299812
12732500 -0.3394766770294109 0.9183947126121763
12780000 -0.32993475568531905 0.9218984855139524
12827500 -0.3203652712010046 0.9250053187552375
12875000 -0.31109523844951154 0.9281923678780989
12922500 -0.3017013112748688 0.9312741410000923
12970000 -0.2924162428042729 0.9344853411789062
13017500 -0.2831307950213294 0.9374331580318637
13065000 -0.27368269534382217 0.9400248127806472
13112500 -0.2645117099176228 0.9424963747905883
13160000 -0.25552875798108965 0.9450899998081367
13207500 -0.2463886384468877 0.9475323024064962
13255000 -0.23737952229480103 0.9497132573318388
13302500 -0.22857331363026712 0.9518104925673774
13350000 -0.2198185442418837 0.9539261303679707
13397500 -0.2110443649051736 0.9560363741014731
13445000 -0.20197300059148374 0.9580788596870342
13492500 -0.19325027508663536 0.9597829497754562
13540000 -0.18471713121665304 0.9614019228807665
13587500 -0.17622912798467621 0.9629374374438368
13635000 -0.16763994858926232 0.9646050440895578
13682500 -0.1590734394893478 0.9659164248039777
13730000 -0.1507931838103329 0.9671282657306214
13777500 -0.14263253856982525 0.9684062722128766
13825000 -0.13446367527829634 0.9697000108000745
13872500 -0.1259991009151813 0.9709853811850309
13920000 -0.11767386028240776 0.9720289979919549
13967500 -0.10979843107071155 0.9728508876590946
14015000 -0.10177695897114986 0.9736497186593325
14062500 -0.09388836396024665 0.9746698397784878
14110000 -0.08584971075329478 0.9753497982077379
14157500 -0.0780311616846773 0.9758560683008427
14205000 -0.07033467936694335 0.9764575376715581
14252500 -0.06267565328109813 0.9772470489501404
14300000 -0.054872488671765925 0.9776398411348746
14347500 -0.04717599120408649 0.9780192988568447
14395000 -0.03973102903925842 0.97837764371101
14442500 -0.03232122181597307 0.9785119511871608
14490000 -0.024828961928075724 0.9788593056146955
14537500 -0.017453074066627768 0.9790072281667805
14585000 -0.010035404627826029 0.9791598494933327
14632500 -0.0030748850449144388 0.979118687154067
14680000 0.0039828103118431605 0.9792389880237691
14727500 0.01124922623593541 0.9793618897735006
14775000 0.018395439709652146 0.9790808028114159
14822500 0.025395078789210147 0.9787158501297779
14870000 0.03224074066658649 0.9785336264664202
14917500 0.03904197240469908 0.9785128523958565
14965000 0.04604391034109464 0.9782637003454214
15012500 0.05284951806980009 0.977824176366188
15060000 0.05931163166574342 0.9773759383655569
15107500 0.06586867184250107 0.976978891122558
15155000 0.07250706751546115 0.976792460551655
15202500 0.07926371065115508 0.9762605599392467
15250000 0.08563983971563095 0.9757159637463625
15297500 0.09195405428438022 0.9749936537501369
15345000 0.09833665160769428 0.974414998545742
15392500 0.10482668671000418 0.973904297393632
15440000 0.1111757333588066 0.9732649752577783
15487500 0.1172750402921134 0.972420713852027
15535000 0.12316017436798998 0.9716657380089975
15582500 0.1294561350883264 0.9711058041409217
15630000 0.13557272513680269 0.9703133217701146
15677500 0.14158997147007732 0.9693947826144234
15725000 0.1474690121410587 0.9684719853885848
15772500 0.1532402727285737 0.9677631401732512
15820000 0.15915077456022833 0.9668990540606112
15867500 0.16502542598999603 0.9657898601952959
15915000 0.1706890104421216 0.9646306494829857
15962500 0.17613933651162778 0.963949279432425
16010000 0.18205649640857965 0.9629983416898973
16057500 0.18773917400409837 0.9619312947358081
16105000 0.19328656315558554 0.9608327635479773
16152500 0.198611037154481 0.9597513228176445
16200000 0.20417665410597977 0.9587796018450881
16247500 0.20962118499579604 0.9575469357143304
16295000 0.21515962013901982 0.9563787612177053
16342500 0.22027218331736345 0.9551732013555122
16390000 0.22536158947923246 0.9539806042408427
16437500 0.23076989068635767 0.9529269747756424
16485000 0.2361691498523145 0.9515978347635264
16532500 0.24108509724185975 0.9504360711037694
16580000 0.24624806364702592 0.9491109573185149
16627500 0.25122728590951976 0.9478584179258979
16675000 0.2564334295098754 0.9467167776816191
16722500 0.26145759940003904 0.94508977534395
16770000 0.2662098945255416 0.9438350160188147
16817500 0.27091898357011984 0.9423334600250118
16865000 0.27591705451844817 0.9412131351800028
16912500 0.28081660524474844 0.9398339867895443
16960000 0.2854928891242042 0.938410807741448
17007500 0.2901789336634612 0.9370436480902392
17055000 0.2948035046258817 0.9357228700638686
17102500 0.2996973229684426 0.9341822997490448
17150000 0.3042376925349185 0.9327898512252311
17197500 0.3086931426411424 0.9311341261994592
17245000 0.3129911813686747 0.9297629138211477
17292500 0.31754142799495927 0.9285607021932926
17340000 0.32213564524992216 0.9270116799545256
17387500 0.3264717342732945 0.9254164785678151
17435000 0.3308257684803539 0.923885156728128
17482500 0.33502641824128404 0.9224262289039449
17530000 0.3395074195957368 0.9210026065498489
17577500 0.3437233606604982 0.919385008721576
17625000 0.34789150643152866 0.9178254881438486
17672500 0.3519451683421454 0.9162374149136322
17720000 0.3560903479005237 0.9149090554354806
17767500 0.3604096593253591 0.9132537366954998
17815000 0.3645744021754143 0.9116986531915164
17862500 0.3684848496870776 0.9100082101445317
17910000 0.3724471838239828 0.9086513186150743
17957500 0.3765846387282916 0.907225127560175
18005000 0.38061467812462335 0.9054879777708719
18052500 0.3844488090104328 0.9038353224687521
18100000 0.3881854025117654 0.9022500532543336
18147500 0.3919383506992131 0.9007713274831939
18195000 0.3959044816396351 0.8993359468581575
18242500 0.3997104818478007 0.8976467054751153
18290000 0.403542088392257 0.895904992634184
18337500 0.40699966371666874 0.8946150685519894
18385000 0.4108990177077369 0.8927864072834142
18432500 0.4147746188905482 0.891201086707263
18480000 0.4183904172392754 0.889279538500682
18527500 0.4217254151002313 0.8878029791151153
18575000 0.4253390172062809 0.8861063238298733
18622500 0.42896063240409843 0.8845227857422601
18670000 0.4325918652682086 0.882876334060291
18717500 0.4360977347616366 0.8810925557415507
18765000 0.43939462588686146 0.8795125616471674
18812500 0.4429257167382809 0.87793047161428
18860000 0.4464726480700827 0.8762360775485869
18907500 0.44978317554393027 0.874460034019104
18955000 0.4529451186113284 0.8725990716571949
19002500 0.45622045309060616 0.8710149122727984
19050000 0.4596978069852633 0.8695065457170469
19097500 0.46308122556582443 0.8676500146803714
19145000 0.4662406450508986 0.8659630775825071
19192500 0.46930906200644834 0.8642426051476124
19240000 0.4725730256858599 0.8627345558512011
19287500 0.4759674120863256 0.8609978398204499
19335000 0.47908420472775703 0.8590889384913323
19382500 0.4820941262316067 0.8574535239649121
19430000 0.4851274901566203 0.8559113177060368
19477500 0.4881978272858915 0.8543320841038247
19525000 0.49145011678530787 0.8526032092001509
19572500 0.4945617851712156 0.8507491480183881
19620000 0.4972916238610348 0.8490545883708893
19667500 0.5002157388446692 0.8474725129063818
19715000 0.5033368822987871 0.8458082604046674
19762500 0.506274213119263 0.8440079840591672
19810000 0.509096029048726 0.8422000105588808
19857500 0.5118504795163659 0.8406504719360995
19905000 0.514771297676586 0.8390351329137609
19952500 0.5176567966521419 0.8374272128357083
20000000 0.5203865700179915 0.835472147400013
