# HZ S RI R 50
1000000 0.9794673524564457 -0.19814242636604829
1047500 0.9777675472200372 -0.20788073139878993
1095000 0.9755477341071978 -0.21710868807318148
1142500 0.9733007886328061 -0.22637317322274253
1190000 0.9711822902302218 -0.2358840664847438
1237500 0.9688196118053027 -0.2452465150395373
1285000 0.9663573995942293 -0.2546006467067244
1332500 0.9637673794241232 -0.2640475567269812
1380000 0.9611282824709552 -0.2734206314443287
1427500 0.9583277210632706 -0.2827532663451825
1475000 0.9555456955627889 -0.2921110875375079
1522500 0.9526846765514098 -0.3017028385089707
1570000 0.9495075735401305 -0.3111294161793289
1617500 0.9461943903652644 -0.32050972446624865
1665000 0.9429671933018461 -0.32969754737416895
1712500 0.9397546594620174 -0.33917765829182006
1760000 0.9363032873512169 -0.34859712553175265
1807500 0.9326688937131218 -0.35808249029480976
1855000 0.9288613896005563 -0.36741643540121455
1902500 0.9251281015264914 -0.37666347254222105
1950000 0.9213224898911324 -0.38608850203523976
1997500 0.9173491678221615 -0.39567229578328494
2045000 0.9131238679946573 -0.4049970030819855
2092500 0.9087854891089236 -0.4140994437656631
2140000 0.9045673998473713 -0.42339394474015274
2187500 0.9002766319296075 -0.432905087451267
2235000 0.89550894796158 -0.44224024380181914
2282500 0.8906411971933923 -0.45143000490091806
2330000 0.8859392174528081 -0.46071011898458664
2377500 0.881224486697865 -0.4699635990180708
2425000 0.8760639136298081 -0.47949612262633406
2472500 0.8708327198553732 -0.48881739988255163
2520000 0.8655027778592111 -0.49781419289348755
2567500 0.860201893689288 -0.5069607754285655
2615000 0.8546669442801922 -0.5163378518908424
2662500 0.8489328713929377 -0.5256393464018937
2710000 0.8430626923344312 -0.5347159166442449
2757500 0.8371019696214381 -0.5438282468664524
2805000 0.831259153265827 -0.5529567444674055
2852500 0.8250199436864806 -0.5622088509108366
2900000 0.818600193255434 -0.5714252552580867
2947500 0.8121512983107873 -0.5803223703351074
2995000 0.805645212325631 -0.5892660387627245
3042500 0.7988880262976585 -0.5985040207759674
3090000 0.7920412638249648 -0.6074705547656805
3137500 0.7848508479146242 -0.6164963509374156
3185000 0.7776070536231868 -0.6252494239019236
3232500 0.7705023692202875 -0.6342091023861537
3280000 0.7630451879625688 -0.6432369023562625
3327500 0.7554226789413155 -0.6521245492388265
3375000 0.7476003259253824 -0.6609329290744428
3422500 0.7397077796525932 -0.66961388906046
3470000 0.731670787502425 -0.6783227238336802
3517500 0.7235393780570136 -0.6871789837538972
3565000 0.7151414846511135 -0.6958646386095125
3612500 0.7064906560093468 -0.7043908360983621
3660000 0.6979985799524786 -0.7128337957271168
3707500 0.689069810075621 -0.7214184925133668
3755000 0.6800911852908528 -0.7299669889820999
3802500 0.6707486688227844 -0.7381818634735273
3850000 0.6615859985773778 -0.7465412039786024
3897500 0.6521955600262691 -0.7547161238283346
3945000 0.6424325096374972 -0.7630335233256397
3992500 0.6325369754408252 -0.7713621479172065
4040000 0.6224308431192694 -0.7792057701339922
4087500 0.6124730541002112 -0.7869143582614792
4135000 0.602187366262885 -0.7949197115721831
4182500 0.5915302706487422 -0.8030235288788741
4230000 0.5806798835000274 -0.8105758611089907
4277500 0.5697649832116638 -0.8179908284382932
4325000 0.5588755360321375 -0.8254873942777137
4372500 0.5478779049127098 -0.8332996917205704
4420000 0.5361585754894348 -0.840490655835992
4467500 0.524568118709081 -0.8475875791338249
4515000 0.5127738318243218 -0.8544884347263179
4562500 0.5009521378621217 -0.8615769123564786
4610000 0.48899260367078845 -0.8686929232604083
4657500 0.4764501417815138 -0.8753314798772677
4705000 0.4638338013194883 -0.8816685780559942
4752500 0.45130757880196154 -0.8880659237250438
4800000 0.4385056063254138 -0.8945819885544118
4847500 0.42521014104327465 -0.9008957646743889
4895000 0.41201301844771887 -0.9069127866361946
4942500 0.398654140292732 -0.9124194577946528
4990000 0.38530144135402805 -0.9181202591816127
5037500 0.37151036824769207 -0.9241478379999345
5085000 0.35743898204626273 -0.9294856766097146
5132500 0.3431846664473206 -0.9346075357092969
5180000 0.32900082656137897 -0.9393945037991719
5227500 0.31439020767451215 -0.9443780970383641
5275000 0.2997437688705323 -0.949266067610969
5322500 0.2846508989212099 -0.9535553257572645
5370000 0.26980428172006204 -0.9576800998974137
5417500 0.2548173646093374 -0.9615323007585431
5465000 0.23942840090805118 -0.9656306246674076
5512500 0.2238469902484017 -0.9693424408524983
5560000 0.20784096897843887 -0.9724840725183387
5607500 0.1921798403419304 -0.9755206089281753
5655000 0.17631069100394625 -0.9785685190509396
5702500 0.1600233449672246 -0.9814471240042062
5750000 0.14345926041130438 -0.9836489778609665
5797500 0.1270654874109291 -0.98575281389857
5845000 0.11068255636350337 -0.9875442986005817
5892500 0.09391296201911722 -0.9894983420563416
5940000 0.07672532837760393 -0.9908379196805318
5987500 0.059533188267981034 -0.9917835761005211
6035000 0.04239053283285246 -0.9923684301319433
6082500 0.025278068304207334 -0.9929504738852636
6130000 0.007767666120092955 -0.9932251099222045
6177500 -0.009910839230599933 -0.9932357781200019
6225000 -0.027796595649007206 -0.9923758461424783
6272500 -0.0452161459913671 -0.9915307854973147
6320000 -0.06305481787603465 -0.99071978106562
6367500 -0.08107932679775472 -0.9894092816087691
6415000 -0.09944540657752943 -0.9876221110682192
6462500 -0.11747743760889759 -0.985197924519251
6510000 -0.13549561246734762 -0.9828142355493178
6557500 -0.153694238949741 -0.9800937848329846
6605000 -0.17231012333276483 -0.9770211536547541
6652500 -0.1906459396398176 -0.9732654039394018
6700000 -0.20880993965196368 -0.9692877224048677
6747500 -0.2270409976563183 -0.9652154445939566
6795000 -0.24568727972062984 -0.9606090642263291
6842500 -0.26433865510234555 -0.9555995946337792
6890000 -0.2827797480913845 -0.9500160345819512
6937500 -0.3010664421145826 -0.9440292835965273
6985000 -0.3193023352084097 -0.9381052572959039
7032500 -0.33797266358389144 -0.9315490054336961
7080000 -0.356217293492864 -0.924433179380324
7127500 -0.37446530851359155 -0.9169060724746873
7175000 -0.39252795406382607 -0.9091068908855007
7222500 -0.41070865263825296 -0.9011361722510959
7270000 -0.42906381813104016 -0.8925421431808979
7317500 -0.4469720113618316 -0.8834243341925361
7365000 -0.4646126490202447 -0.8739412591163915
7412500 -0.4822869059689299 -0.8641630441845324
7460000 -0.5000916327930389 -0.8539456963801821
7507500 -0.5175228144022692 -0.8433747144736607
7555000 -0.5347025472591066 -0.8321792495401986
7602500 -0.5516297178890136 -0.8208904934410515
7650000 -0.5685027758591058 -0.8091550547531493
7697500 -0.5855209314764028 -0.7970378551782997
7745000 -0.6020430248318299 -0.784294906413434
7792500 -0.6182322923491997 -0.7712653107005961
7840000 -0.6341635442417379 -0.7579737349661907
7887500 -0.6500510529624444 -0.744384185004403
7935000 -0.6657454549504478 -0.7302454961165452
7982500 -0.6810624744027468 -0.7157354888885186
8030000 -0.6958555784381105 -0.7009531739512506
8077500 -0.7106545221194588 -0.6860078469142463
8125000 -0.7251081553557059 -0.6705556994567845
8172500 -0.7390454042496551 -0.6544513751705228
8220000 -0.7529013577810141 -0.6385036595475578
8267500 -0.7664095618157927 -0.6220788512216975
8315000 -0.7796247870264371 -0.6055317080058781
8362500 -0.7925720388183086 -0.5884124177015622
8410000 -0.804981853559594 -0.5708890708757882
8457500 -0.8169827981874631 -0.5533042288556991
8505000 -0.8285943488347014 -0.5355787500803767
8552500 -0.8400145574030028 -0.5173883055785238
8600000 -0.8509330984523253 -0.49899054627565365
8647500 -0.8613331882509228 -0.4804221536885922
8695000 -0.8714333238298888 -0.46172278106984727
8742500 -0.8811212431494334 -0.442771971418706
8790000 -0.8904964245715958 -0.4235357173806614
8837500 -0.8993645953458935 -0.40410749975262666
8885000 -0.9077636895631827 -0.38448020384908466
8932500 -0.9157555836826757 -0.36496765229430145
8980000 -0.9233888276745897 -0.3451880304135515
9027500 -0.930510416105736 -0.3251784981119818
9075000 -0.9371152370578721 -0.3051160276403303
9122500 -0.9432814215571916 -0.28510037563024104
9170000 -0.9492307868155162 -0.2650132077710484
9217500 -0.954663403020432 -0.24465540178697637
9265000 -0.9596154910751412 -0.22420047492483894
9312500 -0.9640241979147324 -0.20376675791979382
9360000 -0.9681316399178933 -0.18348812407917625
9407500 -0.9717236949168557 -0.16294873952469896
9455000 -0.9750090785203379 -0.14242659362843213
9502500 -0.977656822921068 -0.12213213660047126
9550000 -0.979939442968238 -0.10176871732921866
9597500 -0.9818056337563615 -0.08147121521792919
9645000 -0.98325859219687 -0.06114847992471646
9692500 -0.9842995430091602 -0.0407878478277359
9740000 -0.9849271515308705 -0.0206291918718364
9787500 -0.9850722327275973 -0.0005654939092914302
9835000 -0.984993435620919 0.019460765806080048
9882500 -0.98432840236375 0.039442015960498227
9930000 -0.9832981502166348 0.05919260342018676
9977500 -0.9819443109693436 0.07878908404398284
10025000 -0.9802043255385067 0.09830189829933038
10072500 -0.9780812213108047 0.11774242482922778
10120000 -0.9754905388543407 0.13696993173287803
10167500 -0.9726512477213617 0.15593211238725044
10215000 -0.9694595237546596 0.17489530242036266
10262500 -0.9659641777427673 0.19354188057839902
10310000 -0.9620459689717052 0.21214589358395086
10357500 -0.9576815540610928 0.23049112207284098
10405000 -0.9532705390477738 0.24844294783703536
10452500 -0.9484648893863523 0.2663510190423185
10500000 -0.9433367287375513 0.2842026450136169
10547500 -0.9378723708417419 0.30176813364270416
10595000 -0.9321106627608581 0.31892973398353114
10642500 -0.9261346286787746 0.33582645998031607
10690000 -0.919915652335224 0.3526264640471485
10737500 -0.913543841203149 0.3694580092599436
10785000 -0.9065844714205904 0.3856773370368216
10832500 -0.8996098286512136 0.40169398521455074
10880000 -0.8924201295146813 0.4175034709038218
10927500 -0.8850324766417454 0.43323130930607034
10975000 -0.8771737755489405 0.4486438754969288
11022500 -0.8692463329302894 0.46363855420836897
11070000 -0.8611619342957657 0.4783770993976504
11117500 -0.8530734114348686 0.4930531461761855
11165000 -0.8447025253576561 0.5074334035757648
11212500 -0.8358658349191977 0.5214851665901127
11260000 -0.8271828823883558 0.5351962037535547
11307500 -0.8183950741679136 0.5488879563785941
11355000 -0.8092048117501179 0.5620716635769542
11402500 -0.7998334214776532 0.5752892846981212
11450000 -0.7904972835891999 0.5879109973561679
11497500 -0.781029710514892 0.6003251358632716
11545000 -0.7716291486890086 0.6126337627179259
11592500 -0.7618590206755127 0.6246733523840676
11640000 -0.751917402767271 0.6364146825501197
11687500 -0.7421069639715223 0.6478429453097115
11735000 -0.7321700435674109 0.6590610147847694
11782500 -0.7221434293159427 0.6700871043380415
11830000 -0.7118884285283203 0.6808571857626936
11877500 -0.7017565268783263 0.6912613956406782
11925000 -0.6914755647566392 0.7014096143593204
11972500 -0.6811880049389755 0.711420176998631
12020000 -0.6708519974833483 0.7212755683545846
12067500 -0.6604286187854204 0.7307392964584735
12115000 -0.6499592043783287 0.7399250351339379
12162500 -0.6395319345569651 0.748904020065069
12210000 -0.6289825127872174 0.7578201410895734
12257500 -0.6183360109147669 0.7665477500680746
12305000 -0.6076961399179942 0.7746940360364937
12352500 -0.5971344846397245 0.7828572600832189
12400000 -0.5866684380225106 0.7907981036765788
12447500 -0.5760656203273186 0.79863648267191
12495000 -0.5653003895734927 0.8061075309272787
12542500 -0.5546281885515613 0.8133811849309782
12590000 -0.5441489959886572 0.8203046189200798
12637500 -0.5335845171104653 0.8273766365028089
12685000 -0.5228558599333759 0.8341563130709401
12732500 -0.5122002961779285 0.8405553929204048
12780000 -0.5017102097180828 0.8466504713664867
12827500 -0.4913848459496574 0.8528671837684317
12875000 -0.48081214429832875 0.8589157955161294
12922500 -0.47009773062495075 0.8646679850172888
12970000 -0.4596741498719982 0.8702046085608801
13017500 -0.44930838689709995 0.8756700597870677
13065000 -0.43888638720869044 0.8809341671592137
13112500 -0.4284204462365809 0.8859519525326196
13160000 -0.41803458405671534 0.8907682188846828
13207500 -0.40779737310860115 0.895436238010853
13255000 -0.397700530953162 0.8998182223242689
13302500 -0.3875506178765016 0.9042699289837692
13350000 -0.3774419381696053 0.9086129780986479
13397500 -0.3671675646008547 0.9126152861042519
13445000 -0.35707643976466813 0.9165471390857062
13492500 -0.34718765662438517 0.9203011469021654
13540000 -0.3372885215336147 0.9240630829462578
13587500 -0.3272045989349814 0.9276293651782612
13635000 -0.31735366906493945 0.9308068362324922
13682500 -0.30750649138899633 0.9339822182805586
13730000 -0.29806801986920134 0.9370165564202138
13777500 -0.2883838122902391 0.9401976121628925
13825000 -0.2785898977198342 0.9430537603796725
13872500 -0.26893266751689854 0.9457290992258832
13920000 -0.25955295590515326 0.9483446040311648
13967500 -0.2502059556183376 0.9508654089962462
14015000 -0.24081465629418822 0.9531860757301213
14062500 -0.2313806507860189 0.955427628123092
14110000 -0.22233403118768197 0.9575178109045832
14157500 -0.21305178646751752 0.9595717338417176
14205000 -0.20400591603779988 0.9616709160084357
14252500 -0.19481164910476906 0.9635849359445154
14300000 -0.18581098664226328 0.9651759709989521
14347500 -0.17693361523861603 0.9667438405011464
14395000 -0.16816791583249358 0.9683429245690339
14442500 -0.15935415751497495 0.9698064192313136
14490000 -0.1504459947952097 0.971279618923104
14537500 -0.14189915096159034 0.9723304887642996
14585000 -0.13339242987341557 0.9737034760604188
14632500 -0.12501705151064707 0.9748526907006841
14680000 -0.11649466711118871 0.9759151741287149
14727500 -0.1078698274882262 0.9768512061104725
14775000 -0.09967857712061691 0.9776301265512608
14822500 -0.0914453296548065 0.9783179709408832
14870000 -0.0831978807691903 0.9790251173298512
14917500 -0.07507688529638609 0.9797849939949249
14965000 -0.06704080073283009 0.9802884298181129
15012500 -0.05908326591733087 0.9805696184031938
15060000 -0.05133589292309834 0.9811496789828474
15107500 -0.043459981614941946 0.9816996159656852
15155000 -0.03553647895547307 0.9820277885907145
15202500 -0.027673617236092258 0.9820636875665637
15250000 -0.020248737400802564 0.9822774384277889
15297500 -0.01265482073599092 0.9825015139754477
15345000 -0.005028756654249671 0.982554851475143
15392500 0.0025451673933880883 0.9824764452177939
15440000 0.01000938180979148 0.982476689493565
15487500 0.01711265086737103 0.9822778641507599
15535000 0.02439579020629923 0.9823011115717148
15582500 0.031740360600881985 0.9821178612407178
15630000 0.039007646765588974 0.9818098618349463
15677500 0.04592669192682019 0.9814239056885296
15725000 0.05296806426945208 0.9811667914172241
15772500 0.06002456470110987 0.9808120013437187
15820000 0.06694893790185155 0.9803960710009766
15867500 0.07370273036748821 0.9797849498074336
15915000 0.08047315446504291 0.979269491048826
15962500 0.08712713496212694 0.9790818678076202
16010000 0.0940640836603373 0.9783892088382596
16057500 0.10064899830620677 0.9776549613028723
16105000 0.10709564098778428 0.9768624148757007
16152500 0.1135483243442197 0.97632862519769
16200000 0.12011039589376656 0.9755386124101925
16247500 0.12653708940627806 0.974697807977888
16295000 0.13295942818223633 0.9737935569085496
16342500 0.13892697976527213 0.9728826372303563
16390000 0.14510921611746622 0.9720845117436027
16437500 0.15156944676699216 0.9713026136720913
16485000 0.1577433143542239 0.9702181769342041
16532500 0.16351777949764412 0.9691932708888075
16580000 0.16943407127427207 0.9680531251063693
16627500 0.17542167906220715 0.9671687247676002
16675000 0.18164552770523548 0.966189741706609
16722500 0.1873150967339701 0.9648474245849329
16770000 0.19291886975251304 0.9637304842941725
16817500 0.19851138503670052 0.9625521697609289
16865000 0.20431742625635974 0.9616309452698846
16912500 0.21019521938872995 0.9602772244763101
16960000 0.215703639425182 0.9590248489525824
17007500 0.22111069631368932 0.957791885351909
17055000 0.2266028502160014 0.9566811233384125
17102500 0.23219032812571652 0.9552954960021002
17150000 0.23750119793743188 0.9540056538770161
17197500 0.2427718063589398 0.952448642681255
17245000 0.2478221234401906 0.9513624227380713
17292500 0.2532669848182402 0.9502002414438175
17340000 0.2586058414061927 0.9486821732856717
17387500 0.26365034288596617 0.9471156502921895
17435000 0.26876363425904287 0.9457678375019725
17482500 0.27374121402195145 0.9444160142501534
17530000 0.2788952387404534 0.9431471306290505
17577500 0.2837462366660848 0.941473862065771
17625000 0.2885375649265336 0.9398892813576105
17672500 0.2932951645205947 0.9385073268507862
17720000 0.2981600827648417 0.9372279582398586
17767500 0.30314933709045 0.9356385638591099
17815000 0.30798283372481566 0.9341213282055072
17862500 0.31247089852486126 0.932440624821857
17910000 0.3172065022625695 0.9310932669781808
17957500 0.3218435105633693 0.9297579575303324
18005000 0.3265172728020467 0.9280178573281459
18052500 0.3309888595687969 0.9263698672902237
18100000 0.3353527712755422 0.9248135721453633
18147500 0.33974350470893544 0.9233632636387084
18195000 0.3443233670877898 0.9218571069977564
18242500 0.34869938029433656 0.9200662021551513
18290000 0.3531577828773466 0.9183487353989976
18337500 0.3572420911054008 0.9170633115169308
18385000 0.36160415366973364 0.9153059841829112
18432500 0.36604831150035483 0.9136124551566491
18480000 0.3702715706081341 0.911789755269744
18527500 0.37411966547482595 0.910264108568219
18575000 0.3783214535953229 0.908652655544242
18622500 0.38246692356625117 0.9071612863342975
18670000 0.38667396070632437 0.9053689176920398
18717500 0.3906410547548742 0.9035421333514584
18765000 0.39442487137928645 0.9019719997107517
18812500 0.3984714124819746 0.9003569369410163
18860000 0.40253168813647183 0.8986448146480138
18907500 0.4063955491055158 0.8968782062512959
18955000 0.40997126586256116 0.895026101637322
19002500 0.41381815512762127 0.8935173730453999
19050000 0.41780411710358656 0.8918932347895323
19097500 0.421671051051044 0.8901019553476992
19145000 0.425316139487832 0.8882831043135082
19192500 0.4288566439169047 0.8865076625005063
19240000 0.4325743780059506 0.8849633230175084
19287500 0.4363403350636974 0.8832753041996477
19335000 0.43990891218414047 0.881284724318597
19382500 0.443345578107606 0.879616492110724
19430000 0.44683225427467277 0.8779969085309911
19477500 0.4503740839119916 0.8763165560335476
19525000 0.4541368759820781 0.8745265031610869
19572500 0.45758841340461354 0.8725370940576723
19620000 0.4607754654178996 0.8708231533416636
19667500 0.46414593797422543 0.869226569263681
19715000 0.46763383742397857 0.8675025167577518
19762500 0.4709745375227859 0.8657556264478189
19810000 0.47420271967981686 0.8637518524399981
19857500 0.47735294269626277 0.8621501469683359
19905000 0.4806685931132734 0.8605342529501516
19952500 0.4839746122691928 0.8587929019483964
20000000 0.48726825482092456 0.8569675081985082
