# HZ S RI R 50
1000000 0.9788413014562857 -0.20331174404366958
1047500 0.9770455629483001 -0.21305778731683445
1095000 0.9746300673993309 -0.22259569419066488
1142500 0.9722307918516143 -0.2321607928346532
1190000 0.9699594336755815 -0.24174355710768786
1237500 0.9674698653329915 -0.2513453393717565
1285000 0.9650747427136755 -0.2610093772188569
1332500 0.9622777720466587 -0.2707592809272006
1380000 0.9594629884119822 -0.28039199796032016
1427500 0.9564522711299369 -0.2898709617660601
1475000 0.9535676981385748 -0.2994328963705328
1522500 0.9506308646684207 -0.3091910593406479
1570000 0.9472477380303557 -0.31879752130278255
1617500 0.9438925543438005 -0.3284195856458783
1665000 0.9405503500460635 -0.3378755740154575
1712500 0.9371389631028187 -0.34762080503062515
1760000 0.9334474320758894 -0.35724202646875863
1807500 0.929596970280212 -0.36690812991198946
1855000 0.9255515688915065 -0.3763608226837639
1902500 0.9217021761313792 -0.3857948316209728
1950000 0.9177325808673662 -0.3954350499167469
1997500 0.9135674874312733 -0.40517047010720797
2045000 0.9091200777228674 -0.41473537502670715
2092500 0.9046502930000336 -0.4241090314473906
2140000 0.900154664022018 -0.43356281141126835
2187500 0.8956610755506651 -0.44327784857586516
2235000 0.8905645243209054 -0.4528337028647467
2282500 0.8855308434596941 -0.46225075209730226
2330000 0.8805420607555625 -0.4716102969410758
2377500 0.8755532003258327 -0.481130947584559
2425000 0.8702657928714351 -0.49074672035825945
2472500 0.8646817917649531 -0.5003007675375527
2520000 0.8590873654306829 -0.5095272610874355
2567500 0.8535637132336581 -0.518831306139827
2615000 0.8477640248769527 -0.5283911220230103
2662500 0.8417552556643093 -0.5378700589091466
2710000 0.8355288465095371 -0.5471068578097871
2757500 0.8291846884813011 -0.556387584009898
2805000 0.823134465413907 -0.5655199675819457
2852500 0.8165784802467333 -0.5749701616678091
2900000 0.8098446379457793 -0.5843198423086648
2947500 0.8030031324660579 -0.5933544537081861
2995000 0.7961853069157756 -0.6025083041944153
3042500 0.7892037703634169 -0.6117912549344751
3090000 0.7820337339814473 -0.6210270114292608
3137500 0.7743130504336541 -0.6302304846359731
3185000 0.7667798417378349 -0.6391142941622747
3232500 0.7593039936944487 -0.6480878143473708
3280000 0.7515108136983111 -0.6570954325382579
3327500 0.7435175436667104 -0.6661849388928818
3375000 0.7353433992794259 -0.675126986061145
3422500 0.7270521865737858 -0.6838787079617864
3470000 0.7187440699875838 -0.6927033089800013
3517500 0.7100902527872358 -0.7016294216942267
3565000 0.7012536227821783 -0.7103500091650646
3612500 0.6921777130749986 -0.7190516655089619
3660000 0.6832374842768076 -0.7274461940708178
3707500 0.6739819049799115 -0.7360983479492388
3755000 0.664533640126256 -0.744624464538118
3802500 0.6547286342609606 -0.752852857883996
3850000 0.6451665797280478 -0.761231493481946
3897500 0.6353631343017124 -0.7695311220932394
3945000 0.625120125615535 -0.7778799256376505
3992500 0.6147251977239951 -0.7860000096793575
4040000 0.6040736861072082 -0.7938646614981507
4087500 0.5936797298446499 -0.8016528960461675
4135000 0.5828805922421758 -0.8095945560600519
4182500 0.5717996638441223 -0.8174849183598143
4230000 0.5605065881613673 -0.8250310093970781
4277500 0.5491717738024399 -0.8325154575217064
4325000 0.5377260296782264 -0.8399286031602503
4372500 0.526182825177423 -0.8475377166382276
4420000 0.5138269454780285 -0.85463016335161
4467500 0.5017711404018953 -0.8616588582474493
4515000 0.48950425174651635 -0.8684524067971422
4562500 0.4771451697003724 -0.8754483018277411
4610000 0.46452295941327265 -0.8822990200443298
4657500 0.4516096874352238 -0.8887234773988176
4705000 0.438465298843203 -0.8949998303177392
4752500 0.42533023611969833 -0.9012347042061397
4800000 0.411981051337944 -0.9076520362787108
4847500 0.398202496290681 -0.9134405138318751
4895000 0.38434037309965374 -0.9192108286019421
4942500 0.3704602450465889 -0.924638337723433
4990000 0.356444043337104 -0.9301953717916747
5037500 0.3421088257402094 -0.9355825570432484
5085000 0.3276272874350659 -0.9406555452822184
5132500 0.31288274025888135 -0.9453779015958166
5180000 0.2979882495099065 -0.9502195523178689
5227500 0.28277752631142805 -0.9547345447123281
5275000 0.2675845586759526 -0.9591058891205141
5322500 0.2520755415218548 -0.9629957378815709
5370000 0.2365844139843144 -0.9668818282335601
5417500 0.22085181114286095 -0.9702697078207
5465000 0.20499581915461254 -0.973769011119789
5512500 0.1889419740591237 -0.9770111690541529
5560000 0.17263253402376466 -0.9796421026846064
5607500 0.15633229396252513 -0.9824560665179217
5655000 0.13981546871174874 -0.9849190556148736
5702500 0.12303251436612506 -0.9871414803282893
5750000 0.10600721360264975 -0.9887456451751612
5797500 0.08908903106198797 -0.9903319761230281
5845000 0.07215742331078472 -0.9916014383435712
5892500 0.054864179796563245 -0.9927679909661948
5940000 0.03729519394753639 -0.9933379226713674
5987500 0.019772978443470694 -0.9937507564707712
6035000 0.0021574858657073897 -0.9935849790363692
6082500 -0.015506115795906359 -0.9936813131440514
6130000 -0.033465932873226946 -0.9931120615179582
6177500 -0.05151900081364566 -0.9922667007215283
6225000 -0.06972189277841805 -0.9907906572168268
6272500 -0.08754861551430593 -0.9892103654963209
6320000 -0.10584795870642506 -0.9875239077001801
6367500 -0.12409528614687769 -0.9851895890768929
6415000 -0.14260432231977227 -0.9825714375432426
6462500 -0.16096326643860176 -0.9794482917587353
6510000 -0.17942269113525824 -0.9761568289015804
6557500 -0.19790892394257012 -0.9725907026106965
6605000 -0.21670223046708395 -0.9685940504708342
6652500 -0.23513948258363263 -0.9637584431362571
6700000 -0.2535839596510678 -0.9590021966771737
6747500 -0.27210979376753863 -0.9537680029919563
6795000 -0.29081547636742766 -0.948302206525091
6842500 -0.30946554367396084 -0.942154623029522
6890000 -0.32790993341811214 -0.9356258531380311
6937500 -0.34632788552086136 -0.9288607353464379
6985000 -0.3647716620103513 -0.9218626156374756
7032500 -0.3833542725146181 -0.9141550736370919
7080000 -0.4016271983403018 -0.9060968845784301
7127500 -0.4197700029117404 -0.8974873514693865
7175000 -0.43780105853774026 -0.8887449227645473
7222500 -0.4558010306969203 -0.879522343667884
7270000 -0.4739305394747667 -0.8698218765715542
7317500 -0.4915978033275612 -0.8595897373419851
7365000 -0.509063707549502 -0.8492285473526627
7412500 -0.5265635731843418 -0.8383892735746966
7460000 -0.544136225825977 -0.827037498165091
7507500 -0.5611683257341147 -0.8153422787618534
7555000 -0.5780331033606019 -0.8032239972902134
7602500 -0.5946915774606745 -0.7906962797584334
7650000 -0.6111465808197212 -0.7778961370888565
7697500 -0.6276020597758575 -0.7648078702137964
7745000 -0.6435410495066686 -0.7511204915711446
7792500 -0.6592992564418833 -0.7371019992633372
7840000 -0.6747105271246733 -0.7227935499043618
7887500 -0.6900328725199073 -0.7080848861589191
7935000 -0.7050961836163878 -0.6929476648517409
7982500 -0.7198045151972218 -0.6774082105619269
8030000 -0.7338611041855021 -0.6617413875257069
8077500 -0.7479483396296187 -0.645748613952683
8125000 -0.7616511984013092 -0.6295921156567635
8172500 -0.7750049495268672 -0.6125594619659173
8220000 -0.7880483564111003 -0.5955850954234311
8267500 -0.8006314903809536 -0.5783342543931067
8315000 -0.8128639289595757 -0.5609532128153247
8362500 -0.824913760786173 -0.5430431292423777
8410000 -0.8364048301042284 -0.5248343032548604
8457500 -0.8473314144189501 -0.5065215516630955
8505000 -0.8580074745493872 -0.48809951583701056
8552500 -0.8684169937410805 -0.4692969436271682
8600000 -0.8783819526448461 -0.4501911246193254
8647500 -0.8878414004913042 -0.4309428986612892
8695000 -0.8967020163375715 -0.4116693719403114
8742500 -0.905364421800914 -0.3923114993710104
8790000 -0.9136613140793401 -0.3726407361512659
8837500 -0.9214796125153726 -0.352595154056764
8885000 -0.9286935275190055 -0.33258005395241047
8932500 -0.9354374583962555 -0.3127517136761937
8980000 -0.9420364813171991 -0.2927267381838513
9027500 -0.9481485691792372 -0.2722953992839103
9075000 -0.9535658214399023 -0.25180691556306883
9122500 -0.9585386004213178 -0.23153162859207113
9170000 -0.9632580607523357 -0.21129004349386565
9217500 -0.9676624154218368 -0.19082316992899748
9265000 -0.9714473623039958 -0.17022763594802695
9312500 -0.9746096294861262 -0.14962999881357192
9360000 -0.9774413796195245 -0.1293757060326618
9407500 -0.9800242495102336 -0.10903662839705963
9455000 -0.9819518136829871 -0.08851380253482465
9502500 -0.9837541206867394 -0.06798603733994804
9550000 -0.9847005363419696 -0.047763744959378435
9597500 -0.985512827202162 -0.02762227160716694
9645000 -0.9859591063208862 -0.007495645235375529
9692500 -0.98598389419828 0.012764542488784942
9740000 -0.9853567835270322 0.03278007069140938
9787500 -0.9843702670536445 0.052468978542082545
9835000 -0.9833098466376053 0.0719833667918695
9882500 -0.9817818804326965 0.09179047673915468
9930000 -0.9797710866151614 0.11140280506212615
9977500 -0.9772145030637843 0.13070267514059936
10025000 -0.9743896048383842 0.1495933337503232
10072500 -0.9714675453138124 0.1686444900383253
10120000 -0.9680497434541185 0.18766201915215458
10167500 -0.9640937619472209 0.2063960616810832
10215000 -0.9598360614159298 0.22457261783785068
10262500 -0.9555790151728202 0.24257791208282037
10310000 -0.9509693507629604 0.26070022374252033
10357500 -0.9458287850700376 0.2787783913451185
10405000 -0.9404249455162335 0.2963215677911513
10452500 -0.9347731688965716 0.31346514269089804
10500000 -0.9289657529427151 0.33050488338987444
10547500 -0.9228453373084532 0.3475826399203065
10595000 -0.9163044596969365 0.3643638342155043
10642500 -0.909405763260044 0.3806791540185
10690000 -0.9025836811310662 0.3966424637615907
10737500 -0.8956540317872711 0.41271812416576187
10785000 -0.8882828929567695 0.4286221020070345
10832500 -0.8804462873716907 0.4441652718130791
10880000 -0.8724944961423268 0.4590636338331073
10927500 -0.8646333210250567 0.47399072534870595
10975000 -0.8564876424780983 0.48875201047660594
11022500 -0.8480349060693636 0.5033768780215188
11070000 -0.8392594797190027 0.5172825570372732
11117500 -0.8306367073845602 0.5311195997576066
11165000 -0.8219135867894116 0.5446336738056926
11212500 -0.8128816144567456 0.5583621336561351
11260000 -0.8035471084250088 0.5714984904766663
11307500 -0.7942062276699519 0.5844139829487285
11355000 -0.7847232185344467 0.5967643445111909
11402500 -0.7751524440324461 0.6092489068030023
11450000 -0.7656065332293612 0.6214705452522832
11497500 -0.7556401070058227 0.6332415993353078
11545000 -0.7457502839385756 0.6445263090482453
11592500 -0.7361174593605995 0.6557961083596371
11640000 -0.7260724208153603 0.6670454779606868
11687500 -0.7157814586829193 0.6779933646404323
11735000 -0.7055142871451567 0.6883718261718171
11782500 -0.6954485642126486 0.6983766852481545
11830000 -0.6852289027462544 0.7086590638380555
11877500 -0.6747534632893024 0.718724505193286
11925000 -0.6641247331826247 0.7282047412182442
11972500 -0.6537349158560508 0.7372924806092356
12020000 -0.6434638602825572 0.7463664278258771
12067500 -0.6329704234121045 0.7555978726812466
12115000 -0.6223298729233303 0.7642848197001707
12162500 -0.611790008786872 0.7724056593356343
12210000 -0.6012410012399888 0.7805333011534695
12257500 -0.5906933382812773 0.7886795341559063
12305000 -0.5799974832762841 0.7965933625523743
12352500 -0.5692394130725067 0.8041036536523222
12400000 -0.5586787496272597 0.811332463633902
12447500 -0.5482598631086598 0.8184962509593864
12495000 -0.5375521813781006 0.8256166953125543
12542500 -0.526750025705909 0.8324572231708265
12590000 -0.5161835483113908 0.8387764654031862
12637500 -0.5058250472214441 0.845064871840871
12685000 -0.4953134302431231 0.8512961799954101
12732500 -0.4846784139301544 0.8574025093216695
12780000 -0.47406847257741275 0.863079214868674
12827500 -0.463819706371313 0.8685751989334398
12875000 -0.4534872740796928 0.8740833069232377
12922500 -0.44294981281600804 0.8794394320690815
12970000 -0.43252943535853405 0.8846241699729579
13017500 -0.4221395701201459 0.889549852995408
13065000 -0.41192950478190427 0.8941248185312605
13112500 -0.4016174008090697 0.8987155466669156
13160000 -0.39147600525300424 0.903435654013737
13207500 -0.38115494913320186 0.907609929513243
13255000 -0.3711632564387417 0.9115056449305219
13302500 -0.3612886051204437 0.9155670689091131
13350000 -0.3512831155362207 0.9196150298908946
13397500 -0.3412659803971961 0.9233278086713463
13445000 -0.33107254591369756 0.9268812967069111
13492500 -0.3213782441002759 0.9301215392741565
13540000 -0.3117183998108961 0.9335920138251098
13587500 -0.3018028628033742 0.9368017827159123
13635000 -0.29196707224656177 0.9397416482715842
13682500 -0.28235043936885834 0.9424396873598953
13730000 -0.27302106219356276 0.9451396989348403
13777500 -0.263635861772172 0.9480201528465442
13825000 -0.2540377705426 0.950665148088352
13872500 -0.24444901407593916 0.9528990178311074
13920000 -0.23513819177010714 0.9551240630826784
13967500 -0.2260786857128323 0.9572989368125437
14015000 -0.21687588721342335 0.9595691136357543
14062500 -0.20763983645733897 0.9614875932108164
14110000 -0.19856629093716743 0.9632462435259561
14157500 -0.18951939501268114 0.964921831538057
14205000 -0.1808203412652746 0.966698116350749
14252500 -0.17190205357929314 0.9684848795872267
14300000 -0.16298550629414663 0.9698126494077965
14347500 -0.1542464326426012 0.9711294755733806
14395000 -0.14570184197846645 0.9724190017994434
14442500 -0.1372092846601113 0.973676597443922
14490000 -0.12832394184309084 0.9749899166434682
14537500 -0.11993597806618134 0.9758583619250248
14585000 -0.11165198699890846 0.9768761623195497
14632500 -0.10350824693637853 0.9778120738341287
14680000 -0.09514089847125538 0.9787689203563475
14727500 -0.08664290357131398 0.9795860539517162
14775000 -0.07858736409918252 0.9800299578449336
14822500 -0.07056542245017065 0.9805821305325358
14870000 -0.06259996236283358 0.98107291909904
14917500 -0.05457502626710547 0.981710253809681
14965000 -0.046531769644729694 0.9820168860437483
15012500 -0.03883755778012954 0.982126676185868
15060000 -0.031226596846658412 0.9824771351092757
15107500 -0.023615819392500115 0.9828165755359985
15155000 -0.015892606029326545 0.9830722561013377
15202500 -0.008130514727015434 0.9829136510796116
15250000 -0.0008722669177401689 0.9829284484635477
15297500 0.006491003161849852 0.9829019332879755
15345000 0.013979027082727942 0.9830205882194013
15392500 0.0214432253464675 0.9827766325432467
15440000 0.028640579937681317 0.9825506996410354
15487500 0.03550088354769063 0.9822392980591205
15535000 0.042498471581319565 0.9821940445436381
15582500 0.04982642998500269 0.981903741875494
15630000 0.056963225660511714 0.9814311079661568
15677500 0.06370252102494696 0.9808528763511833
15725000 0.07048761743338544 0.9804117518724192
15772500 0.07726951354933909 0.9801182368056108
15820000 0.08416104280649868 0.9795399273792522
15867500 0.09083265792742289 0.9787893810733144
15915000 0.09736349435361533 0.9779892785449844
15962500 0.10366449206449475 0.9777504950829722
16010000 0.1105850168286294 0.9770844659790525
16057500 0.11716208280712359 0.976140062877671
16105000 0.12346534914349258 0.9752851034876825
16152500 0.12954763562563434 0.9745621501566708
16200000 0.13596492600798712 0.973968657120116
16247500 0.1423356765267492 0.9729286565544468
16295000 0.14858013244365714 0.9719457560790078
16342500 0.15454730505378936 0.971056553925556
16390000 0.16039010897687256 0.9702900368095783
16437500 0.16676606209678366 0.9694077256452264
16485000 0.17281107234757528 0.9682954018012553
16532500 0.17847070040423807 0.9671501912291398
16580000 0.18422721960115127 0.9661182672404879
16627500 0.1901236438969014 0.9651677308395329
16675000 0.1960693938693026 0.9640834006496469
16722500 0.2017540053777059 0.9626415786852993
16770000 0.20721894196994486 0.9614392715273041
16817500 0.2126223187516688 0.9602507596490821
16865000 0.21824004608314088 0.9592511717189324
16912500 0.22400701244226312 0.9578835004691402
16960000 0.22930263512946586 0.9564586391979509
17007500 0.23464251770433828 0.9552624366806848
17055000 0.23995574784038054 0.9540441236074694
17102500 0.2454778417148625 0.9526456120220506
17150000 0.2507129346140573 0.9512146246188417
17197500 0.2558371307455932 0.949715933980346
17245000 0.26069316127016756 0.948487279396883
17292500 0.2660285635280849 0.9473867530129465
17340000 0.27125702742002605 0.9458147097052791
17387500 0.27620530261554244 0.9442880564661551
17435000 0.28119757105301957 0.9428769713943178
17482500 0.2859913106889244 0.9414196628759056
17530000 0.2910118823860371 0.9401148475323812
17577500 0.29588980855161834 0.9385582549413477
17625000 0.3005436662816662 0.9367818835456306
17672500 0.3051741852968102 0.9353216671242436
17720000 0.30992536982138624 0.9340835283581982
17767500 0.31486499630941917 0.932526050798845
17815000 0.3195143270320588 0.9308596053630338
17862500 0.32396480232010305 0.9291103164657945
17910000 0.3284542440353473 0.9277614111211636
17957500 0.3331249824153614 0.9263699969875793
18005000 0.33770366981040223 0.9246172899914524
18052500 0.342031365931247 0.9229582230762111
18100000 0.3462291671462121 0.9213171103175407
18147500 0.35059014229672825 0.9199134714036876
18195000 0.35514603856807414 0.9183800309922764
18242500 0.359351867729028 0.9165544270053686
18290000 0.36368659382391966 0.9148635986336952
18337500 0.36759299481104746 0.9133931828531885
18385000 0.371965458451421 0.9117190824839775
18432500 0.37627044006710986 0.9101480317058613
18480000 0.38037570087356815 0.9081591612858266
18527500 0.3841869604597001 0.9066728975594954
18575000 0.38818641132657195 0.9050795481644255
18622500 0.3921884197938969 0.9035314709664259
18670000 0.396306463982385 0.9017855872297409
18717500 0.400260670709212 0.8999826072451105
18765000 0.4039790449855393 0.8983626420428207
18812500 0.4078915084134092 0.8967474130679443
18860000 0.411889027144931 0.8950399363039434
18907500 0.4156570868512055 0.8932505129818892
18955000 0.4192286148934623 0.8914520954109639
19002500 0.4228641319030887 0.8898488002801499
19050000 0.42681192447028476 0.8883210392105567
19097500 0.4305144287590056 0.8864173749273443
19145000 0.4342091281171443 0.884639704711759
19192500 0.4376824011196221 0.8828623424345987
19240000 0.441223379892986 0.8812409485009807
19287500 0.44494881433388805 0.8795290399548595
19335000 0.4484848509215222 0.8775442193873717
19382500 0.45181961136360577 0.8758289658249254
19430000 0.45526072398631784 0.8742691920618423
19477500 0.4587232462155552 0.8726386683137403
19525000 0.4623126298568504 0.8708036962308012
19572500 0.46570130067170334 0.8687847552577413
19620000 0.4688365947899182 0.8671211202992177
19667500 0.4720534039918615 0.8654423806702216
19715000 0.47558534567487665 0.8637266370386918
19762500 0.47884272146632373 0.8620308133305329
19810000 0.4820072896599219 0.8600162960431336
19857500 0.48508548913601734 0.8584300551944204
19905000 0.4883753165588699 0.8567617490531579
19952500 0.49154663430975315 0.85509294781316
20000000 0.49449142233694643 0.8534231406591801
