# HZ S RI R 50
1000000 -0.9454972141207023 0.20680132536838725
1047500 -0.9433241722014012 0.21630847327378355
1095000 -0.9409886630518854 0.22567179656403016
1142500 -0.9386105818817955 0.23505761244097223
1190000 -0.9361899733408133 0.24431555584226747
1237500 -0.9336765127728079 0.2536105763512391
1285000 -0.9310117367481241 0.2629306794512246
1332500 -0.9282158345687228 0.2720717114384975
1380000 -0.9254457443420678 0.2812642938886291
1427500 -0.9224740913571274 0.29035921700199824
1475000 -0.9196285710263131 0.2994870772956443
1522500 -0.9164422857048939 0.30862138584204396
1570000 -0.9132869869069092 0.3175722087429708
1617500 -0.9100067716885964 0.3263024431862911
1665000 -0.9067506423831845 0.3353276724682099
1712500 -0.9034402741844354 0.34414469976085166
1760000 -0.8998481417679598 0.3530411618878943
1807500 -0.8963262039136822 0.3617611103725559
1855000 -0.8927162335005082 0.37037994741833624
1902500 -0.8891309819866182 0.37899205669140396
1950000 -0.8853134226431999 0.38770591232071716
1997500 -0.881391681433672 0.39631280162764804
2045000 -0.8773997566237691 0.4046497637361974
2092500 -0.873484720571742 0.4130012842168825
2140000 -0.8695952264365122 0.4214464008922819
2187500 -0.8653505954365669 0.42990872754836845
2235000 -0.8610560417768507 0.43817952768838014
2282500 -0.8567889462103749 0.44622842136542273
2330000 -0.852536770966044 0.45433616573717805
2377500 -0.8481621196475857 0.4624319467513222
2425000 -0.843711269924283 0.47055781388130147
2472500 -0.8389834587084584 0.47845616885960746
2520000 -0.8344527647512341 0.4861954952409044
2567500 -0.8299188912571938 0.49404968774321184
2615000 -0.8252193863200439 0.5019863936908028
2662500 -0.8203746977030997 0.5096811089631492
2710000 -0.8154780831596963 0.51724864884132
2757500 -0.8106473562659323 0.5246890722128783
2805000 -0.805763298903985 0.5322908591380514
2852500 -0.8006722117345828 0.5398996750763324
2900000 -0.7955150197259465 0.5472185104302797
2947500 -0.7904791314709166 0.5543547506675551
2995000 -0.785471828780097 0.5616117288647371
3042500 -0.7803505680951772 0.5688907149762055
3090000 -0.7749270155977271 0.5760364450481712
3137500 -0.7695587654019155 0.5829431985466738
3185000 -0.7642983304925866 0.5898803755830052
3232500 -0.7589167053953454 0.5968695424494734
3280000 -0.7533655545924871 0.6037860660475342
3327500 -0.7478757571418005 0.6104696607718687
3375000 -0.7423796812135729 0.6171179678012095
3422500 -0.7369216606993879 0.6236529600458147
3470000 -0.7313764470328399 0.6303895439736734
3517500 -0.7255535339809479 0.6368955446499007
3565000 -0.7197708290624092 0.6432185629306281
3612500 -0.7141808060009368 0.6494661473593264
3660000 -0.7085304645058323 0.6557527757210742
3707500 -0.7027574431950782 0.6620929944936663
3755000 -0.6966799553003012 0.6682107096513978
3802500 -0.6908052013084689 0.6742149823371147
3850000 -0.684898481572051 0.6800213812382054
3897500 -0.6792226142133219 0.6859519272868182
3945000 -0.6730605482591354 0.6920526462008161
3992500 -0.6669663820252693 0.6976842521106404
4040000 -0.6609947318165054 0.7033138500624646
4087500 -0.6551263987515565 0.7089539249201666
4135000 -0.6489880318863934 0.7147146240446344
4182500 -0.6427345397881191 0.7201481927899771
4230000 -0.6366188168986661 0.7253885885499238
4277500 -0.6305325361310073 0.7306671966507098
4325000 -0.6245171755579396 0.7360411074048712
4372500 -0.6182278338180109 0.7413253844718302
4420000 -0.6118921856377201 0.7464950311843211
4467500 -0.6056652788977657 0.7513520434850453
4515000 -0.5996501228539137 0.7564598817213299
4562500 -0.5934654533685959 0.761400211507077
4610000 -0.5869040597842172 0.7662141328861055
4657500 -0.5805598789629973 0.771048736332654
4705000 -0.5743856132240323 0.7756241693897661
4752500 -0.5682186418464856 0.7802587641165408
4800000 -0.5619148918551423 0.7849088033869
4847500 -0.5554393871834886 0.7895191263253872
4895000 -0.5490399525405454 0.7938381931818264
4942500 -0.5427429578187082 0.798197608123223
4990000 -0.5363537800731448 0.8024306598528759
5037500 -0.5298570770615242 0.8068426265480463
5085000 -0.5233159247294016 0.8109533481063906
5132500 -0.5170847378502996 0.8149512422929602
5180000 -0.5107966985347662 0.818985871835914
5227500 -0.5046417181262496 0.8230845758944453
5275000 -0.49796948819701564 0.827138098457714
5322500 -0.49137955557968893 0.8308431807109103
5370000 -0.485004802409964 0.8344986901219807
5417500 -0.4787625671342054 0.8382440334427015
5465000 -0.4723686914502476 0.8420381564848802
5512500 -0.4657238756138024 0.8456281481298179
5560000 -0.45935501207943885 0.8490001334910264
5607500 -0.45304430175365656 0.8523817033989228
5655000 -0.44673408026736894 0.8558445951489511
5702500 -0.44025548966153766 0.8593795131980506
5750000 -0.4337375936072208 0.8626182425727571
5797500 -0.427206738587475 0.8657086537730274
5845000 -0.42090267278727495 0.8687208479729044
5892500 -0.4145614159811916 0.871972281338698
5940000 -0.40807484396660754 0.8751495192197917
5987500 -0.4015523847294488 0.8780244992591602
6035000 -0.39527014840964264 0.8808126333487102
6082500 -0.38907141388074257 0.8837551317587037
6130000 -0.3826442232416834 0.8866562384437602
6177500 -0.3762081689685445 0.8894352462226055
6225000 -0.36979398343044056 0.8919964489981634
6272500 -0.36342625645933807 0.8946241351905229
6320000 -0.3571757315451293 0.8971684868216708
6367500 -0.35066333135548416 0.8999290217137632
6415000 -0.3443098920098632 0.9022301848012309
6462500 -0.33806978210478666 0.9045233331408487
6510000 -0.33206680217365203 0.9067659401318638
6557500 -0.3257499200938392 0.9094252658351248
6605000 -0.31930570153990506 0.9117021188616566
6652500 -0.3128896092125884 0.9138197906130455
6700000 -0.30681678281468233 0.9158908242826922
6747500 -0.30065865040431067 0.9181813571149874
6795000 -0.2944556432425901 0.920209797306771
6842500 -0.28801061843168413 0.9220438875805296
6890000 -0.2818851813836236 0.9239061777350147
6937500 -0.2759189837278265 0.9258905399320696
6985000 -0.2697325442219481 0.9277547557393939
7032500 -0.26360404689211014 0.9295968718491693
7080000 -0.25727964930275393 0.9312344427820682
7127500 -0.25138086244511354 0.9328935049992556
7175000 -0.2452919044888561 0.934646319786448
7222500 -0.23903411195266497 0.9364058928554383
7270000 -0.23307481636545307 0.937808002855461
7317500 -0.22701739226025994 0.9391382552292653
7365000 -0.22093153432967821 0.9407435653662235
7412500 -0.2152339989743216 0.942254016079878
7460000 -0.20914858045088575 0.9436882913022188
7507500 -0.2029482743412456 0.9449404739522523
7555000 -0.19701228009212043 0.9462134684002115
7602500 -0.19121442635915967 0.9475984885589951
7650000 -0.18533211623187543 0.9489309076694135
7697500 -0.1792072557467754 0.9498045243884788
7745000 -0.1734453258403414 0.9510042559680164
7792500 -0.16761395881966024 0.9520414401522945
7840000 -0.16192271998351904 0.953274208111469
7887500 -0.1561810717758567 0.9543023446560422
7935000 -0.15021288493087684 0.9551080478292443
7982500 -0.1445422544565749 0.9560307949290108
8030000 -0.1388082594995678 0.9570583246926613
8077500 -0.1331970808736626 0.9578324134394214
8125000 -0.12737567080163642 0.9588226421378375
8172500 -0.12195568309510678 0.9597463032497318
8220000 -0.11618970083539756 0.9603889905619482
8267500 -0.11059339095729129 0.9610376347621366
8315000 -0.10472459274191244 0.9617084681783777
8362500 -0.09922087312236717 0.9622965993557329
8410000 -0.09362590963200708 0.9627331561753496
8457500 -0.08815385045249749 0.963290306728599
8505000 -0.08267876158249143 0.9639369752622121
8552500 -0.0772413231080248 0.9646681856365878
8600000 -0.07150887454648651 0.9651339817395501
8647500 -0.06611815830319862 0.9654421997732437
8695000 -0.06086041343456008 0.9658206520413001
8742500 -0.055395560553220764 0.9663295171912336
8790000 -0.04996449112330103 0.9665272395620954
8837500 -0.04458083859242985 0.9667937967492871
8885000 -0.03941770117990762 0.9671485256309875
8932500 -0.0341097640301256 0.9675233812293329
8980000 -0.02872963896787233 0.9677605466329842
9027500 -0.02346970241714891 0.9679338654302327
9075000 -0.01816092571377487 0.9679208436660527
9122500 -0.013015589794872806 0.9681914689082977
9170000 -0.00791200920512668 0.968410074239147
9217500 -0.002595902339110748 0.9685234991302033
9265000 0.0025592949311426996 0.9684677629297673
9312500 0.007642988340836024 0.9684308899198186
9360000 0.012483568453378592 0.9684516253538433
9407500 0.01763972596227008 0.9685759083217583
9455000 0.022808652433162227 0.9683650792439975
9502500 0.02788487865219654 0.9684073543896314
9550000 0.03281171533387849 0.9682575214326048
9597500 0.03778528966026718 0.9681592164719429
9645000 0.042674721505743675 0.9680964583283139
9692500 0.0476673815831047 0.9679246855054846
9740000 0.05257771719467306 0.9675772373367406
9787500 0.05729013918716994 0.9674236252704977
9835000 0.06223171509817873 0.9672250593906575
9882500 0.06714944604933423 0.9669731350864458
9930000 0.07199603897266682 0.9666529901923131
9977500 0.07674626930213113 0.9663155857265893
10025000 0.08135271416971655 0.9661301448386795
10072500 0.0863253011074046 0.9656424002650019
10120000 0.0909782626275519 0.9651826262798512
10167500 0.09569906631716577 0.964831568631479
10215000 0.10029094592344953 0.9644476755379662
10262500 0.10477518346102781 0.9642404250567336
10310000 0.10931304435398234 0.963687383826372
10357500 0.11421880155256095 0.9633047499874287
10405000 0.11867431568028043 0.9627854167573292
10452500 0.12312695928482187 0.9622469672606452
10500000 0.1276888554362596 0.9618303642375633
10547500 0.13221510024804575 0.9612293258986135
10595000 0.13665002114933456 0.9607805998216322
10642500 0.14102037267618242 0.9600148321997145
10690000 0.1453490722379797 0.9595171546281399
10737500 0.1499871873548885 0.9591209279790583
10785000 0.15444187985914865 0.9585433198494903
10832500 0.15880935815880273 0.9577616620463018
10880000 0.16297591754581423 0.9569772367978806
10927500 0.16732563538555692 0.9563501699614552
10975000 0.17154027249835016 0.9555296711071933
11022500 0.17580438985660765 0.9549977451698578
11070000 0.17999049323386584 0.9540718742968652
11117500 0.18417122719809356 0.9535974765038933
11165000 0.1884002777023183 0.9527211917840934
11212500 0.19270876624115083 0.9521352492984654
11260000 0.1968300162592472 0.951273210255875
11307500 0.20095642766697452 0.9504355175700611
11355000 0.2050534687635122 0.9495218595934121
11402500 0.20926061215083014 0.948735851916887
11450000 0.21334093303061083 0.9479835644813804
11497500 0.21722617353442827 0.9470020502143908
11545000 0.22126234702201458 0.9461006831320582
11592500 0.22509341279525957 0.9454291185751234
11640000 0.22923177585760907 0.9446040025180202
11687500 0.23317600199087718 0.943718210201247
11735000 0.2371724733097921 0.9426903568858352
11782500 0.24097177572401957 0.94180453077345
11830000 0.24483775408512107 0.9408292899680077
11877500 0.24878898439220948 0.9399227370894336
11925000 0.2525931153477879 0.9389269491039228
11972500 0.25632331915518014 0.9378821830449182
12020000 0.2601436991410664 0.9370888272334326
12067500 0.2639985087219761 0.9362755196412987
12115000 0.2677361160042601 0.9351282400927319
12162500 0.2713734663335981 0.9341132815508683
12210000 0.27506153730268795 0.9329624821628347
12257500 0.2787878474596942 0.9321175406692287
12305000 0.28247236022612343 0.9310542281709888
12352500 0.2862632493972732 0.929973273075904
12400000 0.289797606165098 0.9289323852335954
12447500 0.29328347909146024 0.92793625997452
12495000 0.2970404546360468 0.9269677304754992
12542500 0.30068508804723937 0.9259015092030266
12590000 0.30420158756367716 0.9246911814600918
12637500 0.3076684196673745 0.9237972725604501
12685000 0.3111356587587423 0.9225110191790297
12732500 0.3147454044118117 0.921547408025922
12780000 0.31818286702033505 0.9202784531465688
12827500 0.3215897054295476 0.919324486689157
12875000 0.3249542118323197 0.9180584556701316
12922500 0.3283764087650233 0.9168813446949717
12970000 0.33178928361482596 0.9158707516928787
13017500 0.33521404896786666 0.9147064515615011
13065000 0.3385756685209034 0.9134757294596433
13112500 0.34190636841590677 0.9121363021047616
13160000 0.3451975038041379 0.9111741252793719
13207500 0.3485188249325902 0.9099361387844545
13255000 0.35161543990209204 0.9085333380063008
13302500 0.35483763079086933 0.907533575045022
13350000 0.3581526667421813 0.9064445547827632
13397500 0.3613703087174377 0.9053892088655536
13445000 0.3648586230218339 0.9040164449643319
13492500 0.3679132882582569 0.9027655837974904
13540000 0.37091681851517616 0.9015685002761551
13587500 0.37412240093134025 0.9004945612154209
13635000 0.37740603870581524 0.8991429459927587
13682500 0.38045084864960266 0.8977315580525134
13730000 0.3833554563168083 0.8965398581426517
13777500 0.38637641973224585 0.8955173647648754
13825000 0.389664296401075 0.8942486698031946
13872500 0.3927631208044227 0.8929454112148921
13920000 0.3958300827686647 0.8915871707551595
13967500 0.39859597161302734 0.89043027889376
14015000 0.4015986003039953 0.8891061546125858
14062500 0.40469407414052816 0.8878641818187923
14110000 0.40765519889793356 0.8864947486445455
14157500 0.4105512970696635 0.8851336302558315
14205000 0.41342064681148866 0.8839642792495234
14252500 0.41637840133959414 0.8829647095573261
14300000 0.4194089330745103 0.8814001942347651
14347500 0.42219152349369643 0.8800597774767336
14395000 0.42498460446839353 0.878777512780466
14442500 0.4277455135955094 0.8776217774622304
14490000 0.4307279458616294 0.8763379706589345
14537500 0.4334215307315171 0.874880492109556
14585000 0.43626055280237214 0.8736101337066751
14632500 0.43889959935441797 0.8723835732382964
14680000 0.4416943317715649 0.8712029191886279
14727500 0.44463822718152823 0.8698823578481941
14775000 0.4473473376882468 0.868395381703749
14822500 0.44988300028635864 0.8670347090222785
14870000 0.4525569716444004 0.865743945478007
14917500 0.4553740828555388 0.8644895505946337
14965000 0.4580868172126539 0.8632279548819991
15012500 0.4606664208804095 0.8617320472180235
15060000 0.4631185002702352 0.8605451323678907
15107500 0.46584518097311806 0.8593322762415709
15155000 0.46854672249591256 0.8579955448530128
15202500 0.47120541432575924 0.8564436458962902
15250000 0.47365814916273813 0.8551565173872838
15297500 0.4761945867175236 0.8538905057689287
15345000 0.47887001946443025 0.8526555075250197
15392500 0.4813688976573818 0.8512401358021523
15440000 0.48399655699139615 0.8498211969374936
15487500 0.48630007321616053 0.8485239818176726
15535000 0.48878196675206587 0.8472592158788528
15582500 0.49137417094621194 0.8460029532011883
15630000 0.4939110116725936 0.8444857165749338
15677500 0.4961738482599587 0.8429539035283659
15725000 0.498659661707324 0.8416814626706466
15772500 0.5010895004269381 0.8404528397446326
15820000 0.50348952885631 0.8390407268982996
15867500 0.5057639667912822 0.8374849038582498
15915000 0.5080485616183636 0.8360711495476314
15962500 0.5104508538810325 0.8349838990929491
16010000 0.51299373397042 0.8335618592727106
16057500 0.5153869459806268 0.832146585386749
16105000 0.5176155363998151 0.8306196133492736
16152500 0.519790082584458 0.8295023827463468
16200000 0.5222591195785774 0.828122068403309
16247500 0.5245397164479559 0.8266744299047434
16295000 0.5269265275928631 0.8251998699841078
16342500 0.5289362651449138 0.8238349404173189
16390000 0.5310832715850116 0.822722067541579
16437500 0.5335990044959384 0.8212829443436427
16485000 0.5358844074816441 0.8198194231362951
16532500 0.5379477777212487 0.8185150619546774
16580000 0.5401052656985459 0.8170829580490684
16627500 0.5423346919276268 0.8158536052346701
16675000 0.5446683630417436 0.8144280529260889
16722500 0.5467327819852768 0.8129026025560666
16770000 0.5488114876799041 0.8115972382778422
16817500 0.5507106701625569 0.8102200542769057
16865000 0.5529469896819192 0.8090882807195007
16912500 0.5552359412383535 0.8075234158971578
16960000 0.5572834813076035 0.8061549704057422
17007500 0.5593024662288921 0.8048359841373712
17055000 0.5614115445993862 0.803625580082188
17102500 0.5636554332665894 0.8019975997097741
17150000 0.5656119416857257 0.8005898039960349
17197500 0.5675066659540597 0.7991309348874356
17245000 0.5694553103677407 0.798008358924376
17292500 0.5716234830643657 0.7967783511578379
17340000 0.5737206023135176 0.7951543467561092
17387500 0.5756359782865172 0.7937989060886327
17435000 0.5775877398216516 0.7924416095826736
17482500 0.5795249194960413 0.791116411826085
17530000 0.5816764461946183 0.7897583551585518
17577500 0.5836690619967352 0.7883741021678672
17625000 0.5852953632958051 0.7868819816438097
17672500 0.5872475463515625 0.7855921538545295
17720000 0.5891730742330428 0.7844229106765257
17767500 0.5912553140733156 0.7828896176862269
17815000 0.5932053246304317 0.7814379081256783
17862500 0.5948883835831947 0.7800483212110998
17910000 0.5968498928400587 0.7788564778342114
17957500 0.5987946041787141 0.7775377974003002
18005000 0.6007302934792955 0.7760586921517146
18052500 0.6024862992796445 0.7747246089270916
18100000 0.6041201095072287 0.7733007734784848
18147500 0.6059129308372443 0.7721493797782877
18195000 0.6079505532111166 0.7708006399580829
18242500 0.6096222936389716 0.7693063247744762
18290000 0.611491592850511 0.7679036014842833
18337500 0.6132395308448784 0.7667196465115772
18385000 0.6149948875377121 0.7653739194197783
18432500 0.6168714545081172 0.7640276484312449
18480000 0.6185664592033453 0.7624697528260832
18527500 0.6201667158118659 0.7612598736073386
18575000 0.6220061359265447 0.7599574907216216
18622500 0.6237324454567574 0.7587603675867788
18670000 0.6255401874282912 0.7573444802799165
18717500 0.6272377498307322 0.7558336891885324
18765000 0.6287973951177507 0.7545797753357968
18812500 0.630518458100162 0.7532973876393466
18860000 0.6323412134672963 0.7521081284681173
18907500 0.6339358446234853 0.7506301265727596
18955000 0.635488078277983 0.7492559353516639
19002500 0.6371036089721962 0.7480085573841301
19050000 0.6389803964282174 0.7467851916912871
19097500 0.6406072524630023 0.745281386772108
19145000 0.6422158855245828 0.743992522123368
19192500 0.6437862229374589 0.7425734315362434
19240000 0.6453388073725834 0.7414499025829107
19287500 0.6470878884573512 0.7400390074731088
19335000 0.6486489926926401 0.7386826205705137
19382500 0.6501474008564958 0.7373108075689431
19430000 0.6516449552665204 0.7362392868345801
19477500 0.6532895398606174 0.7348710949652337
19525000 0.6550258834390941 0.7335478669664259
19572500 0.6565128345742639 0.7320495303258249
19620000 0.6579231297934169 0.730755579070192
19667500 0.6594534033981005 0.7295759903679003
19715000 0.6611198393267759 0.7283396663891222
19762500 0.6626282088544861 0.7269947888153627
19810000 0.6640614564504554 0.7255896891278412
19857500 0.665505753330336 0.724394737074296
19905000 0.6671283409103036 0.7231620904561704
19952500 0.668724869802492 0.7219772185343666
20000000 0.6702614870597875 0.7204773974615823
