# HZ S RI R 50
1000000 0.9875296201397957 -0.15869476938340799
1047500 0.9865888570227351 -0.16636066738948935
1095000 0.9848866660390817 -0.17393793506939803
1142500 0.9833135608775017 -0.18146411089465958
1190000 0.9817283023047615 -0.1889299950639583
1237500 0.9806442245504571 -0.19638541329694742
1285000 0.9794202795982102 -0.20400417322375988
1332500 0.9781000558653489 -0.21166445721071958
1380000 0.9763347838130222 -0.21898769252050415
1427500 0.9746553323169108 -0.22656140697318294
1475000 0.9730630473973445 -0.2342798425855093
1522500 0.9712124879979959 -0.2420013066812426
1570000 0.9689849963805066 -0.24981069909117934
1617500 0.9670013777972142 -0.25741810092360623
1665000 0.9651680032482023 -0.26506300438709157
1712500 0.9631952559511091 -0.27279785428046
1760000 0.9609425420300628 -0.2807083779231791
1807500 0.9585974560656021 -0.2885092245039392
1855000 0.9563338799379545 -0.2961440370330698
1902500 0.9540304989980604 -0.3038717979665101
1950000 0.9516882735328628 -0.31174271518921737
1997500 0.9491970197146913 -0.31967516404904
2045000 0.9464826299516611 -0.32741443994919994
2092500 0.9439005578080654 -0.33510655154796465
2140000 0.9414002348093256 -0.3428758525030139
2187500 0.9386191962301303 -0.35078246828691206
2235000 0.9357673552290844 -0.3587251364376973
2282500 0.9326839665265824 -0.36639538068824345
2330000 0.9297813365414692 -0.3741196544241309
2377500 0.9268130654280881 -0.3820417420518694
2425000 0.9235826254204705 -0.3901162016905937
2472500 0.920143903666513 -0.39784502031339636
2520000 0.9169063001657547 -0.40557514031323516
2567500 0.9136433600986917 -0.4136181186452773
2615000 0.9102083672120255 -0.42176186937629795
2662500 0.9063017851676796 -0.4297918558421989
2710000 0.9025043462248179 -0.4375484804833368
2757500 0.8988790488354567 -0.4455806478672222
2805000 0.8950780875652733 -0.45372075172959897
2852500 0.8910548714232602 -0.4619866897107057
2900000 0.8867632655631752 -0.46999454825510617
2947500 0.8825798656011239 -0.47798663026350285
2995000 0.878510857778684 -0.48614046536525785
3042500 0.874208710467505 -0.4944162213672561
3090000 0.8694273817243043 -0.5026943809340902
3137500 0.8647771265968134 -0.5107458933889654
3185000 0.8602713194128794 -0.518827198941241
3232500 0.855599901806743 -0.5270574505775275
3280000 0.8506541769100321 -0.5353725393255071
3327500 0.8455091686863151 -0.543635974667213
3375000 0.8404816060794813 -0.5516773110215651
3422500 0.8353812900666705 -0.5597581968330114
3470000 0.8301497242113438 -0.5680003897489379
3517500 0.8246537866657091 -0.5764646906228751
3565000 0.819044460233816 -0.5845509529288697
3612500 0.8133083645025776 -0.5926770401377078
3660000 0.8075640752211438 -0.6007516392895892
3707500 0.8016855971027036 -0.6091545097342551
3755000 0.7955406253112448 -0.6173386152348251
3802500 0.7891113443794213 -0.6254114495505714
3850000 0.7828404158445349 -0.6333424067986989
3897500 0.7766232079478413 -0.6416856150235066
3945000 0.7698893859458278 -0.6500511103270213
3992500 0.762905955198692 -0.6582559857016121
4040000 0.7558960219837213 -0.6662199009195678
4087500 0.7489300862500368 -0.6744065313525036
4135000 0.7417781875255139 -0.6827804490391638
4182500 0.7342345512095383 -0.6909392534288
4230000 0.7267402782806472 -0.698960053782125
4277500 0.7191272004577888 -0.7070363309212546
4325000 0.7113596353932458 -0.7152576212645321
4372500 0.7033658667020704 -0.7235609277366609
4420000 0.6950065572213259 -0.7315361300143821
4467500 0.6866879149786999 -0.7395358312595508
4515000 0.6782697288641683 -0.7476337199879962
4562500 0.6696791723513617 -0.7557162821861673
4610000 0.6607831469325333 -0.7637490612079316
4657500 0.6516454260607667 -0.7716883312019863
4705000 0.642608072415705 -0.7794886818696029
4752500 0.6334150386641695 -0.7873309083573299
4800000 0.6238587155267683 -0.795209835719882
4847500 0.6139761348565529 -0.8032777674484373
4895000 0.6041022139476111 -0.8109011370383239
4942500 0.5941060807909684 -0.8184896232684642
4990000 0.5839049535951303 -0.8261029502379056
5037500 0.5733248671637127 -0.8338210097612213
5085000 0.5625160170508705 -0.8412506024579041
5132500 0.5514296716369445 -0.8485481263480076
5180000 0.5404401525833412 -0.8558484574325931
5227500 0.5291955371123976 -0.8634048773967419
5275000 0.5175837790623046 -0.8708261225505219
5322500 0.5058009980811632 -0.877842514055622
5370000 0.4937710485630123 -0.8847755978495828
5417500 0.48167454330900644 -0.8918772130402318
5465000 0.4692870037661903 -0.8987866557102588
5512500 0.45657177476397637 -0.905502988459221
5560000 0.4436310674676982 -0.9120172543974213
5607500 0.43063091033669815 -0.9185305358642165
5655000 0.4173759259803447 -0.9251518188355564
5702500 0.403681461510441 -0.9314304477989097
5750000 0.3898421112482058 -0.9374665277318021
5797500 0.37582537379457565 -0.9433998423286822
5845000 0.36163422754143343 -0.9492041215035337
5892500 0.3470803215097469 -0.9549321658702509
5940000 0.3323754160323497 -0.9603534373387828
5987500 0.3173869153278845 -0.9657563915321155
6035000 0.30220809069427945 -0.9708460865341781
6082500 0.2869086251671765 -0.9757945284013615
6130000 0.2712798247287014 -0.9805163685799478
6177500 0.2552961344108734 -0.9850743705434497
6225000 0.23915342873018788 -0.9893574241064275
6272500 0.22272066586157604 -0.9933508194296436
6320000 0.206097474758813 -0.9970957758661699
6367500 0.189248470376636 -1.000749917922814
6415000 0.17214316110381883 -1.0040103194646606
6462500 0.1548424372916775 -1.007097015529932
6510000 0.1373543271205641 -1.009840499643271
6557500 0.11965186493030248 -1.0124311330047862
6605000 0.10162859213953812 -1.0145874322419213
6652500 0.08347377335819213 -1.0162925970959134
6700000 0.06510294015833994 -1.0176811486343458
6747500 0.04653067871368788 -1.018932388103293
6795000 0.027673187125955172 -1.0198432365179508
6842500 0.008680261602414805 -1.0202020170201451
6890000 -0.01053261875338226 -1.0202607044488854
6937500 -0.02986095940360483 -1.0200129519685839
6985000 -0.04942395807110671 -1.0193490806004613
7032500 -0.06911473215226112 -1.0182444968854751
7080000 -0.08886861756791671 -1.016715290706189
7127500 -0.10900308848213718 -1.0148688730068929
7175000 -0.12908982136915817 -1.0124595358934108
7222500 -0.1493110330083673 -1.0096426690440552
7270000 -0.16962180131580992 -1.006374165204718
7317500 -0.1901294850266542 -1.0026710760135562
7365000 -0.21076633590984464 -0.9985183968604723
7412500 -0.23135567733190288 -0.9937544564398916
7460000 -0.2519382594307893 -0.9885469145656801
7507500 -0.27273365631872243 -0.9829933175432837
7555000 -0.2935636626609911 -0.9768265130119383
7602500 -0.31438936415546925 -0.9700201659001352
7650000 -0.3350438301429424 -0.9626731975194817
7697500 -0.35576748607987807 -0.9550166075623205
7745000 -0.3765759176971593 -0.9468631467170315
7792500 -0.39728343358898116 -0.9380428436866989
7840000 -0.4178425084425386 -0.928617275449031
7887500 -0.43832163154596293 -0.918817292204926
7935000 -0.4587653408626985 -0.9085204846972254
7982500 -0.4791074531980041 -0.8975847395084097
8030000 -0.499278961520026 -0.8860376460418183
8077500 -0.51926360954258 -0.8740392736651432
8125000 -0.5391845544753606 -0.8615918799908612
8172500 -0.5589065704988767 -0.8485073524296937
8220000 -0.5782873378058567 -0.8347971560183851
8267500 -0.5974172442668265 -0.8206156882510338
8315000 -0.6162145600848727 -0.8058475476356647
8362500 -0.6347127019335272 -0.7907068306645851
8410000 -0.6530716587815188 -0.7748653465632502
8457500 -0.6711690442252631 -0.7585844941805233
8505000 -0.688834430068486 -0.741732776531885
8552500 -0.7061163001660741 -0.7245613947495203
8600000 -0.7231122232282325 -0.7068307285018693
8647500 -0.7398476694876334 -0.6885801303375645
8695000 -0.7559635537422217 -0.6698593113063817
8742500 -0.7715460673739803 -0.6507126862108599
8790000 -0.786642895274033 -0.6312675688014334
8837500 -0.801530663832099 -0.6114583514689834
8885000 -0.8158929015433168 -0.59107361509113
8932500 -0.829437080745702 -0.5703094819351535
8980000 -0.8425198001737733 -0.5492241259444849
9027500 -0.8551921112569506 -0.5280125680144964
9075000 -0.8674323402741724 -0.5062999217196972
9122500 -0.8791104493323251 -0.484138368875928
9170000 -0.8899270997190852 -0.46168519816532894
9217500 -0.9002589249890086 -0.4392206738749794
9265000 -0.9102370852968369 -0.4164536196816839
9312500 -0.9194809100972094 -0.3934000670805831
9360000 -0.9280628322951797 -0.3700929596345358
9407500 -0.9360381569611907 -0.34667567011186456
9455000 -0.9434775517309313 -0.3232637435621008
9502500 -0.9503770482767248 -0.2995371552996824
9550000 -0.9564642120625393 -0.27556651398782905
9597500 -0.9620075060728343 -0.2517833187025617
9645000 -0.9670406274622746 -0.22797020373217494
9692500 -0.9715117938634041 -0.2041406142767637
9740000 -0.9753175991346308 -0.18009878950351416
9787500 -0.9785285047029384 -0.15604847534215635
9835000 -0.9811045011597168 -0.13216727573778514
9882500 -0.9830267898758036 -0.1083646348660801
9930000 -0.9845026115647902 -0.08462407493693742
9977500 -0.9853974912788935 -0.060795144217415
10025000 -0.9855663451712361 -0.037227848023495685
10072500 -0.985143348514948 -0.01385145065667773
10120000 -0.9841305660771651 0.009302332485727018
10167500 -0.9827855287582008 0.032519397641625
10215000 -0.9808996840788871 0.055400695378813064
10262500 -0.9782339803059886 0.07806734347506591
10310000 -0.9752055256930949 0.1005243629719826
10357500 -0.971741898891565 0.12270909069151573
10405000 -0.9677850044412697 0.14487800750771404
10452500 -0.963246855482159 0.16667218307381138
10500000 -0.958109522287676 0.18800004790283437
10547500 -0.9527592430196882 0.20918999012695935
10595000 -0.9469275806941634 0.23026345469688655
10642500 -0.9405724021580341 0.25099861456406436
10690000 -0.9337566480221617 0.2712464267358241
10737500 -0.9267063449085831 0.29123036201016395
10785000 -0.9192990641443108 0.31100770769944297
10832500 -0.9114810890862438 0.33034550931412593
10880000 -0.9030612503434182 0.3493318092449045
10927500 -0.8947501294977267 0.3681038551468228
10975000 -0.8859558502352303 0.38646006027418245
11022500 -0.8768108125354799 0.4045131600828363
11070000 -0.8673665086393878 0.4220289107068012
11117500 -0.8578129174340123 0.4393203676089982
11165000 -0.8479205674924182 0.4562325935724844
11212500 -0.8377830258426229 0.47279705642256586
11260000 -0.8274148434225987 0.4888816464929982
11307500 -0.8168403966038211 0.5048573963675126
11355000 -0.8061466129027903 0.5202900876810733
11402500 -0.7951818160353915 0.5354856421667009
11450000 -0.7839211568351454 0.5501986582496696
11497500 -0.7728651844910794 0.5645702816521813
11545000 -0.7614266038077224 0.5786813894649281
11592500 -0.7498961150698759 0.5925620900376551
11640000 -0.7380586816260466 0.6059384104898967
11687500 -0.7263845300998654 0.6191235521615647
11735000 -0.7145413867791904 0.6319130980531473
11782500 -0.7023574498146645 0.6441058532207595
11830000 -0.6899300233641402 0.6555990188402161
11877500 -0.6775863592874293 0.666578282663668
11925000 -0.6652781885161692 0.6773874245513308
11972500 -0.6529569955109267 0.6877744815914076
12020000 -0.6404577255456972 0.6981961065538057
12067500 -0.6281204792639009 0.7082640792135546
12115000 -0.6157634165443446 0.7179987583861699
12162500 -0.6033270306155347 0.7274857126600858
12210000 -0.5908528924238836 0.7367332263149987
12257500 -0.5783487052145221 0.7458355084109601
12305000 -0.5659162382462223 0.7545633437596876
12352500 -0.5534915041022608 0.7628138241627749
12400000 -0.5410256213776125 0.7707840161299284
12447500 -0.5287482641423777 0.7788263708466285
12495000 -0.5162586924352828 0.786423081275428
12542500 -0.5038713508464956 0.7935543660348364
12590000 -0.49161397262889706 0.8004296172355662
12637500 -0.47949556284267214 0.807312490218833
12685000 -0.46725266140833294 0.8140347343479092
12732500 -0.45491779940025723 0.8202363358339062
12780000 -0.44279449563355777 0.8260664204096684
12827500 -0.4309853518020591 0.831888394160896
12875000 -0.41907490504858774 0.8375565439425103
12922500 -0.40700540702611965 0.8429432902374651
12970000 -0.39501079924568544 0.8479646481659288
13017500 -0.3834427273701048 0.8527633734291579
13065000 -0.37186570012349446 0.8575265174493379
13112500 -0.36033067586313094 0.8621518822563786
13160000 -0.3485595882660745 0.8664509695519154
13207500 -0.3371484068554808 0.870429231761038
13255000 -0.3259806292028545 0.8742640594439688
13302500 -0.3148182408506677 0.8780384806659309
13350000 -0.30357296601019246 0.8815843440397924
13397500 -0.2924105723366624 0.8849275708777549
13445000 -0.28151194297867377 0.8880935833330214
13492500 -0.2707705742937297 0.891183857498395
13540000 -0.25975290427667913 0.894090121584381
13587500 -0.24881263302036594 0.8969701642505287
13635000 -0.23818984182674102 0.8993676035358578
13682500 -0.22781805370001884 0.901793414546321
13730000 -0.2174511585382545 0.9041046325358062
13777500 -0.20692931503162676 0.9064687127067678
13825000 -0.19642775328409284 0.9083865688368804
13872500 -0.18639590863929079 0.9101285835837677
13920000 -0.17644870266760285 0.9118113902876571
13967500 -0.16649656539451316 0.9136819586511139
14015000 -0.15641161946182494 0.9153380855228195
14062500 -0.14656237281020593 0.9165450873647476
14110000 -0.13706961978189305 0.917595085194814
14157500 -0.1276149802872185 0.91902060184829
14205000 -0.11801257829827048 0.9203053361598555
14252500 -0.1082527456263525 0.9211895156081096
14300000 -0.09907659335940278 0.9218691215797826
14347500 -0.09010124243893697 0.9226789114632948
14395000 -0.08096722127653634 0.9236224526692568
14442500 -0.07187157198932803 0.9244659060033678
14490000 -0.0627370944002679 0.9248023599534373
14537500 -0.05408240204777737 0.9252720243122269
14585000 -0.04570709414422379 0.9256750987151952
14632500 -0.03695344850943325 0.9262511372342428
14680000 -0.02822994539732898 0.9264978375620043
14727500 -0.019812828688183442 0.9264690600582497
14775000 -0.01164240832616768 0.9265135748537615
14822500 -0.0034167557929398406 0.9264744035255256
14870000 0.0051147844545048685 0.9265234465569616
14917500 0.013293229530400484 0.9262165651900005
14965000 0.02118189230887513 0.9257668673915014
15012500 0.028808911267584312 0.925464419893364
15060000 0.03678924980646107 0.9252244387516475
15107500 0.04472221281786677 0.9249495203597428
15155000 0.05243939738049968 0.9242083041196786
15202500 0.05983492828515844 0.9235029159426554
15250000 0.06718428546765037 0.9229501941449237
15297500 0.07475906673566249 0.9225824412100321
15345000 0.08234128195918453 0.9218884998165207
15392500 0.08958167278835154 0.9209598862709127
15440000 0.096578268192377 0.9199836171313545
15487500 0.10358429368269675 0.9194614757056894
15535000 0.11084674821902434 0.9187990555792074
15582500 0.11788836312062576 0.9176761774506701
15630000 0.12458366637990911 0.9165680892701272
15677500 0.13116686702628363 0.9157563510572763
15725000 0.13787552288897964 0.9150201876019368
15772500 0.14480391716558924 0.9140921793532111
15820000 0.1513087497703143 0.9126289642258922
15867500 0.15768599455457263 0.9115836936747085
15915000 0.16395021055899944 0.9106241532474799
15962500 0.17037150828812458 0.909576316648542
16010000 0.17668786425212618 0.9082854018419947
16057500 0.1830377783298627 0.9069171289049524
16105000 0.1889966937744169 0.9057444006599848
16152500 0.19487816111184056 0.9046130812679202
16200000 0.20110530610927563 0.9033046590205972
16247500 0.20709932903855907 0.9019265798846231
16295000 0.21288653542591687 0.9003821544515772
16342500 0.2184289705292775 0.8990870162441937
16390000 0.22409662289692087 0.8977644641669198
16437500 0.22998725186855568 0.8963554378105542
16485000 0.2355941842236757 0.8948244599926048
16532500 0.24118088737679472 0.8932943735113617
16580000 0.2463527129212269 0.8919280217010241
16627500 0.2518871156794879 0.8905940043888625
16675000 0.25761854450253086 0.8889984322470637
16722500 0.2627885384629056 0.8871411519986014
16770000 0.26783874360117554 0.8856018290116607
16817500 0.27308988065357065 0.8842387279895535
16865000 0.27836038423692244 0.8827832412255899
16912500 0.28363199656447763 0.8808329332919526
16960000 0.28850999682664413 0.878999494828918
17007500 0.29329014224576877 0.8775696269441411
17055000 0.2982952116716141 0.8760686459268938
17102500 0.30348186416985184 0.8743836395695728
17150000 0.3082313019351345 0.8723482806480932
17197500 0.3127628010528374 0.8709197881721533
17245000 0.3174812427858278 0.8694233980261721
17292500 0.3221924458665436 0.8679544670324323
17340000 0.3269989910856772 0.8660615176765758
17387500 0.33147627329832136 0.8642954087537248
17435000 0.33583243374471283 0.8626156817825359
17482500 0.34033356325941977 0.86120787681739
17530000 0.34500560054126533 0.8593509538686331
17577500 0.34927603323828577 0.8575932510579617
17625000 0.35349057093314956 0.8559108930130471
17672500 0.3577176400430634 0.8543048809175726
17720000 0.3619666850888433 0.8528933980483863
17767500 0.3664212297614151 0.8510756804765095
17815000 0.3706050745324839 0.8491858031838709
17862500 0.3744705722889308 0.8473773966660666
17910000 0.37859899342186704 0.8458170517660792
17957500 0.3827471962816193 0.84427489700735
18005000 0.3869479121994244 0.8424084054125742
18052500 0.3906569547003493 0.8403652754960547
18100000 0.3942543443120179 0.8386046092633737
18147500 0.3982529846082578 0.8371020128729605
18195000 0.40220149046118703 0.8352709179179686
18242500 0.4060660817739459 0.8333582446874934
18290000 0.40961971367422767 0.8314528892034623
18337500 0.41335401181305054 0.8298361723107917
18385000 0.41691195174174256 0.8282586289673434
18432500 0.420795140972421 0.8263268798505506
18480000 0.4243452894525097 0.8242871203378135
18527500 0.42766649177348004 0.8225043910234706
18575000 0.4313464132380256 0.820979329225806
18622500 0.43488319105218964 0.8191054627876371
18670000 0.43851579746894587 0.8170791181030598
18717500 0.4419420411629712 0.8154127429543624
18765000 0.44507892958722706 0.8137906025620342
18812500 0.4483460702556334 0.8121754633753704
18860000 0.4518955632886527 0.8103555480226294
18907500 0.4552352983504864 0.8085659833484845
18955000 0.45835654755344435 0.8067273208328425
19002500 0.461492130882167 0.8051152775991864
19050000 0.46468721981484423 0.8033621783704278
19097500 0.46794727840430295 0.8016653969769215
19145000 0.4708622371446523 0.8000020748059494
19192500 0.4738417042213427 0.7983358058959185
19240000 0.4766262342952402 0.7967136371821172
19287500 0.48012960325822457 0.7954034757257922
19335000 0.4832590189342334 0.7935581543386334
19382500 0.4859670987925869 0.7918089042580868
19430000 0.48874283463603124 0.7904584045329299
19477500 0.491777816356675 0.7891302979660175
19525000 0.4948151195302747 0.7875802449847962
19572500 0.497914674383116 0.7858195857813379
19620000 0.5007057748063923 0.78407278262202
19667500 0.5039060349330499 0.782480234366623
19715000 0.5070451668280185 0.7804892009751443
19762500 0.5102671099195244 0.7781639183178458
19810000 0.5131366632681331 0.7758369767973395
19857500 0.5161704384411236 0.7734625004133806
19905000 0.5189322389928451 0.7715328967402435
19952500 0.521779316972055 0.769321613983487
20000000 0.5243999929072837 0.7671316337980469
