# HZ S RI R 50
1000000 0.9789090918466046 -0.20117630082637858
1047500 0.9771331370580475 -0.21069398143454182
1095000 0.9748862215535511 -0.22026419690217233
1142500 0.9725456962908869 -0.22984192705543247
1190000 0.9702140129172833 -0.23930081761923389
1237500 0.967736511399977 -0.24876333031584874
1285000 0.9654477737544126 -0.2583897081524041
1332500 0.9627664023940196 -0.267973019006182
1380000 0.9598815416361905 -0.2775176857513886
1427500 0.9569846251395839 -0.2869526132686401
1475000 0.9542327505070689 -0.29641778945294694
1522500 0.9513924911449602 -0.3060888115849752
1570000 0.9480534121238146 -0.31574121187581794
1617500 0.9446895092234593 -0.32526777560317166
1665000 0.9412295921106067 -0.3345253025197303
1712500 0.937979702401686 -0.3440376128456146
1760000 0.9344856165053584 -0.3537262645932818
1807500 0.9307084816855661 -0.3633605420328554
1855000 0.9267414055739854 -0.3727258748689249
1902500 0.922845155074617 -0.38201467658902344
1950000 0.919074884449031 -0.3915191398543644
1997500 0.9149599365650177 -0.4012861854907645
2045000 0.9105703269288107 -0.4108292334755579
2092500 0.9061504763688695 -0.4201356361364217
2140000 0.9017796849949734 -0.4294067002226395
2187500 0.8973011674416458 -0.4390322986091695
2235000 0.8923896299498357 -0.44854489109803597
2282500 0.8874011705859478 -0.45787721277631716
2330000 0.8825674624188894 -0.46715585616442507
2377500 0.877658220014498 -0.47655061913606844
2425000 0.8725480107909324 -0.48618125858952327
2472500 0.8670660317185732 -0.4957636270312497
2520000 0.861474875303006 -0.5048329036336373
2567500 0.8559728202529105 -0.5140895094636446
2615000 0.8503805858299079 -0.5234213488140296
2662500 0.8445509713639301 -0.5329211308655705
2710000 0.8383638046535864 -0.5422256338209835
2757500 0.832187078573955 -0.551289276093081
2805000 0.8261846067269528 -0.5603859123890688
2852500 0.819912079692653 -0.5698193648654931
2900000 0.8133594388856327 -0.5792279339341388
2947500 0.8064642223171119 -0.5882102175757175
2995000 0.7997985898549734 -0.597185561136137
3042500 0.7929303325000083 -0.6063641891776882
3090000 0.7859373156440574 -0.615622649891631
3137500 0.7784699294013624 -0.6247903612655534
3185000 0.7709066984867881 -0.6336171044052308
3232500 0.7636241981502754 -0.6424207257559926
3280000 0.7560784845025699 -0.6515533705735241
3327500 0.7482498422022938 -0.660705191453652
3375000 0.7400833638488332 -0.669582425808273
3422500 0.7318673071463763 -0.6781823317567066
3470000 0.7237573202297485 -0.686746173124282
3517500 0.7155042844857241 -0.6958170462304927
3565000 0.7067134161992791 -0.7046209439638419
3612500 0.6976698498317486 -0.7131415681090342
3660000 0.6889747299384934 -0.7215327857938109
3707500 0.6800591971470413 -0.7301589596069855
3755000 0.6708151888298697 -0.7388453715316515
3802500 0.6610631342104354 -0.7470651802448757
3850000 0.6515916882336431 -0.7552834582187865
3897500 0.6419245770926654 -0.7634984654126733
3945000 0.6320629745250834 -0.7718253035055351
3992500 0.6219017572943717 -0.7801867625790213
4040000 0.6113402065629037 -0.7879673556810982
4087500 0.6011013325181768 -0.7956118498000776
4135000 0.5906571305192926 -0.8035042016330448
4182500 0.5797984175575293 -0.8116574703148741
4230000 0.5685697446767328 -0.8192807678054806
4277500 0.5573353977927186 -0.826693930278379
4325000 0.5462115226553449 -0.8339821159803382
4372500 0.5348945134329477 -0.8416024108661423
4420000 0.5229222228491673 -0.8489415312218498
4467500 0.5109118648973061 -0.8559587335895498
4515000 0.4988753194647512 -0.8627413818698111
4562500 0.48683969246592107 -0.8697416390119657
4610000 0.47452460421078485 -0.8768188823777471
4657500 0.4616983812473232 -0.8834295188413329
4705000 0.448635653287294 -0.8896736708491144
4752500 0.43576314047562265 -0.8958111770934541
4800000 0.42280281069377335 -0.9021834576938641
4847500 0.4092640622781444 -0.9083855334193863
4895000 0.39552884284081524 -0.9142270911421921
4942500 0.38184925864063746 -0.9197517949712681
4990000 0.3683181297539952 -0.9251745096428572
5037500 0.3543030099882298 -0.9309231617391832
5085000 0.33980628731105633 -0.9363121202149938
5132500 0.3250925768238704 -0.9410866420228813
5180000 0.3106016483878654 -0.9457790643165397
5227500 0.29582886477821274 -0.9504616280015752
5275000 0.28091153664873053 -0.9552352377815941
5322500 0.2654277682964708 -0.9593670013509762
5370000 0.25009953474707985 -0.9632028439676646
5417500 0.23485035770085996 -0.9666495082588253
5465000 0.2193050534532358 -0.9706101395348459
5512500 0.20337969840511652 -0.9741227694141726
5560000 0.18702330788531846 -0.9770053264906936
5607500 0.1708644171199376 -0.979669170715176
5655000 0.15485028640879336 -0.9822697032311313
5702500 0.1382903997377048 -0.9848270921875493
5750000 0.1214064037994335 -0.986951136211036
5797500 0.10455463932391464 -0.9887287422486154
5845000 0.08791538574950848 -0.9899931030803663
5892500 0.07108109132196856 -0.9914943402941498
5940000 0.05367161720737433 -0.99257772431511
5987500 0.03611133324538288 -0.9931687411573327
6035000 0.018620864278704224 -0.9932458267946288
6082500 0.0012831542243061475 -0.9934299873640507
6130000 -0.01632045065943491 -0.9933065270177293
6177500 -0.03433141887182475 -0.992866624389623
6225000 -0.05243467770062416 -0.9917831838390669
6272500 -0.0702185555004047 -0.9903165702366011
6320000 -0.08811651929133027 -0.9889730166793531
6367500 -0.10617030430169351 -0.9871720944486343
6415000 -0.12469876003422603 -0.9850355016201201
6462500 -0.14302141440879423 -0.9822390308847941
6510000 -0.161207937343149 -0.9790413195680994
6557500 -0.17944236160984398 -0.9758658878690766
6605000 -0.19813451849579328 -0.9724694899812276
6652500 -0.21665473560401607 -0.9681872154135395
6700000 -0.23501482577267666 -0.9635351271671825
6747500 -0.253241614933635 -0.9588508614386357
6795000 -0.27185355725248417 -0.9538249759799644
6842500 -0.29054291884800376 -0.9483357816711573
6890000 -0.3091236092046994 -0.9421513325262512
6937500 -0.32748776743641483 -0.9355238987634713
6985000 -0.34564050720220113 -0.9290435827901801
7032500 -0.3641757821284205 -0.9218826427283473
7080000 -0.3826196288337919 -0.9141946692533388
7127500 -0.4008188770103721 -0.9060109226779742
7175000 -0.41868914795270057 -0.8977211546741231
7222500 -0.4367455288507195 -0.8891340425574294
7270000 -0.4549751008586629 -0.879914094074237
7317500 -0.47283002756320014 -0.8701622441990678
7365000 -0.4903943854178534 -0.8600509726216092
7412500 -0.5078041120044818 -0.8497713845399576
7460000 -0.5254314789477239 -0.8389803496719352
7507500 -0.5426546339303732 -0.8277951192667926
7555000 -0.5596558350357059 -0.816023603585973
7602500 -0.5764371179494707 -0.8039971756116633
7650000 -0.5929605045758793 -0.7918080818689596
7697500 -0.6097636124819409 -0.7792071049758911
7745000 -0.6259081968380283 -0.7659145702395964
7792500 -0.6418901754452233 -0.7522406650252632
7840000 -0.6574763384482061 -0.7385069733904036
7887500 -0.6730282800750401 -0.7241963422331142
7935000 -0.6883484959539465 -0.7095496491720396
7982500 -0.7033035101128344 -0.6945091704137613
8030000 -0.7177467815178212 -0.6792335558653905
8077500 -0.7320519451254024 -0.6636677709419482
8125000 -0.7461670657789382 -0.6477860385254184
8172500 -0.7597012162108463 -0.6310206423432168
8220000 -0.7730703641456043 -0.6145488693618661
8267500 -0.7861275003637263 -0.5977878395396422
8315000 -0.7988054106495255 -0.5807331912722765
8362500 -0.8112001260289247 -0.5631484389071765
8410000 -0.8231582869783562 -0.5453426530004112
8457500 -0.834549888647948 -0.5273511511595352
8505000 -0.8457016318612032 -0.5091957357142777
8552500 -0.8564817556837998 -0.4907047601420429
8600000 -0.86686368920188 -0.47188496741368
8647500 -0.876702100388718 -0.4529557368419437
8695000 -0.8861568089487065 -0.4339628642693472
8742500 -0.8953167402682841 -0.4147806091430198
8790000 -0.9040586756897875 -0.3952275934233545
8837500 -0.9123384245005813 -0.37555372325574415
8885000 -0.9200094559660371 -0.3558355539359202
8932500 -0.9274004847955222 -0.3360748322141859
8980000 -0.9344577527271011 -0.31606119504446334
9027500 -0.9408986235161644 -0.29575049032577305
9075000 -0.9469060622568357 -0.27557037235899023
9122500 -0.9524306829558996 -0.2555153459184476
9170000 -0.9577187850074147 -0.23523123033824006
9217500 -0.9625815066616189 -0.21481600625462657
9265000 -0.9667937040114994 -0.19430866756432166
9312500 -0.9705110891475941 -0.17391386806137876
9360000 -0.9738896712977217 -0.1536755937886885
9407500 -0.9770289254834205 -0.1331646205539308
9455000 -0.9793331116364458 -0.11256958552781082
9502500 -0.9816219256974524 -0.09227234915536832
9550000 -0.9831772345819593 -0.07206607609166646
9597500 -0.9845679426379762 -0.05182530413862094
9645000 -0.9854805178296525 -0.03156652876547698
9692500 -0.9858811787769568 -0.011305731203936365
9740000 -0.9857584260539193 0.00863891709954847
9787500 -0.9853619541512415 0.028423104196873775
9835000 -0.9848010317735296 0.04825855930099667
9882500 -0.9836036581374581 0.06820910867879355
9930000 -0.981935239763201 0.08776019527548085
9977500 -0.9799869859990826 0.10706786690291972
10025000 -0.9777269168385168 0.12627533867201263
10072500 -0.975268711376141 0.14549649106458545
10120000 -0.9720570988005452 0.1646713892823452
10167500 -0.9685867289418916 0.18337324095731494
10215000 -0.9648661773452645 0.20179318126334503
10262500 -0.9610319963507246 0.22012486545613116
10310000 -0.9567496079685701 0.23851201390803276
10357500 -0.9519068779927952 0.2566386184182635
10405000 -0.946909299488999 0.2742856971558101
10452500 -0.9417016454560502 0.2917385710918672
10500000 -0.9362926431497023 0.3092677813709485
10547500 -0.9304045024157689 0.32663725432568586
10595000 -0.9241476492384386 0.3434334405397886
10642500 -0.9177079514695822 0.3599246422766097
10690000 -0.9113087538603664 0.3763066754371708
10737500 -0.9046706386176407 0.39280271747236084
10785000 -0.8973996571988551 0.4088885442511807
10832500 -0.8899723762770569 0.4244802967118618
10880000 -0.8824063358364208 0.43980712710635134
10927500 -0.8747904197087865 0.4550945681260539
10975000 -0.8667765997476833 0.4701956894326442
11022500 -0.8585093931801131 0.48491938033118476
11070000 -0.8500879166122685 0.49921855776077617
11117500 -0.8418248128450697 0.5133229796118597
11165000 -0.8332404346394244 0.527396438312544
11212500 -0.8242826076501726 0.541344211491518
11260000 -0.815193354256875 0.5545685452919202
11307500 -0.8061373175862572 0.5677287541024428
11355000 -0.7969469479093109 0.5805772642020753
11402500 -0.7875180466727588 0.593422630190891
11450000 -0.7779423652059329 0.6058408401280397
11497500 -0.768170197684932 0.6177344223303581
11545000 -0.7586070761109539 0.6294590632966923
11592500 -0.7489152499878775 0.6411864980892312
11640000 -0.7389611963300582 0.6528203821365616
11687500 -0.7287324045719522 0.6639389561036022
11735000 -0.7186425314065576 0.6745607466867485
11782500 -0.7086614641426399 0.6850958152166041
11830000 -0.6984765289766894 0.6956453170285414
11877500 -0.6881070144940091 0.7060364207162098
11925000 -0.6776552776420512 0.715664644027827
11972500 -0.6672984996642073 0.7251787691780729
12020000 -0.6571820042841482 0.7346242644947902
12067500 -0.6466298920418366 0.7440449069712066
12115000 -0.6360214836659902 0.7529587950634197
12162500 -0.6254508938423493 0.7615650302395788
12210000 -0.6149630118069976 0.7699064407541396
12257500 -0.6045241704974085 0.7782639453976022
12305000 -0.5937748455848254 0.7863890663001678
12352500 -0.583128611984009 0.7942432907689816
12400000 -0.5725276384183339 0.8015869001394538
12447500 -0.5622163848594472 0.8090519797883899
12495000 -0.5515781071971962 0.8165172888213095
12542500 -0.5407853598718619 0.8235720431601505
12590000 -0.5301140257652618 0.8301724794210484
12637500 -0.5197605232585158 0.8366932789437775
12685000 -0.5093618307068087 0.8432044631962224
12732500 -0.498574810765836 0.8495199925873133
12780000 -0.48794914773670506 0.855434049842895
12827500 -0.4775644624774803 0.8611722246452821
12875000 -0.4672349868667032 0.8667012861135643
12922500 -0.45682577787372386 0.872405850979707
12970000 -0.4463057156501829 0.8779077337523195
13017500 -0.4359454502224099 0.8830199865466843
13065000 -0.42557185008887594 0.8877795371440299
13112500 -0.4153206731803279 0.8924991629128973
13160000 -0.4050488088548068 0.897397359680668
13207500 -0.3947188124258729 0.9019063029414505
13255000 -0.3846176901788488 0.9059809710645358
13302500 -0.3747098812135379 0.9100060725908048
13350000 -0.36475365811765986 0.9142689788040973
13397500 -0.3546164704932465 0.9182135586302791
13445000 -0.34441652171675957 0.9220055359007568
13492500 -0.33457634660063285 0.9254906592551453
13540000 -0.324902345750301 0.9288533441403578
13587500 -0.3150029068540211 0.9322871627113644
13635000 -0.3051462663321591 0.9356383693334078
13682500 -0.2952732258465983 0.9385306588665073
13730000 -0.28593362665456706 0.9411765105966627
13777500 -0.27662111125978067 0.944213345125316
13825000 -0.26692634920880726 0.9471582337355448
13872500 -0.25718053105561645 0.9497245871780632
13920000 -0.24785236252225318 0.9520447678671303
13967500 -0.23875403427761488 0.9542240709541849
14015000 -0.2294063052345054 0.9566057451535066
14062500 -0.22008328861768614 0.9589393698662276
14110000 -0.21090812166673018 0.9607604713075054
14157500 -0.2018418998181263 0.9625820214575012
14205000 -0.19297887877215564 0.9643399434171264
14252500 -0.18406444138460018 0.9664475856127949
14300000 -0.17489034197153205 0.9679590762134376
14347500 -0.1660981481749382 0.9693220665688645
14395000 -0.15753133029974603 0.9705578163889844
14442500 -0.14895183057128672 0.9720551432202112
14490000 -0.14009388950625654 0.9734240745641961
14537500 -0.13143864655202075 0.9744958162618669
14585000 -0.12292007949595579 0.9756049584711378
14632500 -0.11488527551141596 0.9764936825774643
14680000 -0.10657318160512602 0.9776933487539771
14727500 -0.09792906914218205 0.9785972186967548
14775000 -0.0896852109716276 0.9793228381940496
14822500 -0.08159364277552893 0.9798237953514832
14870000 -0.07361973083741642 0.9803962822854828
14917500 -0.0655306390589602 0.9811309282462196
14965000 -0.05737042171313821 0.9816300677349268
15012500 -0.049537150440049686 0.9818088493571338
15060000 -0.04193142387196244 0.9821568170504624
15107500 -0.03428766071920973 0.9825187914467786
15155000 -0.02639850343896572 0.9828661413431053
15202500 -0.018547644360774065 0.9829464274113271
15250000 -0.011162084334580163 0.9829116887405915
15297500 -0.003795896056848879 0.982927810755077
15345000 0.003724972476989447 0.9831623210614473
15392500 0.011262463496972124 0.98306114270347
15440000 0.018680778337385004 0.9828450208753533
15487500 0.02564401952190355 0.9825677689378658
15535000 0.032621277935121484 0.9824659984341227
15582500 0.03993188411613498 0.9823935428628756
15630000 0.04721840834878103 0.982095612656636
15677500 0.05416644214108627 0.9815035948883734
15725000 0.061050906350921454 0.9811304138368792
15772500 0.06784623573279974 0.9808109923296502
15820000 0.07468326849391553 0.9804043312902146
15867500 0.08154471627789248 0.9796791305237007
15915000 0.08817881226975294 0.9789638187449369
15962500 0.09462341388423481 0.9786305974303304
16010000 0.10142752258670508 0.9781369369836598
16057500 0.10816361765974188 0.9774519033530329
16105000 0.1145466444102273 0.9764583067438538
16152500 0.12084024396640758 0.9757340830266242
16200000 0.12717044199247135 0.9750688299564922
16247500 0.1336087586375991 0.9740933097589636
16295000 0.14004006506090322 0.9732053736656351
16342500 0.14599834456604074 0.9721512343125192
16390000 0.15194862649305005 0.9713067219075396
16437500 0.15826282533608896 0.9705688744739317
16485000 0.16443946231375683 0.969549657930009
16532500 0.170230350914233 0.9683585253408244
16580000 0.1760890066092085 0.9672714586386167
16627500 0.18198786181992005 0.9663577060638016
16675000 0.18796753778351383 0.965317979107242
16722500 0.19376723256171524 0.9640311609833829
16770000 0.19922936477454653 0.9628077591514127
16817500 0.20468757592822462 0.9615502199069291
16865000 0.21039146064309866 0.9606520230025681
16912500 0.21616725178013027 0.9594009851920859
16960000 0.22162517335714849 0.9580998674617779
17007500 0.22688431013539834 0.95680512304455
17055000 0.2323702102338599 0.9556719888540771
17102500 0.23793221360141847 0.954408011441011
17150000 0.24326102525829468 0.9530360369391979
17197500 0.24841970686940867 0.951524278200106
17245000 0.25337783212862397 0.9503730496683872
17292500 0.25866314817850694 0.9491676810370835
17340000 0.2640394556985704 0.9477401755621105
17387500 0.26899015090905226 0.9462236106620273
17435000 0.2740472638417814 0.9447977829114811
17482500 0.2788419129269578 0.943457148561745
17530000 0.28413452665135563 0.9421278137373977
17577500 0.28894232622182947 0.9404742700443408
17625000 0.2936738812807354 0.9389809072368341
17672500 0.2984153347665335 0.9375484671396402
17720000 0.3030789911862606 0.9362312812369634
17767500 0.3081176033942029 0.9347609692001699
17815000 0.3129358976099163 0.9330429986665465
17862500 0.3174193535760947 0.931365733315733
17910000 0.3219705914038978 0.9301388849555595
17957500 0.32668135663117714 0.928618416664922
18005000 0.33126593187579273 0.9270138276066097
18052500 0.3356322194952695 0.9252435114117699
18100000 0.3398881843546377 0.9237389107456326
18147500 0.3443031438098263 0.9221586518297896
18195000 0.3489223685829361 0.9206646895825285
18242500 0.3531686136796897 0.9189545905819216
18290000 0.35755972585282614 0.9171894466539745
18337500 0.361523602914311 0.9157528498342775
18385000 0.36596302129743746 0.9141302444506417
18432500 0.3703021699587886 0.912525809687648
18480000 0.37446217850329094 0.9106298865913875
18527500 0.37838744307366645 0.9089657869268235
18575000 0.3824199317908619 0.9073582266923521
18622500 0.38644724052903323 0.9058782508440363
18670000 0.39066674741087 0.9040951760033924
18717500 0.39460405017035627 0.9023587282147616
18765000 0.3984376392126885 0.9007569287909611
18812500 0.4023288836166252 0.8991886970156431
18860000 0.40648661914229184 0.8975576537903881
18907500 0.410192482260311 0.8956579214068101
18955000 0.4138606809408261 0.8938617686590599
19002500 0.41756935665064115 0.8923405214127778
19050000 0.4215316539396305 0.8908961371860169
19097500 0.4253785223692421 0.8889479949638953
19145000 0.4290318961737079 0.8872248295253433
19192500 0.43259955475505557 0.8854116616419316
19240000 0.43612577710597106 0.8838338249909911
19287500 0.43988170054384673 0.8821069313292312
19335000 0.4435121200380509 0.8801586671528463
19382500 0.44687207315722255 0.8784066460028561
19430000 0.4503329393254505 0.8767956105152743
19477500 0.4538242069344234 0.875152786827718
19525000 0.4574722805534896 0.873350762733632
19572500 0.4608704349981361 0.8713980912328444
19620000 0.46400328511085276 0.8696096454803058
19667500 0.46730814366684004 0.8679833339981172
19715000 0.4708345317701191 0.8662408647163934
19762500 0.4740964728977758 0.8644222256250452
19810000 0.4772657214284076 0.8625150564938462
19857500 0.4803267402541975 0.8608383954442167
19905000 0.4836714905444296 0.859281320781781
19952500 0.48696034648453795 0.8576158005118314
20000000 0.4901366014918225 0.8556994466551577
