# HZ S RI R 50
1000000 0.0002517147114945603 0.00043040034797022354
1047500 0.0002600033598300948 0.0004940237654365368
1095000 0.00040295203258417867 0.0005227639386382769
1142500 0.00030154234622350404 0.0005163194528143574
1190000 0.0003427278388998157 0.0005278188012223431
1237500 0.00033060597350835545 0.0005072298289874766
1285000 0.00034803799629075594 0.0005554233886156089
1332500 0.00034975028911636314 0.0005551768071374339
1380000 0.00040787906037653834 0.0005858995894302879
1427500 0.0003650288934019013 0.0005558620921597206
1475000 0.0004017102809989236 0.0006083744558489361
1522500 0.00044895870969607156 0.0005753868554390293
1570000 0.00041023915084111186 0.0005911936154406011
1617500 0.00043196524533411644 0.0005774413941582973
1665000 0.0004291249270846172 0.0006132819230115108
1712500 0.0004786658426730582 0.0006079799357450588
1760000 0.00046240457852257476 0.0005772108275561489
1807500 0.0005671427808867925 0.0006317733629000134
1855000 0.00046328420963416805 0.000622219801694803
1902500 0.00045122681389857017 0.0006630934332707511
1950000 0.00044846057850098136 0.0006859976598293649
1997500 0.0005653259761048002 0.0006688754995271124
2045000 0.0005388763871850266 0.0007180159421483282
2092500 0.0005378644755766155 0.0006783768049934647
2140000 0.0005765984682398346 0.0006664475546225066
2187500 0.0005151073642069125 0.0006910876488343228
2235000 0.0005051104280491127 0.0006819584509720426
2282500 0.000542188729870864 0.0007131396775746123
2330000 0.000544682998218167 0.0007925402595532786
2377500 0.0006029447583129825 0.0007694153095980725
2425000 0.000595289137322292 0.0007440397354896679
2472500 0.0006242298138527659 0.0007001662233589271
2520000 0.0006329684073520578 0.0007109508687617863
2567500 0.0006309380836446001 0.0007207992902579434
2615000 0.0006118114850807285 0.0007494999803446645
2662500 0.0006094828461378762 0.000802806438398608
2710000 0.0006519220700597324 0.0007986528318203553
2757500 0.0006590450934930357 0.0007864773364530042
2805000 0.0006924367987516331 0.000807459806565277
2852500 0.0006717992037812118 0.000818939479310759
2900000 0.0006786885112259407 0.0008597180433125546
2947500 0.0006632011437870571 0.0008207070331102709
2995000 0.0006968206698747378 0.0007736773857998395
3042500 0.0007278892591745771 0.0008133761454302439
3090000 0.0007441713752455025 0.0008869026768274336
3137500 0.0007285087711089415 0.0008436306599335729
3185000 0.0006864734269835234 0.0008394888451405855
3232500 0.0007003021889478791 0.0008667808181437278
3280000 0.0008015316576971457 0.0008855344157434515
3327500 0.0007489910625246341 0.0008698103823193802
3375000 0.0007372144349325151 0.0007749718658786127
3422500 0.0007833389393689812 0.0008293488760451334
3470000 0.0007700248914324555 0.000882372254602631
3517500 0.0008008168342912626 0.0008765814866972224
3565000 0.0007565525050253393 0.0008326089798517119
3612500 0.0008450628626860663 0.0008946657764811698
3660000 0.0008109217813060637 0.0009388433026895609
3707500 0.0008313841006018918 0.0009203235193613005
3755000 0.0008431325164924746 0.0009637426002182645
3802500 0.0008351924288225895 0.0008491940809008215
3850000 0.0008381623772368472 0.0008589331154741704
3897500 0.0008342069114910556 0.0009192782919766346
3945000 0.0008219266108436352 0.0009170836918462244
3992500 0.000826922419836323 0.0009320625017760735
4040000 0.0008029655210137478 0.0009386466394495765
4087500 0.0008430894580369535 0.0009403024338004703
4135000 0.0009543580112205895 0.000986921456072224
4182500 0.0009221974156356362 0.0009198696968752821
4230000 0.0008650453278915283 0.0009551012477256143
4277500 0.0009105940742204343 0.0009812691883064628
4325000 0.0009105647873959839 0.000935257172816272
4372500 0.0009098375275721121 0.0009301094318465744
4420000 0.0008843911948209586 0.0009270231183349111
4467500 0.0009790230582651526 0.0009752010110515432
4515000 0.000908292154144468 0.0010262818984205547
4562500 0.0008980431595928824 0.0010104232603552104
4610000 0.0009910301780963829 0.0009475420594208786
4657500 0.000997787226664139 0.00098450160784891
4705000 0.0009878434221439498 0.0009744043131067579
4752500 0.0009737439690369528 0.001031201164056192
4800000 0.0010391222951032899 0.0009730516807444123
4847500 0.0009753698369917527 0.0009556385507138091
4895000 0.0009572413355470969 0.001006392088463446
4942500 0.0010028217501510761 0.0010026156113393193
4990000 0.001034105249907467 0.0009981459119126376
5037500 0.001064501321185253 0.0010733897183836686
5085000 0.00108957322097257 0.0009769497348210354
5132500 0.0010606609470889567 0.0010039805418779384
5180000 0.000973282356214133 0.0010477664483137133
5227500 0.0010238678289697396 0.000982650761468826
5275000 0.0010844713536211196 0.000981090961922643
5322500 0.0010182919327242387 0.0009936798591947435
5370000 0.0010216785688838801 0.0010732811538867613
5417500 0.0010658898903965022 0.001053753222855014
5465000 0.0011228292033779986 0.001081573012785147
5512500 0.0011181033134955018 0.001001389440709067
5560000 0.001064228922557677 0.001003908138626232
5607500 0.0010997015174186084 0.001104158931170103
5655000 0.001136806273244455 0.001045020995050512
5702500 0.0010726797447821008 0.0010598661365735808
5750000 0.0011134457257489664 0.00105037704050076
5797500 0.0011654420620670388 0.0010825797730648259
5845000 0.0011292344796176676 0.0010726036565405297
5892500 0.0011008492942753908 0.0011133382644246883
5940000 0.0011022569606517862 0.0010979838188623285
5987500 0.001145300157462967 0.0010375032379647598
6035000 0.001126905939441921 0.001058626493574773
6082500 0.0011624296400990929 0.0010866752223995415
6130000 0.0011277915873169205 0.0010582698423108807
6177500 0.0010885528322427981 0.0010817802796669552
6225000 0.0011284024671743258 0.0010723925464767505
6272500 0.001125633248979008 0.0010948889037751255
6320000 0.0011383848647374718 0.001098370836869148
6367500 0.0012064148515259464 0.001088146088533348
6415000 0.0012001727565551735 0.0010816844209022027
6462500 0.0011885588619463417 0.0010954210850046995
6510000 0.0011795378248615617 0.0011600222669563376
6557500 0.0011816806894072254 0.001111059424023827
6605000 0.0011760485358363235 0.0010764204098788503
6652500 0.0011871941136174888 0.0011140461278558325
6700000 0.001183139075031362 0.0011060243914677225
6747500 0.0012622959526703045 0.0011445402310041187
6795000 0.0012408870577938914 0.0011248452965858437
6842500 0.001243102973565166 0.0010624860542875867
6890000 0.001167053910723499 0.001126914861428085
6937500 0.0012236515382152914 0.0011518343600168993
6985000 0.0012262968863630823 0.001106238382676028
7032500 0.001260347445482379 0.0011559459490595948
7080000 0.0012279449155031988 0.001138562503420864
7127500 0.0012447199979754798 0.0011930712647674681
7175000 0.0013257851350166054 0.001167956601957097
7222500 0.0012836793524972504 0.0011349148109722623
7270000 0.0012303168764032657 0.0011156798026715601
7317500 0.0012140762338361498 0.0011071515832868548
7365000 0.0012928501989693953 0.0011333842210867872
7412500 0.001249209768893469 0.0011412820159706102
7460000 0.0012462152234312075 0.0012003143802018004
7507500 0.001262117040449536 0.0011402143278559746
7555000 0.0013716687415043461 0.0011469083940952854
7602500 0.0012849474035464814 0.0011905099023448538
7650000 0.0013020132807560732 0.0011834193211614729
7697500 0.0013527367468292406 0.0011398576613581702
7745000 0.0012961077289500294 0.0011114237919748026
7792500 0.0013397044313131529 0.001087587786183985
7840000 0.0014209173674934333 0.0011555544010639364
7887500 0.0012862971613543934 0.0010922951223333187
7935000 0.001349087162512162 0.001210364596171196
7982500 0.001337451180221182 0.0012286349699078456
8030000 0.0013738466351418308 0.0012036570292873442
8077500 0.0013320320091666114 0.0011828148026694985
8125000 0.0013172173718114283 0.0011824448657141017
8172500 0.0013710976281378908 0.0012739673762132548
8220000 0.0013569004546604977 0.001269106770005158
8267500 0.0013752058607264777 0.001227839411152061
8315000 0.0013807075891063654 0.001221098002466037
8362500 0.0014106176185465222 0.0011862399650154674
8410000 0.0013810294994335808 0.0011647597638714659
8457500 0.0013777878850414758 0.0012181164360571815
8505000 0.0013695069423718012 0.0011720856668096412
8552500 0.0013875389654936703 0.0012645257556238184
8600000 0.0014021348028719315 0.0012629938237324078
8647500 0.0014345366267822749 0.0012309648708612735
8695000 0.0014087584861517397 0.0012296415128015352
8742500 0.001459953288302789 0.0012052406068564212
8790000 0.001429961831998154 0.0012367418748232134
8837500 0.0015036182306672806 0.0012027165427943088
8885000 0.0014705438425549173 0.0012121243348049192
8932500 0.001401325390492765 0.0011825468252206267
8980000 0.0014525144119787424 0.0012194959476108226
9027500 0.0014664716241590376 0.0012223628380025856
9075000 0.0014444246324352339 0.0012643083974575176
9122500 0.0014431213018075916 0.0012624640103410345
9170000 0.0015126922333764821 0.0012386005534836303
9217500 0.0014798846625848508 0.0011997503129571342
9265000 0.0014050059294070905 0.0012011932296707307
9312500 0.001511065629673769 0.001228693269772811
9360000 0.00145694121495551 0.0012466700255692933
9407500 0.0014435375382534782 0.0012417103197486863
9455000 0.0015355695364478266 0.0012700480444525623
9502500 0.0014618378464744393 0.0012441507617330131
9550000 0.0014604737999204917 0.0012861766848833163
9597500 0.0015584088600065944 0.001261025983590214
9645000 0.0015024794625682594 0.0012256015166339973
9692500 0.0015192186969233226 0.001222070738855327
9740000 0.0014913227037782772 0.0012336190694573858
9787500 0.001524595145210879 0.0011896439567569558
9835000 0.0014806101731129773 0.0012634227834703035
9882500 0.0014594855807286903 0.0012244970291079948
9930000 0.0014801228293760548 0.001277820902667951
9977500 0.001578484665225528 0.0012652888152803867
10025000 0.001552600279642837 0.001224993292920751
10072500 0.0015681850252663467 0.0012585463714887748
10120000 0.0015706678454525229 0.0012816356993818137
10167500 0.0015773735401776706 0.001243167415318167
10215000 0.0015850739021552088 0.00124162710536873
10262500 0.001581273559884557 0.0012672839975802733
10310000 0.0015447295467312676 0.0012564986581620934
10357500 0.001573405798227159 0.001312390219669657
10405000 0.0015580027625022221 0.0013239312509027567
10452500 0.0016011036933777274 0.0012611850231231008
10500000 0.0016278822136643282 0.0012562752801315027
10547500 0.0016290874745305012 0.0012855199987922097
10595000 0.0015881136222489771 0.001255213364254965
10642500 0.0016440964626992342 0.0012495701155989971
10690000 0.001590908095042099 0.0012810771102899415
10737500 0.0015715057302553587 0.0012830876321861446
10785000 0.0015796088673619205 0.0013328573022052708
10832500 0.0016126335196326007 0.0012779059432905804
10880000 0.0016668225562138847 0.0013494323500583831
10927500 0.0017036656512322132 0.0013075556173940122
10975000 0.0016236222155955546 0.0012842887731790093
11022500 0.0016296123565925046 0.0013644616169367098
11070000 0.0016622976871207096 0.0012567932643504892
11117500 0.001623250199377753 0.0012639660007474432
11165000 0.0016814524535837764 0.001355786671282115
11212500 0.0016487769940314973 0.0012812394415343497
11260000 0.0016452144396240786 0.001367185415946536
11307500 0.0016426031424166946 0.001352976051627478
11355000 0.0016883962077157823 0.0013598892803467137
11402500 0.0016652620930596828 0.0012906673098854679
11450000 0.0016629281056108663 0.0012747270388197417
11497500 0.0017149174535838077 0.0012529251819856707
11545000 0.0016821820325505844 0.0012947045262121039
11592500 0.0016950278408815835 0.0013441983372340137
11640000 0.00162749459733701 0.0013214346697479275
11687500 0.0016871010532503834 0.0013713691070763804
11735000 0.0017192222588081555 0.0013258432997921771
11782500 0.001690335511674994 0.0013299314196518737
11830000 0.00173167586204788 0.0013601846791243646
11877500 0.0017441621086503774 0.0013557297091932713
11925000 0.0016594783172749514 0.0013011777148856948
11972500 0.00173387529796258 0.0013168317958310721
12020000 0.0017533324320369338 0.0012845663246424264
12067500 0.00170387763964487 0.0013658864285822942
12115000 0.0017238214010718662 0.0013535980381591318
12162500 0.0016835004583338757 0.0013093171920602169
12210000 0.0017350832694677737 0.0013710636250347157
12257500 0.001789096639612999 0.0013589910104065681
12305000 0.00175444167149277 0.0013131545947261977
12352500 0.0017077186813537456 0.0013542772082929552
12400000 0.0017400884807387217 0.00133680664515197
12447500 0.0017346823983552509 0.001360961387474677
12495000 0.0017585431920854626 0.0013089275276860716
12542500 0.0017231649621479367 0.0013935911675434615
12590000 0.0018108226528803291 0.0013731708396449872
12637500 0.0017664413596506316 0.0013663960513380087
12685000 0.001810547210986646 0.0013487934467747325
12732500 0.0017762406330031296 0.0013756570395627998
12780000 0.0017812200358977711 0.0012971645026602823
12827500 0.0018235125756841104 0.0013571329146869829
12875000 0.0017769807049957175 0.0013352455472186006
12922500 0.0017970716041051508 0.0013847488732820568
12970000 0.001863447566385216 0.001392520232873761
13017500 0.0017864329230962398 0.0013841222922602154
13065000 0.001853313911536683 0.0013365743580870243
13112500 0.0018484233422029154 0.0013793591912360868
13160000 0.0018253173869842128 0.0013690224151718699
13207500 0.0017377602053809654 0.0013335826659768792
13255000 0.0018278369967849022 0.0013823390085917707
13302500 0.0018585982731637019 0.0013510205588910594
13350000 0.0018213461675472484 0.0013649503016240417
13397500 0.0018123015597397616 0.0014123761587206069
13445000 0.0018095448683858042 0.001412608805041347
13492500 0.0019012860104057475 0.001453516752220564
13540000 0.0018283299327942195 0.001357692588470128
13587500 0.0018461258888218953 0.001387290529112464
13635000 0.0018427635875139185 0.0013964315798899586
13682500 0.0017865334726993754 0.001343812531675875
13730000 0.001848382702572871 0.0014361314451524726
13777500 0.0018691184502862676 0.0014056386168184033
13825000 0.0018929523353298915 0.0014018362782918794
13872500 0.0018965905797781667 0.0014211699136161924
13920000 0.0018717476066095228 0.0014152830678769992
13967500 0.0018680288359187818 0.0013542801238386794
14015000 0.001902284903071265 0.0013950574155878093
14062500 0.0019027197324115097 0.001365439604145041
14110000 0.0018809150996157754 0.0013787995535245701
14157500 0.0019867484881988503 0.0013475805520626538
14205000 0.0019003217427535257 0.0013799483114332741
14252500 0.0018598232224418788 0.0013866104841311342
14300000 0.0018609798417562327 0.0014114073345735583
14347500 0.001943082152499662 0.0014045602477705955
14395000 0.0018717436881281826 0.0014491575179248627
14442500 0.0019518228222950467 0.0013707476161535365
14490000 0.0019683365774102253 0.0014239388263432259
14537500 0.0019518819359222509 0.0013385560502584474
14585000 0.0019506446542358529 0.0013231359540282657
14632500 0.0019221622270972822 0.001366205334452953
14680000 0.0019070006658988073 0.00140880431598312
14727500 0.0018633180557168453 0.0013629652905855604
14775000 0.001883888986024794 0.0013992936837693996
14822500 0.001942382466085347 0.0014080610745175633
14870000 0.0019588066809968626 0.0014392273651020753
14917500 0.001965402541465706 0.001401195850534771
14965000 0.0019734599671061724 0.0014222991166558542
15012500 0.001994430091940805 0.001388856367040118
15060000 0.001907259721997783 0.0013828359906092361
15107500 0.0019191557253007037 0.0013797475861957562
15155000 0.0019287261274047252 0.001449184401302832
15202500 0.0019669399153606987 0.001468536579090412
15250000 0.0020204473641504887 0.0014083846378960543
15297500 0.0020164443411343465 0.0014010523732356764
15345000 0.0019307518557277177 0.0013861147750176925
15392500 0.0020093584071138914 0.0013759513839570908
15440000 0.0020218047995356862 0.0013675979294020938
15487500 0.0019369207370629241 0.0013996874229485147
15535000 0.0020124226782082706 0.001414701646980543
15582500 0.0019430624176414485 0.0014066705051561904
15630000 0.0020353198088374205 0.0014181050947357561
15677500 0.0020127556714967035 0.0014268632817890042
15725000 0.001988401379267218 0.0013758233268169292
15772500 0.0020070613657235522 0.0014179616673163464
15820000 0.0020218589442336536 0.0014134738065991214
15867500 0.002032189578392767 0.0014074232755953062
15915000 0.001993172039681238 0.0014858015163612345
15962500 0.0020611408390916407 0.0014399900556797162
16010000 0.002029535632326066 0.0014724651100410857
16057500 0.0020209199571771005 0.0014102430299183751
16105000 0.0020104344035491214 0.0014501068356167456
16152500 0.0020690411058542153 0.0014162731671581244
16200000 0.0020539197412560942 0.0014227601998868886
16247500 0.0020571303336021254 0.0014504081417877708
16295000 0.002056219290166647 0.0014221556103615205
16342500 0.002078723526731967 0.0014436760051979268
16390000 0.002072692189956779 0.0014716903372399167
16437500 0.002019109814351669 0.0013680263130375699
16485000 0.0020569077655741884 0.0014647882702305075
16532500 0.0020811925242523615 0.0014754871812875613
16580000 0.0021379329332700528 0.0015169080909285442
16627500 0.002060754179905996 0.0014118618595541613
16675000 0.002143715860708322 0.001517200570289219
16722500 0.002145304475513374 0.0014481681489432474
16770000 0.0020947820301042176 0.0014325019256392793
16817500 0.0021486908515846678 0.0014149702261997883
16865000 0.002050054437192669 0.001450477510434908
16912500 0.0020289196666250452 0.0013915921224907253
16960000 0.0020801457976085927 0.0015456547379124957
17007500 0.0020964488803159416 0.0014699916174576262
17055000 0.0021276263747427144 0.0014546958180618357
17102500 0.0021572200387846964 0.0014963336812707736
17150000 0.00216122726767432 0.0014553704562510039
17197500 0.0021134298160995586 0.0014181134893301258
17245000 0.0020694576399124575 0.0014105064672609124
17292500 0.0021276644242437413 0.0014340885001596746
17340000 0.002068629311531725 0.0014776107611612747
17387500 0.0021566301383958712 0.001475294775064266
17435000 0.0021302084281485064 0.001520740421314865
17482500 0.002138376868959062 0.001478593590333493
17530000 0.002171635200193746 0.0014891498444886393
17577500 0.0021698430239280478 0.001456772052370636
17625000 0.0021262086248808334 0.001365634756472671
17672500 0.0021145061422579367 0.0014238207742234596
17720000 0.0021459287317148433 0.0014883381091966646
17767500 0.0021306492305546514 0.001483498860252155
17815000 0.0021543833498849567 0.0014647524301241465
17862500 0.002203998820667985 0.0014407237903636936
17910000 0.00219243229496249 0.0015208342208685817
17957500 0.0022107989483973797 0.0014418310198441938
18005000 0.0021943233557205222 0.0014589095150901363
18052500 0.0022301561589035666 0.0014561607356900904
18100000 0.0021162884674477286 0.0014429463369231435
18147500 0.0020656853337943397 0.0014656467187369833
18195000 0.0021933499281931793 0.0015300723470396134
18242500 0.0022152930468451798 0.0014743226617410362
18290000 0.0022770030523941633 0.0015067221810389454
18337500 0.0022269347541026916 0.0014664114699020688
18385000 0.002258507174702057 0.0014712406562686251
18432500 0.002229542470163105 0.0014144284356821274
18480000 0.002198840416183811 0.001395824956934455
18527500 0.002176678758189112 0.0014829965756431875
18575000 0.0021660574755494374 0.001443644099613624
18622500 0.002244242455992017 0.00147181022572568
18670000 0.0021837793515444644 0.0014547586981984136
18717500 0.002258220244849471 0.0014642065797576093
18765000 0.0022879595898168035 0.0014762756432787876
18812500 0.0022788515806343784 0.0014826564350786614
18860000 0.0022771807619265186 0.0014206404166916757
18907500 0.0022507834529378544 0.0014213464641557444
18955000 0.0022368473107000865 0.0014953977097484008
19002500 0.0022630874782069103 0.0015080930989618702
19050000 0.002239141853001153 0.001456538454024629
19097500 0.0022434726203599607 0.0014891207075881927
19145000 0.002270573134183794 0.001492184479626098
