# HZ S RI R 50
12400000 0.27848643129158235 0.942482405849727
12401000 0.2783661722776239 0.9423746685477743
12402000 0.2785538299583356 0.9423551630637886
12403000 0.2786093887254034 0.9424149044138823
12404000 0.2785892234864806 0.9422604432107974
12405000 0.27887477680205136 0.9421714840260287
12406000 0.2788615469693859 0.9423552109483875
12407000 0.2788990763017753 0.9421633059592317
12408000 0.2790736522696696 0.9421828054378173
12409000 0.2790574183822917 0.9422676633101269
12410000 0.27906434370066263 0.9421497832703638
12411000 0.2792582341739719 0.9420325393553722
12412000 0.2793783322319694 0.9421806443775681
12413000 0.2794336109278372 0.941985901794163
12414000 0.2795536973282517 0.9420209508882786
12415000 0.27966360267734874 0.9420796768120169
12416000 0.2796195326617086 0.9419765462311794
12417000 0.2798300003072361 0.9418334235669605
12418000 0.2799572401720141 0.9420041723934196
12419000 0.2798950538208848 0.9419146971235165
12420000 0.2800956107309965 0.9417857860049861
12421000 0.28006533053675964 0.9418740773856331
12422000 0.28008647654293994 0.9417136142501115
12423000 0.2803040651792099 0.9416006822883637
12424000 0.2803674208022353 0.9417079206539704
12425000 0.2803900624462407 0.9415853846683692
12426000 0.28054611414167635 0.941605756910662
12427000 0.2807066152088312 0.9417117334837652
12428000 0.2806322360962743 0.9415381975372971
12429000 0.28085001823450456 0.9415478961599476
12430000 0.28101369773397056 0.94170470208212
12431000 0.2809534731222233 0.9416907704382572
12432000 0.281240708342483 0.9416027244325589
12433000 0.28125797586111956 0.9417230401528047
12434000 0.2811871449360784 0.9415649569993083
12435000 0.2814159232347084 0.9415014175365475
12436000 0.28147864639515435 0.941600534869137
12437000 0.28151409547614775 0.941460175721161
12438000 0.28164924116356577 0.9413635468689946
12439000 0.2817043845792665 0.9414265907209286
12440000 0.2816646855166359 0.9412934310220543
12441000 0.28192477634916757 0.9412336274581585
12442000 0.28205578537584025 0.9414037570094553
12443000 0.2820485399404883 0.9412733355559569
12444000 0.2822649533556258 0.9411797231858027
12445000 0.28232280294725415 0.9413786893441951
12446000 0.282359557712797 0.9411668574619131
12447000 0.28257889340969466 0.941154289550847
12448000 0.2826736244365525 0.94124346157704
12449000 0.2825996260286684 0.9411565796854794
12450000 0.2827373057412499 0.9410445957276923
12451000 0.2828956143460832 0.9411887395227334
12452000 0.28281524220753435 0.9410963631623299
12453000 0.28305151154750824 0.9409513430850223
12454000 0.28304208510493756 0.9410518299993748
12455000 0.28307925274559415 0.9409247955454062
12456000 0.28327952388770516 0.9408514641506445
12457000 0.28339186115121406 0.9410062269883469
12458000 0.28337606769270596 0.9409146680815504
12459000 0.28362873069734784 0.9408235066923711
12460000 0.2837329582021652 0.9408811744463673
12461000 0.28371119673317197 0.9408760531634254
12462000 0.2838894434989103 0.9407554955756254
12463000 0.2839528496909871 0.9409457139305135
12464000 0.28395233034371353 0.9407699117544415
12465000 0.284021694269519 0.9406936150924344
12466000 0.2841927278291608 0.9407517345516263
12467000 0.2841020348152586 0.9407140773401482
12468000 0.28430492636513255 0.9406501529682123
12469000 0.28434928018701877 0.9407193733523169
12470000 0.28426685643954314 0.9406090798266153
12471000 0.28452223720302594 0.9405313164602254
12472000 0.28469662869095597 0.9405278399797543
12473000 0.2846480764157069 0.940535214520283
12474000 0.284791773856175 0.9404096743413619
12475000 0.2849947385950264 0.9405221505712397
12476000 0.2849893019280061 0.9404474822209188
12477000 0.28522010046995644 0.940195563729255
12478000 0.2852877671712469 0.9403802890931222
12479000 0.2852428302277543 0.9402771702142462
12480000 0.28549744741262556 0.9402856068705608
12481000 0.28550084620810956 0.9403756502237687
12482000 0.2854772924670856 0.9402800054414057
12483000 0.2856468056269019 0.9401723708446128
12484000 0.28582324364786355 0.9402492891488816
12485000 0.28574139284659994 0.940253554358196
12486000 0.28589668981575744 0.9401563024052227
12487000 0.2859511460827524 0.9401916753446934
12488000 0.2859728235781807 0.9402257545720362
12489000 0.28623415278220204 0.9401695854734757
12490000 0.2864263109086211 0.940234899789685
12491000 0.2864235675638044 0.9401825139383302
12492000 0.28653779597389495 0.9401552850534242
12493000 0.28669290743967774 0.9402251546787764
12494000 0.28654638533160454 0.9401230913919406
12495000 0.2867615478258384 0.93999277032459
12496000 0.28679713840433313 0.9400454758571846
12497000 0.28677793712762306 0.9399268649591109
12498000 0.2869068314956718 0.9399418003113771
12499000 0.28688318043336675 0.9399254394362331
12500000 0.28683817012989654 0.9399156401073713
12501000 0.28707446569161665 0.9397695499869819
12502000 0.28723106300812595 0.9398119617543468
12503000 0.28731773259478205 0.939820767163601
12504000 0.28750166556966533 0.9396880723016454
12505000 0.287634114198686 0.9397527409473163
12506000 0.28765386569291373 0.9396896142114384
12507000 0.28784041109917147 0.9395856807600867
12508000 0.2880011137377476 0.9397006604877641
12509000 0.28794341970257065 0.939611114404299
12510000 0.28809136853539297 0.9394668290987146
12511000 0.2881872988554515 0.9396690643712523
12512000 0.28810093717383023 0.9395737528792575
12513000 0.28825140650301717 0.9394060506980734
12514000 0.288391281398127 0.9393504103625322
12515000 0.2883399532144658 0.9394530241866719
12516000 0.2884232867560032 0.9393452624761245
12517000 0.28865135617816445 0.9394617698122485
12518000 0.28858654725617505 0.9392768809486852
12519000 0.2887533903585794 0.939172926165382
12520000 0.2889845096679247 0.9393761063449095
12521000 0.2889305650030943 0.939348442824459
12522000 0.2890688681390111 0.9391808749829461
12523000 0.2892234058864491 0.9393483503561004
12524000 0.2891484297974971 0.9393043749964848
12525000 0.2892929011886687 0.9391492346672564
12526000 0.28949583638394194 0.9391369999258131
12527000 0.28935738107999137 0.9391601476437758
12528000 0.2894912845588153 0.9389833363131448
12529000 0.2896860736046189 0.9391732499645838
12530000 0.28955655047812406 0.9390366543447477
12531000 0.28972663963565587 0.9390484242327559
12532000 0.28998021286506637 0.9389991224449843
12533000 0.289936796534015 0.9388960006456576
12534000 0.29007687122714215 0.9389276007459669
12535000 0.2902462607026314 0.9389311533281334
12536000 0.2901352236082799 0.9388857195913276
12537000 0.29039827220186865 0.9387405677740297
12538000 0.29058029019091236 0.9387682986282013
12539000 0.2905206898429828 0.9388042581188478
12540000 0.2906302491578485 0.9386097622499395
12541000 0.2907054175782049 0.9387181975016152
12542000 0.29064971346414 0.9386886752506635
12543000 0.2907545159714596 0.9385448767272213
12544000 0.29093878778488247 0.9386001812442983
12545000 0.2908929280678522 0.9385282970663577
12546000 0.29104660322214443 0.9384514389080526
12547000 0.29126401429605486 0.9385768410680794
12548000 0.2911225159381474 0.938472983224017
12549000 0.2913667368051561 0.9384368873960879
12550000 0.2915459905643487 0.938478077405541
12551000 0.29163802263187383 0.9384487747684466
12552000 0.2917349920416368 0.9383171142983894
12553000 0.2918717840703452 0.938380269946025
12554000 0.2917811982112967 0.9384198624423222
12555000 0.29188665996834096 0.9381814026202027
12556000 0.2920659415012022 0.9382872005444151
12557000 0.29203758928703083 0.9382756163371195
12558000 0.2920501734154078 0.9381626980183708
12559000 0.29216465250063234 0.9382861689628764
12560000 0.29205946893033485 0.9382857591232815
12561000 0.29223943540686803 0.9380903392162244
12562000 0.29241933997968284 0.9381635442049692
12563000 0.29243911363728703 0.9382113518253146
12564000 0.2925988470007236 0.938151955516958
12565000 0.29275264173070653 0.9381504221681459
12566000 0.2927683295401785 0.9381422081407973
12567000 0.2929611955159182 0.9380573509339322
12568000 0.2931440329311303 0.9380361080315102
12569000 0.2930870035330289 0.9380719650922074
12570000 0.2931421287139937 0.938004601471678
12571000 0.29327151200446017 0.9380040795940031
12572000 0.2932128777316609 0.9379811400273472
12573000 0.2934181957784545 0.9377637584911829
12574000 0.29356699090547594 0.9379347057976014
12575000 0.29356323571143567 0.9379144276946172
12576000 0.29366850486553797 0.9377946202914931
12577000 0.2938717460891081 0.937843711184273
12578000 0.2938640970182348 0.9377538959556685
12579000 0.2939966739859756 0.9376008955434252
12580000 0.2941416928854456 0.9376673606860413
12581000 0.29419676321406235 0.9376397488726476
12582000 0.2943373384371129 0.9375672191238542
12583000 0.294546899358565 0.9376246637388339
12584000 0.294446538257594 0.9375865420299287
12585000 0.2945282550789446 0.9374947855513623
12586000 0.2946758123063002 0.9375492730952005
12587000 0.2945671877951018 0.9375483103230582
12588000 0.29466257794797773 0.9374881982526062
12589000 0.2948656882732214 0.9375611436626589
12590000 0.29469305620550906 0.9375934632559941
12591000 0.2948429828469892 0.9373968531761152
12592000 0.29512426631438277 0.9374724487458777
12593000 0.2950625799932525 0.9374087032143584
12594000 0.29527654526618097 0.9372889935885055
12595000 0.2953979078088461 0.9372782271871559
12596000 0.29541393992988374 0.9373114150413633
12597000 0.29552204322205555 0.937150435456519
12598000 0.29571872086426676 0.9372022078227379
12599000 0.2957364489657179 0.937272268101953
12600000 0.2957689434583068 0.9370664297768841
12601000 0.29594587577531567 0.937164035834967
12602000 0.2959057780762124 0.9372210728352113
12603000 0.29594711307076565 0.9370443950099001
12604000 0.29623562741538745 0.9370033789774465
12605000 0.29616747401623117 0.9371151449517342
12606000 0.2963006480930626 0.9369128800575278
12607000 0.29640451697973863 0.9369732249780093
12608000 0.29642876180545086 0.9370091050632039
12609000 0.29655619302102976 0.9368443902075222
12610000 0.2967831506239029 0.9369147664099094
12611000 0.2967561327572676 0.9369235253246629
12612000 0.2969430455026024 0.9368630769826214
12613000 0.2970891390790707 0.9368274387658159
12614000 0.29690265330276394 0.9368828444368187
12615000 0.29701792003949873 0.9366723304479755
12616000 0.2972265472458436 0.9366966763837241
12617000 0.2971777121515097 0.9368674835414168
12618000 0.29729164281144593 0.9366692933014918
12619000 0.2974147904333081 0.9367007279053929
12620000 0.2973912649760582 0.936768972122219
12621000 0.2974952209076639 0.9366259410219485
12622000 0.2977462971248682 0.9365087154473121
12623000 0.2977059155570054 0.9365803134104077
12624000 0.29782460680868367 0.9364477969711867
12625000 0.29802622038871723 0.9364110530245536
12626000 0.29803522884862843 0.9363882911692721
12627000 0.29812153846792355 0.9362104544350219
12628000 0.29833869133963015 0.9361921968271698
12629000 0.2982463768810178 0.9362945553234148
12630000 0.2983288880382405 0.9362093981062184
12631000 0.2985173982210876 0.9363330649242677
12632000 0.2984454664181551 0.9363332586015853
12633000 0.2985396183864275 0.9362737226074009
12634000 0.2987306038011449 0.9362854641936752
12635000 0.2986537385740339 0.9363312273222685
12636000 0.29880592260654704 0.9362178728915838
12637000 0.29899722494027 0.936173082109637
12638000 0.2989788804491553 0.9361881771864636
12639000 0.299120290854762 0.93592157163691
12640000 0.29934348089507196 0.9359511537231756
12641000 0.29939964326081275 0.9360543068439198
12642000 0.29953347343892445 0.9359294356897563
12643000 0.2996724102688858 0.9358698606482049
12644000 0.29962291818850373 0.9359745937592835
12645000 0.29970695259480845 0.9358207802555231
12646000 0.2998749454827502 0.9358434799476362
12647000 0.2998355169358096 0.935896911201112
12648000 0.29987468676685075 0.9358193288536629
12649000 0.3000505784330811 0.9358888765674305
12650000 0.2999460897489541 0.9359620638807149
12651000 0.30005809262897415 0.9357407295572203
12652000 0.30028048451377853 0.9357997745978903
12653000 0.30029217283441123 0.9357002470086855
12654000 0.30046106608552453 0.9356165580474559
12655000 0.3005862176300264 0.935539411934454
12656000 0.30060378871591575 0.9355785624053077
12657000 0.3007510813196973 0.9354820863083336
12658000 0.3008899954989498 0.9354149948998634
12659000 0.3008919818980416 0.9355013216941953
12660000 0.30096918811464285 0.9354793154159523
12661000 0.3011095582026372 0.9354543201171746
12662000 0.30102597606899123 0.9356301788711482
12663000 0.30113454381567595 0.9354079038856135
12664000 0.30136056285169693 0.9354015316789759
12665000 0.30132167943566834 0.9355929606686793
12666000 0.30139068856008816 0.9354304154894559
12667000 0.3016215429410325 0.9354575796142023
12668000 0.30160326083101524 0.9353819746213314
12669000 0.3016352167594226 0.9352765456833768
12670000 0.3019205515552132 0.935224751115286
12671000 0.3020241859641336 0.9354979355951885
12672000 0.3020140707986853 0.9350885924728066
12673000 0.30220604422674385 0.9350737575523959
12674000 0.30220743792629834 0.935259270937771
12675000 0.3022486840894279 0.9350503577116865
12676000 0.30239555401374857 0.9349816026295582
12677000 0.30240991838220405 0.9351494217022702
12678000 0.30242574949949 0.935045887174144
12679000 0.3025255027467383 0.9350630547050451
12680000 0.3025349835374901 0.9350952009720491
12681000 0.3026417290402765 0.9349280501420679
12682000 0.30284632683927704 0.9348604546588763
12683000 0.30296591805746226 0.9349633661568709
12684000 0.3030121082935279 0.9347615762701724
12685000 0.3031940877936217 0.934761974122496
12686000 0.3031941651972929 0.9347919299094974
12687000 0.3032406099330986 0.9347167639485623
12688000 0.3035005723426066 0.9346290453630275
12689000 0.3034797766046643 0.9347261662071373
12690000 0.3034832213130069 0.9346275263176128
12691000 0.3036930772175393 0.9346852150199152
12692000 0.3036747250135804 0.9347387188329794
12693000 0.3037336675428285 0.9346354606765598
12694000 0.30385085407506546 0.9345896570269416
12695000 0.30391315627289994 0.93470734377986
12696000 0.30391996160097673 0.934555136902259
12697000 0.3041465743364205 0.9344905752636465
12698000 0.30423684324656997 0.9345337279393177
12699000 0.3042600589138533 0.9342681985423403
12700000 0.30454749067650133 0.9342442426374399
12701000 0.304587392229488 0.9344055888350892
12702000 0.3046130438019927 0.9341621848063346
12703000 0.3048326497362028 0.9342554883384654
12704000 0.30485784120312615 0.9342858245135905
12705000 0.304806689506403 0.9342651409689031
12706000 0.3050194796108909 0.9341437011430352
12707000 0.3050902863469829 0.9342892915930711
12708000 0.3049997086033165 0.9341948510873702
12709000 0.3051959511175929 0.93415727810368
12710000 0.305151290953736 0.9343832480092641
12711000 0.3051695711412346 0.93408883505689
12712000 0.3054450302250181 0.9341166087152125
12713000 0.30541847366313557 0.9340931825298726
12714000 0.30551114132026386 0.9339363646615412
12715000 0.30571416004932345 0.9339133911815617
12716000 0.30575912756330764 0.933913498613896
12717000 0.305756810946278 0.9337351831208981
12718000 0.3060218709454617 0.9337216946774944
12719000 0.3060689349743435 0.9338627828617657
12720000 0.30604843062105497 0.9337960342751784
12721000 0.3062072454230468 0.93375412097854
12722000 0.3063091453276507 0.9338324561009198
12723000 0.30628077885553456 0.9338248301299864
12724000 0.3065687948225626 0.9337454252860792
12725000 0.3066221164836785 0.9339098620079832
12726000 0.30668149056983296 0.933770592581943
12727000 0.3067705434072094 0.9336908591008677
12728000 0.3068702534946888 0.9337525007113258
12729000 0.3068732412721165 0.9335763710057691
12730000 0.3071200154017899 0.9334344046767891
12731000 0.30717690167090395 0.9335365493904876
12732000 0.3071592168478907 0.9333443000966483
12733000 0.30732040622695245 0.9332521315283121
12734000 0.3074096469173333 0.9334412699430238
12735000 0.307374774171806 0.9334067693884914
12736000 0.3076125008266499 0.9333583985723801
12737000 0.3076246221280245 0.9334757348162886
12738000 0.3075858725893407 0.9333542512553337
12739000 0.30784036355844785 0.9333979605968837
12740000 0.3078189701632238 0.9335753614892167
12741000 0.3077918379472616 0.9333567279477164
12742000 0.30801979623217035 0.9332842773362873
12743000 0.30805291871264384 0.9332783777425817
12744000 0.3080568540323216 0.9331694911148279
12745000 0.30832393397936697 0.933028537343776
12746000 0.30823556290606857 0.9332127452401474
12747000 0.30826640805567773 0.9329218764656575
12748000 0.30851098207148453 0.9328555147074037
12749000 0.30861301901352894 0.9329949395772612
12750000 0.3085742682590607 0.9330433684464507
12751000 0.30871441383379883 0.9330131203908919
12752000 0.308802621133021 0.9330999928911853
12753000 0.3088085220770826 0.9329493851939367
12754000 0.30906705184553557 0.9328596136418665
12755000 0.3091421410137863 0.933026691447737
12756000 0.3091431426710023 0.9329773093890711
12757000 0.30941206509804015 0.9328674932145771
12758000 0.3093821720590509 0.9329145014020946
12759000 0.30927962319282326 0.9327879772325512
12760000 0.30956356797689655 0.9326316349023511
12761000 0.30972557421197777 0.9327264822409888
12762000 0.3096390800167952 0.9325965949529279
12763000 0.30988794030529837 0.9325618123282734
12764000 0.3098833994879147 0.9326694172861325
12765000 0.30981811366124395 0.932599754167608
12766000 0.3100323151801301 0.9325041847136355
12767000 0.3101586251767037 0.9325911120615817
12768000 0.3101500590344484 0.9325606157017607
12769000 0.3103233386620176 0.9324974087584347
12770000 0.3104247626102216 0.9326644126887147
12771000 0.31040760087554864 0.9325906063590654
12772000 0.31061850737897356 0.9323704011964407
12773000 0.31063876346587893 0.9325076422843184
12774000 0.3106475057003432 0.9324342278109395
12775000 0.31079160122295 0.9322262605140957
12776000 0.3109033883506122 0.9323358229605434
12777000 0.31074588201611386 0.9322033404622048
12778000 0.31100240405900703 0.9320249722708865
12779000 0.3111655997786177 0.9322179955192849
12780000 0.31123873675894426 0.932218072725871
12781000 0.3113651100242054 0.9320901212122127
12782000 0.3114339471196409 0.9322316562300265
12783000 0.3113693448506711 0.9321666673288279
12784000 0.31164333501178726 0.9320848718637185
12785000 0.31172886290630886 0.9321938148067005
12786000 0.311703323556213 0.9320694223091328
12787000 0.31179667223308694 0.93207064418854
12788000 0.3119765620541019 0.9320095967919431
12789000 0.3119047455388741 0.9320153787170365
12790000 0.3121070438915914 0.9318788403660029
12791000 0.31223479940977866 0.9318982813927648
12792000 0.31219002437768256 0.9318264659360183
12793000 0.3124154214551182 0.9316824782206065
12794000 0.3124268078298913 0.9318535969465075
12795000 0.3123473619634456 0.931762061122218
12796000 0.312612612695139 0.9316925738690618
12797000 0.312777325603237 0.9318351915978265
12798000 0.3127428155925544 0.9318705188742064
12799000 0.3128534112093809 0.9317479552175499
12800000 0.3129867795535766 0.9317798340809273
