# HZ S RI R 50
11000000 0.14567563732906885 0.9719170253268973
11007500 0.1462936448689287 0.9716651689098159
11015000 0.14726254284128773 0.9717680517905678
11022500 0.1477334996044432 0.971520444583475
11030000 0.14868366974800643 0.9715252583686456
11037500 0.14929552715478542 0.9712896000073511
11045000 0.15026776408879985 0.9713596593713589
11052500 0.15080526818920767 0.9710119604519161
11060000 0.15184083028808976 0.9711692174450687
11067500 0.15233291382387296 0.9708329059940738
11075000 0.1534140543394548 0.9707552979527004
11082500 0.15394244433548232 0.9705305000021199
11090000 0.15505062605929476 0.9705050794196337
11097500 0.15559334263999686 0.9703975952483423
11105000 0.15665980536271584 0.9703032096027427
11112500 0.15706469199441733 0.9700456708552889
11120000 0.15825573379911606 0.9700635388652432
11127500 0.15871031796849905 0.9698097386303772
11135000 0.15958965762562427 0.9696914411248719
11142500 0.16012829080263552 0.9695633826699644
11150000 0.16101063461450366 0.9695222125733356
11157500 0.161461839627637 0.9693972141773838
11165000 0.16262006987262254 0.9692604841888666
11172500 0.16297797937703712 0.9691149400943688
11180000 0.16397556411431333 0.968948077482806
11187500 0.1643422036693969 0.9689985253215748
11195000 0.16533275745428772 0.96876994982124
11202500 0.1658636995771348 0.9687287718799029
11210000 0.16684260991234834 0.9685432991059013
11217500 0.1673723559095829 0.9684574368773103
11225000 0.1682746823388348 0.9682704319994999
11232500 0.16890352519724813 0.9681651969590599
11240000 0.16983874642064853 0.9678872190344693
11247500 0.17038060200216412 0.9680664391014786
11255000 0.17132078457470448 0.9676438182181224
11262500 0.17196992949383616 0.9677269020656253
11270000 0.17291531151971623 0.9672023026561744
11277500 0.17348488500427348 0.9674471007324299
11285000 0.17438556773438524 0.9670476066827861
11292500 0.17503519984096677 0.9673071730829136
11300000 0.17593294641256568 0.9667689374406547
11307500 0.17662406659885937 0.9669231509339845
11315000 0.1773725120133178 0.9664308172766519
11322500 0.17807013557603865 0.9666521955968649
11330000 0.17892362377355792 0.9660621375338975
11337500 0.17945964807062545 0.9663747797398436
11345000 0.18032468540663343 0.9659357813611466
11352500 0.18115779483007646 0.9661181977525983
11360000 0.18171441649386375 0.965784550624248
11367500 0.18249468608498745 0.9659283948151012
11375000 0.1830789583514781 0.9653592629686405
11382500 0.1837605964721709 0.9655592069385939
11390000 0.18443536558795748 0.9651220787686475
11397500 0.1852402808260672 0.9653686977808463
11405000 0.18585962877429432 0.9648632062440191
11412500 0.1866439899035956 0.9651034504298989
11420000 0.18744436172454218 0.964522424765294
11427500 0.18814188457613945 0.9647643939071368
11435000 0.18868050154046428 0.9642851448367372
11442500 0.18956988232931057 0.9644195777053652
11450000 0.19016415423585367 0.963916302913935
11457500 0.19133848295389874 0.9640192868178302
11465000 0.1917250259846367 0.963721568237572
11472500 0.19265898586559627 0.9637417325297069
11480000 0.19325809631971133 0.9634245387254945
11487500 0.19433992675837292 0.9635095709417524
11495000 0.19486064306205084 0.9630235991518168
11502500 0.1957193725829854 0.963284834658495
11510000 0.19626117595855583 0.9627421661814661
11517500 0.19723034830903655 0.962899490885832
11525000 0.1977339499879785 0.9625278575400181
11532500 0.1986740054768003 0.9626686690681856
11540000 0.19926524777295884 0.9622299329030932
11547500 0.20015086013138872 0.9621027936827143
11555000 0.20046449495535879 0.9622041789070477
11562500 0.2016214139825255 0.962008264709446
11570000 0.20194260329456185 0.9616665434047349
11577500 0.20287838637815248 0.9616058995023596
11585000 0.20330862674385103 0.9615347037778481
11592500 0.20412311374260636 0.9612017985624624
11600000 0.2047412517749886 0.9611998155969793
11607500 0.20561202062794925 0.9610516314870138
11615000 0.20598182045842076 0.9609253384486565
11622500 0.20696912866051093 0.9607809473365725
11630000 0.20747680730835022 0.9606361661407435
11637500 0.20851616466773715 0.9603767100490974
11645000 0.20895218961310724 0.9603539062015887
11652500 0.20987211236182945 0.9600071453937508
11660000 0.2104382571403439 0.9599997118858814
11667500 0.21150891914608025 0.9596680485559487
11675000 0.21206949702458458 0.9598340455712123
11682500 0.21290164782474522 0.959375001029041
11690000 0.21331305465025344 0.9594377646721706
11697500 0.21448707284224552 0.9590851506019195
11705000 0.21500045937537843 0.9591814726303013
11712500 0.21584998188671803 0.9587164845944397
11720000 0.21634935105795064 0.9588075967859523
11727500 0.21726100883447202 0.9583296258325675
11735000 0.2177717646943314 0.9583733862987005
11742500 0.2186900232023874 0.957990813376638
11750000 0.21928781855133717 0.9582301008578373
11757500 0.22003128502317895 0.9575511309954254
11765000 0.22054420930843388 0.9579068000755742
11772500 0.22142067509571875 0.9573624737069462
11780000 0.22210162702705755 0.9575217654963679
11787500 0.22260196648836686 0.9570904966055755
11795000 0.22334597995803823 0.9572597730278221
11802500 0.22394620335196896 0.9568540856799888
11810000 0.22465891974015859 0.9569083940775573
11817500 0.22530999596314388 0.9564786057488257
11825000 0.22601175140736685 0.9566551895458284
11832500 0.22672996213095878 0.9561125170999294
11840000 0.22754261858958186 0.9563154731554525
11847500 0.2280001113407615 0.9558307478374028
11855000 0.22890992109322347 0.9558225846629899
11862500 0.22959544013289096 0.9554458511372037
11870000 0.23035553733056013 0.955447860901735
11877500 0.23097262608736835 0.9553027364693548
11885000 0.23194468247213829 0.9552925471323593
11892500 0.23242480649598507 0.954808603308089
11900000 0.23333576842231932 0.9548305568470343
11907500 0.23392610412044343 0.9544127250669119
11915000 0.23500035755591211 0.9545086696938349
11922500 0.23534521632068872 0.9541161325136407
11930000 0.2361513841702051 0.9541376177610293
11937500 0.23687091738559496 0.9537515364828892
11945000 0.23776077187735645 0.9536336809076125
11952500 0.23806049973213844 0.9534772218493877
11960000 0.23883573530240457 0.9534219871007528
11967500 0.23938305743140217 0.9531165774296847
11975000 0.2402694600804175 0.9531102252879302
11982500 0.24076603881373773 0.9528469576369867
11990000 0.24157584925569778 0.9528080267335723
11997500 0.2419755811545265 0.9524749250748639
12005000 0.242970107355569 0.952540960598505
12012500 0.24338885733139556 0.9522019093903659
12020000 0.24425198618045954 0.9520833823552679
12027500 0.24458414299122083 0.9517837647854612
12035000 0.24563720398144617 0.9515925119059503
12042500 0.246062894392006 0.9515704034152619
12050000 0.24696605009342615 0.9513224790852741
12057500 0.24748796239075044 0.9511743904213225
12065000 0.24851026314302477 0.9509436166231509
12072500 0.2486917068581283 0.9508408602528797
12080000 0.2498920451181331 0.9504614375325938
12087500 0.250388409588342 0.9503213358689397
12095000 0.2514635253736503 0.9502379185055512
12102500 0.25169867754432024 0.9500500607191225
12110000 0.25279357456493223 0.9496696318672809
12117500 0.25317552832639956 0.9497356718051612
12125000 0.2540937634351112 0.949314958465697
12132500 0.25459864375905267 0.9493758565560153
12140000 0.255584052505412 0.9489293504391212
12147500 0.25613660040367797 0.9490369766532948
12155000 0.25688950484502965 0.9485687778626364
12162500 0.25734298603121786 0.9486971820561982
12170000 0.2580519668071604 0.9483754859683516
12177500 0.258546746872314 0.9484538412009088
12185000 0.2594330033729771 0.948005908514341
12192500 0.2598376552461477 0.9480082514006284
12200000 0.26070163386187295 0.9475069512155284
12207500 0.26114819016390894 0.9475526361326407
12215000 0.26188302699801674 0.9472388513639992
12222500 0.262520365371387 0.9473318087458478
12230000 0.2632639907294158 0.9468301071537562
12237500 0.263965781022192 0.9470157224511431
12245000 0.264591260361303 0.9464435286047269
12252500 0.2651472644523998 0.9466213013244195
12260000 0.2660603820146567 0.9460223705077395
12267500 0.2666040608934007 0.9461367695513354
12275000 0.26733386550889365 0.9456075498302652
12282500 0.2681761946183057 0.9459052620127552
12290000 0.2687824631361369 0.9452107147983059
12297500 0.2694562171404231 0.9454361861371674
12305000 0.27018918573238504 0.9449313605535197
12312500 0.2709047665346139 0.945114294394152
12320000 0.2714225828889108 0.9443126691564938
12327500 0.272395035758992 0.944541514372802
12335000 0.27281426480325566 0.9440607509510198
12342500 0.27367999095480516 0.9443071865764495
12350000 0.2741339829836839 0.9437027587117398
12357500 0.2749475505991944 0.943831147527133
12365000 0.2754098994398485 0.943387926406801
12372500 0.27621792453961697 0.9434688476958102
12380000 0.2767024159935675 0.9430325385831239
12387500 0.2775785009260797 0.9430153391481508
12395000 0.27791656626030875 0.9426349462324989
12402500 0.27881313134534835 0.9426663915803366
12410000 0.2792296200979737 0.942415318445796
12417500 0.2800291402434767 0.9422488743413909
12425000 0.28036021394270894 0.9418753315297285
12432500 0.2813770941662522 0.9418640809300377
12440000 0.2816826242201625 0.9415997545094827
12447500 0.28266761622855086 0.9415274936289796
12455000 0.283115657335115 0.9413290405447762
12462500 0.284069585806904 0.9411430599174071
12470000 0.2844611538714014 0.9408414284328908
12477500 0.2854538179356407 0.9406520753808335
12485000 0.2858489306891794 0.94052145426545
12492500 0.2868119667765415 0.9404556814196281
12500000 0.2871228230758702 0.9400942009964514
12507500 0.28832913295957374 0.9396932380134483
12515000 0.28848891931952675 0.9396615923658045
12522500 0.289590876007541 0.9393410326254481
12530000 0.2899132577163948 0.9392527988745326
12537500 0.29089124808669814 0.9389051163198916
12545000 0.2911977783687964 0.938756975352358
12552500 0.29213330149165306 0.9385364129079473
12560000 0.2924708798650007 0.9383695953098048
12567500 0.2933135389784293 0.9382474279859203
12575000 0.2936786733878812 0.9381721989441437
12582500 0.294742020804261 0.9377214024622832
12590000 0.29502653318008076 0.9377720115101004
12597500 0.295846443853608 0.9373742497350713
12605000 0.296256711017809 0.9373171339006516
12612500 0.29705534539749595 0.9370045597957625
12620000 0.29749572925820406 0.9370177663846496
12627500 0.29833898789186986 0.9364553856646703
12635000 0.2987118718570249 0.9366986588636513
12642500 0.29967973437242595 0.9359993007233853
12650000 0.3000651921189875 0.9362065079055977
12657500 0.3009498842204393 0.9356173893813479
12665000 0.3014071965438761 0.9358261718315313
12672500 0.30218993083724965 0.9352744716345394
12680000 0.3027945246631805 0.9354037502452817
12687500 0.3035628209928162 0.9348276143013283
12695000 0.30411906128515726 0.9348682296771355
12702500 0.30490741530233917 0.934270408507835
12710000 0.30556407687079556 0.9344961447545962
12717500 0.3062359564265765 0.9338790773703562
12725000 0.3069166339609393 0.9340489111406806
12732500 0.307533955895699 0.9334437801556221
12740000 0.3081989825273926 0.9336374718755177
12747500 0.30872274529641025 0.9330650820621634
12755000 0.30942981939991887 0.9332031212995056
12762500 0.31003212823109444 0.9326640811987031
12770000 0.31074471341004795 0.9328430240033996
12777500 0.3111782355084883 0.9323158369290967
12785000 0.31199760288235956 0.9325058838099161
12792500 0.3125442974071482 0.9319786423196964
12800000 0.31318266215371054 0.9320036172658802
12807500 0.31353484980090424 0.9315307883235413
12815000 0.314474251011536 0.9315433676685593
12822500 0.314802041100964 0.931076684736658
12830000 0.31563173444001785 0.9312630996816784
12837500 0.316006926728757 0.9307330208904147
12845000 0.31686336166572604 0.930821190509063
12852500 0.3173318809982142 0.9302279389143963
12860000 0.3182368062258957 0.9303450316490491
12867500 0.3185482092202079 0.929800420023868
12875000 0.3195332421120062 0.9297881189754899
12882500 0.31988381975866276 0.9294485571285458
12890000 0.32084444678959956 0.9293598132645408
12897500 0.3211998899573188 0.9290553106992132
12905000 0.32225547108617736 0.9288503309059348
12912500 0.3223911640985888 0.9285568308783371
12920000 0.32353025298976373 0.928376575220485
12927500 0.3238069866318115 0.9281445260391723
12935000 0.32472962894909607 0.9280548432150239
12942500 0.3251336796893267 0.9277506806222248
12950000 0.3260423686652006 0.92756484988145
12957500 0.3262890749291535 0.9273258614058828
12965000 0.32718431630463074 0.9270753902813373
12972500 0.32746749186934465 0.9268994477284415
12980000 0.328396628027972 0.9266871379410856
12987500 0.3287319817487875 0.926453393321239
12995000 0.32968423077205766 0.9262972656271304
13002500 0.32988336187019673 0.9262565126945584
13010000 0.3307525391237392 0.9258187043369406
13017500 0.3311638499889585 0.9257020636239817
13025000 0.3320306070131414 0.9254822376613769
13032500 0.3324331114656664 0.9253166116311334
13040000 0.333149113204689 0.9247467007535525
13047500 0.3335219514195769 0.9249024437568704
13055000 0.33431300087262605 0.9244197330701288
13062500 0.3347824965456606 0.9245121356063595
13070000 0.3357381628895722 0.9240817061299355
13077500 0.33604921694432277 0.9240258470417977
13085000 0.33691226991838313 0.9235301627662946
13092500 0.33739537714030665 0.9236926113103082
13100000 0.33810631853032613 0.9231311805961127
13107500 0.3387694087459278 0.9230390135241991
13115000 0.339508003013087 0.9224987981025017
13122500 0.34009735488793624 0.9225858062067293
13130000 0.3408558967940642 0.9220324713229067
13137500 0.3412769934626632 0.9222496955124211
13145000 0.34192184649332596 0.9217201591449877
13152500 0.3424877866449664 0.92172312530362
13160000 0.34322749772791655 0.9211775404109587
13167500 0.3437482696787448 0.921326867897899
13175000 0.3442757520573523 0.9207827241695167
13182500 0.34491836440481105 0.9208718798831115
13190000 0.3454771820961452 0.9203620745778969
13197500 0.346161021919466 0.9205106800242382
13205000 0.3466385866878611 0.9199587422532256
13212500 0.34721383931000355 0.9199414181271308
13220000 0.34766017465834853 0.9194521923157118
13227500 0.34855609285612854 0.919683831582035
13235000 0.34886815861902587 0.9190773559510544
13242500 0.3496995390187371 0.919121657796146
13250000 0.3501048264207975 0.9186623087913706
13257500 0.35096026552489173 0.9187600979115806
13265000 0.3512547004397996 0.9181958870358075
13272500 0.3520940757156039 0.918105545915185
13280000 0.35255296575443856 0.9176530286871563
13287500 0.3533901693747793 0.9176738903670569
13295000 0.3537165248505526 0.9173165529349695
13302500 0.35456620460464017 0.9172640699414024
13310000 0.3550820793895499 0.9168203206429291
13317500 0.3559753197607889 0.9167767552187287
13325000 0.35627470954475554 0.9164257743430535
13332500 0.35717762525414476 0.9161907036226477
13340000 0.35762196759131293 0.9157754179998724
13347500 0.35848145338287335 0.9157156130532593
13355000 0.3586679515216564 0.9153869641843645
13362500 0.3596814406522244 0.915231338920672
13370000 0.35990044768953555 0.9148624198268351
13377500 0.360760057400626 0.9147535527719113
13385000 0.36101007659054546 0.9146181734278139
13392500 0.36202993927849497 0.9143008577574521
13400000 0.3621962505792243 0.9140674899994916
13407500 0.3630628538955249 0.9138858110929481
13415000 0.3633344004584518 0.9136830724139013
13422500 0.36415618257601545 0.9135368779076518
13430000 0.36437602520001083 0.9132516609082975
13437500 0.36521280687539187 0.9129692951009802
13445000 0.365600293409635 0.9128941684296555
13452500 0.3664131910217275 0.9123963203587936
13460000 0.3667551810849652 0.9123888243914361
13467500 0.36769498257114924 0.9119840942758798
13475000 0.36788509825091087 0.9119011094244008
13482500 0.36893360431281236 0.9115905769844287
13490000 0.3691822154014779 0.9115071461904648
13497500 0.37011280562858795 0.9108898903245134
13505000 0.37049794499647004 0.9110317390078082
13512500 0.37141062506088685 0.9104783439175486
13520000 0.3717626060433368 0.9104890205394808
13527500 0.3725885488354502 0.9098353169097464
13535000 0.3729988838027246 0.9099381179670151
13542500 0.3737158332092199 0.9093875526801234
13550000 0.37416037298022814 0.9094659045470027
13557500 0.37479942857967435 0.9090515619386368
13565000 0.37533637566158956 0.909176400810544
13572500 0.3761913817794332 0.9084561494285361
13580000 0.37639941454366865 0.9085174008798205
13587500 0.377066332875061 0.9079781662636861
13595000 0.3776806125386587 0.908262582107053
13602500 0.37826315321535525 0.9074783637861573
13610000 0.3788653207859803 0.9077070993145744
13617500 0.37932769291175256 0.907046574443901
13625000 0.37991692515341635 0.9072939846595142
13632500 0.38046791669066493 0.9066881017931916
13640000 0.3810565717942627 0.9068361334372144
13647500 0.38154829261040896 0.9060662137813134
13655000 0.3822442177175262 0.9063003059031642
13662500 0.38269980722084324 0.9058254179959421
13670000 0.38329210165186356 0.9057813716533303
13677500 0.3838787680639833 0.905160439938156
13685000 0.38462065386300304 0.9052433123042967
13692500 0.3850145724713637 0.9047407764296079
13700000 0.3857937515442337 0.9048322624971336
13707500 0.38618472149195815 0.9042466991832808
13715000 0.3871360326914296 0.90428870695578
13722500 0.3873270063598022 0.903768513652519
13730000 0.38831054208314364 0.9037163759558731
13737500 0.3886155683222438 0.9031359416368009
13745000 0.38945773426927566 0.9032971302989041
13752500 0.38986208902164987 0.9028314312667876
13760000 0.39064259445050903 0.9027211103544825
13767500 0.3908807849542492 0.9022976074206941
13775000 0.3918201952530734 0.9023360668642574
13782500 0.39205149183128096 0.901762454201633
13790000 0.393002031919809 0.9016841978697407
13797500 0.3931831261661375 0.9013267772955419
13805000 0.3941954672313675 0.9012835194125542
13812500 0.3942694010454641 0.9009660155530818
13820000 0.39512860244549947 0.9006906771194642
13827500 0.3953585523006755 0.9003855777302004
13835000 0.3964172993379759 0.9002011931191652
13842500 0.39644755323483727 0.8998815407900242
13850000 0.39723588190027365 0.8998099392607473
13857500 0.39755434256866073 0.899538620546947
13865000 0.39843772398129645 0.8992728315124603
13872500 0.3985049358630146 0.8991700271610561
13880000 0.3994496197054499 0.8985932180816163
13887500 0.3998164019318352 0.8984638006997737
13895000 0.40063660950356816 0.8981579334392767
13902500 0.40081422300789893 0.8981329324202624
13910000 0.4017704446816511 0.8976391227192678
13917500 0.40206775736286793 0.8975438130620433
13925000 0.4028950166914967 0.8971820249527834
13932500 0.4031753015030229 0.897218375244379
13940000 0.4040191799111531 0.8966354690658306
13947500 0.4042013841691632 0.8965982021698972
13955000 0.40514312024639176 0.8960666323930992
13962500 0.4056298004240814 0.8960417443015687
13970000 0.4063463542802883 0.8955455639012517
13977500 0.40664730351638917 0.8954837814942194
13985000 0.4075248619659231 0.8950249970625545
13992500 0.40791635180575714 0.8952893990821021
14000000 0.40853985604440307 0.8946001535573538
