# HZ S RI R 50
1000000 0.6635582132485747 -0.010261209942021505 0.3107862188829534 -0.003524763882087607 0 0 0 0
1047500 0.6634046250857236 -0.010587135696510961 0.3106453074720673 -0.003591854534561435 0 0 0 0
1095000 0.6635522045095549 -0.011041434100403737 0.3106831882731802 -0.0036333085906897714 0 0 0 0
1142500 0.6635310084167515 -0.011455365913607962 0.31066526187721316 -0.0036592174000574396 0 0 0 0
1190000 0.6635115174412418 -0.011918399523481513 0.3107612609229682 -0.0037051820847489093 0 0 0 0
1237500 0.6635400058878663 -0.01235091025374801 0.31081420716213004 -0.003798982124312949 0 0 0 0
1285000 0.6635591627124806 -0.012744682691739465 0.31085086640984877 -0.003937324754190627 0 0 0 0
1332500 0.6636100450688537 -0.013221504960543959 0.3107382265916248 -0.003959104042667927 0 0 0 0
1380000 0.6634964289593847 -0.013647242200696815 0.31072459818329123 -0.003944940231412548 0 0 0 0
1427500 0.6633543987708025 -0.014099074890758454 0.3108282291011502 -0.0040136667675142075 0 0 0 0
1475000 0.6634779171572562 -0.01440042428904528 0.3107769857538494 -0.004153556046155312 0 0 0 0
1522500 0.6634968793899689 -0.014760964270866582 0.3108011680564657 -0.004254897121521074 0 0 0 0
1570000 0.6635562672945835 -0.015359895953902683 0.3107090032421475 -0.004354064081935581 0 0 0 0
1617500 0.6633906488783899 -0.015793561274394304 0.31077344802674817 -0.004309764207533561 0 0 0 0
1665000 0.6633962935772545 -0.016046607641779086 0.3107242033932504 -0.004409488043757887 0 0 0 0
1712500 0.663523000275736 -0.016507918003965765 0.3108145626806454 -0.004524452357915107 0 0 0 0
1760000 0.6635424228508356 -0.016974851904217034 0.3107481362893618 -0.00460962947503604 0 0 0 0
1807500 0.6634937222898402 -0.017452792150236443 0.31067789214346253 -0.004686787108108558 0 0 0 0
1855000 0.6633217301818153 -0.017893356904305786 0.31073731508286734 -0.0046803501206078854 0 0 0 0
1902500 0.6633495868694742 -0.018167028223834952 0.31080058750270756 -0.004792617910823161 0 0 0 0
1950000 0.6633688740366245 -0.01858923278580465 0.3108093596150621 -0.004975627743148967 0 0 0 0
1997500 0.6634378665161343 -0.019073947372810564 0.3107321832906178 -0.005019950089418933 0 0 0 0
2045000 0.6633866181205271 -0.01952872844631147 0.31072490248085655 -0.00506613203978227 0 0 0 0
2092500 0.6633247219660816 -0.019894869396640084 0.31071831776582287 -0.005081966405554338 0 0 0 0
2140000 0.663382139999305 -0.02026420132529159 0.3108090847724235 -0.005207383336039064 0 0 0 0
2187500 0.6634073740085679 -0.02065555486580921 0.3107327245600681 -0.005317558732084172 0 0 0 0
2235000 0.6633636465005652 -0.02120497987313632 0.3107407642378041 -0.0053773031613682225 0 0 0 0
2282500 0.6632649992310529 -0.02169581362237709 0.3107272203483342 -0.005467329306422561 0 0 0 0
2330000 0.663227416722706 -0.021932951703539722 0.31077847778665724 -0.0054631947988535694 0 0 0 0
2377500 0.6633143210913952 -0.022251434272761078 0.31078375257468793 -0.005606208549500499 0 0 0 0
2425000 0.6633855818618438 -0.02278681169660201 0.3107213399647339 -0.0057505695591873966 0 0 0 0
2472500 0.6632931770174578 -0.02328628031155366 0.31065514081103196 -0.005774334074598213 0 0 0 0
2520000 0.6632273888103113 -0.02365148583200567 0.31073814091516433 -0.005796716100203163 0 0 0 0
2567500 0.6632430493371597 -0.023953708346478076 0.3107580067217142 -0.0058908797611154345 0 0 0 0
2615000 0.6632835864937242 -0.024424942214790236 0.3107526022895286 -0.006062261171795445 0 0 0 0
2662500 0.6633709585859905 -0.02494881097489247 0.3106876423177262 -0.006099375775851264 0 0 0 0
2710000 0.6631564527106424 -0.025423110990059873 0.3106522073804576 -0.006150845432733885 0 0 0 0
2757500 0.6630202683973071 -0.025751509138766535 0.3106909475192608 -0.00619023377058658 0 0 0 0
2805000 0.6630968039590712 -0.026065169261745173 0.310758670522484 -0.0063019443746267344 0 0 0 0
2852500 0.6632710076345806 -0.026546509859642426 0.31076701624956216 -0.006445114436952502 0 0 0 0
2900000 0.6631461313638284 -0.027009729247151393 0.31066435133771764 -0.006481700987149251 0 0 0 0
2947500 0.6630584138893134 -0.02739445312040493 0.31067663335541135 -0.006546370731655705 0 0 0 0
2995000 0.6630375934972322 -0.027760267058257 0.310730464248229 -0.0065816070998985605 0 0 0 0
3042500 0.6631058369291796 -0.028164462528812866 0.3107366477451292 -0.006730554877162179 0 0 0 0
3090000 0.6632022460028426 -0.02871221977011652 0.3107020877787296 -0.006848836346215912 0 0 0 0
3137500 0.6630763754565575 -0.029230936509814606 0.3105622307274869 -0.006887236051024156 0 0 0 0
3185000 0.6629036490978905 -0.029513644076346997 0.3107029421447514 -0.006929059971382192 0 0 0 0
3232500 0.6629736535511687 -0.029790840313164594 0.31075910560146536 -0.0070314580757205114 0 0 0 0
3280000 0.6630839586609126 -0.030267960785889277 0.31076173868574 -0.007133998624532659 0 0 0 0
3327500 0.6631242876814959 -0.030799704481341707 0.3107136587893347 -0.007206395818145039 0 0 0 0
3375000 0.6629495619183193 -0.03125374306010453 0.3107153704048287 -0.007229483581817943 0 0 0 0
3422500 0.6629096891057291 -0.03149827602585288 0.3107234744171189 -0.007274338575664113 0 0 0 0
3470000 0.6630176153727069 -0.03193365581204148 0.3107811852703537 -0.007425179592456307 0 0 0 0
3517500 0.6630691831939877 -0.03242779956561411 0.3107191569313346 -0.0075733090682231765 0 0 0 0
3565000 0.6628879068763138 -0.033043035722196364 0.31063188884168397 -0.007564605612949761 0 0 0 0
3612500 0.6628069864109676 -0.03326050147260836 0.3106373372920481 -0.00764305233715227 0 0 0 0
3660000 0.6628049816047893 -0.033553706144064485 0.31078951134465815 -0.007768627920293602 0 0 0 0
3707500 0.6628883357330255 -0.03400751523557057 0.31072982819928924 -0.007862659268262717 0 0 0 0
3755000 0.6628596757038252 -0.03459119607993686 0.310710706450444 -0.007963087360872935 0 0 0 0
3802500 0.6627870103633414 -0.035046626096654855 0.31068877237155723 -0.007979176237874638 0 0 0 0
3850000 0.662684709424345 -0.03533107573232092 0.3106494745220259 -0.008049387031089768 0 0 0 0
3897500 0.6628304078643172 -0.03567856999326092 0.31074144736207626 -0.008175229324228955 0 0 0 0
3945000 0.662863566787 -0.036141225677154845 0.3106697214358957 -0.008268878920634506 0 0 0 0
3992500 0.6627981585655894 -0.03678634237625838 0.3106340389280996 -0.008372915960263834 0 0 0 0
4040000 0.6625405067675542 -0.03710952172373498 0.3106680481091451 -0.008387122249461419 0 0 0 0
4087500 0.6625471796565987 -0.03734142202456393 0.31069820943825177 -0.008418250009815517 0 0 0 0
4135000 0.6626768156454719 -0.037784571950441895 0.3107055758573178 -0.008589257471657258 0 0 0 0
4182500 0.6627631008465709 -0.03830527043391105 0.3107106843452157 -0.008678708413790547 0 0 0 0
4230000 0.6625840108227977 -0.03879452996344055 0.3106800311022067 -0.008725790442103839 0 0 0 0
4277500 0.6625154915336646 -0.03908003041284429 0.3106529196415964 -0.008780016613698897 0 0 0 0
4325000 0.6625901214868383 -0.03937142134251529 0.31074251423749377 -0.008922359461642517 0 0 0 0
4372500 0.6627074507840853 -0.039912263961852996 0.3107134046714955 -0.00899869057263337 0 0 0 0
4420000 0.6625591371842008 -0.04051501357129643 0.31068155361244143 -0.009088471744675673 0 0 0 0
4467500 0.6624408345898879 -0.040838688935298795 0.3106341389861289 -0.009154861072440205 0 0 0 0
4515000 0.6623444003124478 -0.04109539321057925 0.31070697898049315 -0.009241742682503617 0 0 0 0
4562500 0.6625156660385546 -0.041452019881771565 0.3107027227324159 -0.009307787782098514 0 0 0 0
4610000 0.662556271182365 -0.04206159311465157 0.3106879438509024 -0.009444400420815282 0 0 0 0
4657500 0.6623843419287744 -0.042513742430617465 0.31066330044070006 -0.00946329201995629 0 0 0 0
4705000 0.6622846002375841 -0.04284395175449168 0.3107474540375678 -0.00952896871431806 0 0 0 0
4752500 0.6623114834606489 -0.04309007177932424 0.31072951913580243 -0.009622266859904456 0 0 0 0
4800000 0.6624603353760643 -0.043677340429047334 0.3106939942929106 -0.009758525096516943 0 0 0 0
4847500 0.6623791819726362 -0.04426934560517774 0.31067519135251076 -0.009822625133283995 0 0 0 0
4895000 0.6621606821397626 -0.04463355007245105 0.31062951499978536 -0.009895542577337406 0 0 0 0
4942500 0.6621220557796386 -0.04494116012500167 0.3106226515825103 -0.009960379377785322 0 0 0 0
4990000 0.6621918317943374 -0.04524286480078532 0.310731122864563 -0.010012200284966617 0 0 0 0
5037500 0.6623125405888901 -0.045735626541505474 0.3107377397918677 -0.010125616778264592 0 0 0 0
5085000 0.6621991529185908 -0.04630018836502205 0.31063194386119464 -0.010257708299998999 0 0 0 0
5132500 0.6620448206853682 -0.04660601525792345 0.31063521537075955 -0.010330867461630288 0 0 0 0
5180000 0.6619832254098411 -0.04690900192844092 0.3106463000228501 -0.010322683938513787 0 0 0 0
5227500 0.6621781236629981 -0.04735147750412521 0.31071416678338953 -0.010441437867184414 0 0 0 0
5275000 0.6622317922317813 -0.047908905011008786 0.3106732533274064 -0.010598910244002653 0 0 0 0
5322500 0.6619701252187434 -0.04844316806849943 0.3106585780509258 -0.010627319203840057 0 0 0 0
5370000 0.6618348042927586 -0.04868899361272845 0.3106305675898796 -0.010730697488640169 0 0 0 0
5417500 0.6619196519694208 -0.04894537813337106 0.31070192199775953 -0.010812728805248003 0 0 0 0
5465000 0.6620404750879 -0.049493417641211034 0.3106403148788599 -0.010903605501502047 0 0 0 0
5512500 0.6620016528819828 -0.050015734066207254 0.31065343139384477 -0.010990212854353214 0 0 0 0
5560000 0.6618091247269757 -0.05043530642959429 0.3106477420413163 -0.01102786535116713 0 0 0 0
5607500 0.6617282412546249 -0.0506256566285811 0.31067375065643493 -0.011129944011007125 0 0 0 0
5655000 0.6619136220576831 -0.05105570794253782 0.3107616507197381 -0.011209876833472196 0 0 0 0
5702500 0.661922641215227 -0.051631587966329114 0.310689353195615 -0.011357277250356748 0 0 0 0
5750000 0.6617458821915043 -0.052203769756505335 0.3106564434381618 -0.01142490814191517 0 0 0 0
5797500 0.6616066304197744 -0.052528323706322724 0.3106135079070708 -0.011366573776430139 0 0 0 0
5845000 0.6616485211826187 -0.0527446009131356 0.31068659319161146 -0.011526803052670316 0 0 0 0
5892500 0.6617138569568976 -0.05312749259502852 0.31069754760850254 -0.01162345132738782 0 0 0 0
5940000 0.6616872914869524 -0.05376137149909226 0.31067685151473945 -0.011722913907151493 0 0 0 0
5987500 0.6615458111842959 -0.05417657385242198 0.3106287042800311 -0.011829261272629229 0 0 0 0
6035000 0.6614656020755808 -0.05448548117766138 0.3106684836001987 -0.011845271260441945 0 0 0 0
6082500 0.6615736169061468 -0.054832248908941845 0.3106650512803479 -0.011928780025263142 0 0 0 0
6130000 0.6616103493831816 -0.05535732683077346 0.3106794112976851 -0.012106331616763328 0 0 0 0
6177500 0.6614416390309396 -0.05600286771623458 0.31068980740407937 -0.012167178871856189 0 0 0 0
6225000 0.6612881168002255 -0.056282331508378136 0.3105879159378592 -0.012221831564474142 0 0 0 0
6272500 0.6612527284733387 -0.05653936682474242 0.3106980569528274 -0.012268681880042258 0 0 0 0
6320000 0.6614362757110195 -0.05697707732912419 0.3107431076684366 -0.01239666208490368 0 0 0 0
6367500 0.6614299761873073 -0.057517899048312275 0.3106915173900198 -0.012569009458064901 0 0 0 0
6415000 0.6612484412274839 -0.05799174645487327 0.31058461300883866 -0.012603943815877712 0 0 0 0
6462500 0.6611254059115094 -0.05824805502306649 0.31062756057761687 -0.012613401695622813 0 0 0 0
6510000 0.6612037804759128 -0.05855826494800863 0.31066842450075066 -0.01270259670077113 0 0 0 0
6557500 0.6612688613180215 -0.05912700032584279 0.310711600815642 -0.012869629539030357 0 0 0 0
6605000 0.6611856097525627 -0.05973537678082041 0.3106344787534153 -0.012937614849111816 0 0 0 0
6652500 0.6609982757162145 -0.060110114538445364 0.3106187057983033 -0.012951723081260769 0 0 0 0
6700000 0.6609148154600044 -0.06034603512952672 0.3106799547850405 -0.013004749980254545 0 0 0 0
6747500 0.6610774833708016 -0.06066443658381012 0.3107204529279357 -0.01311372258872952 0 0 0 0
6795000 0.6610804355404195 -0.06130119041241534 0.31068829316013097 -0.013298296113508948 0 0 0 0
6842500 0.6609639694947974 -0.06180537905384589 0.31067199368692744 -0.013397817438900457 0 0 0 0
6890000 0.6608488799950979 -0.062110991717560314 0.3106855416779412 -0.013380729972025768 0 0 0 0
6937500 0.660855963628591 -0.06235740051733792 0.31074501698687507 -0.013456465855054297 0 0 0 0
6985000 0.660958866094762 -0.06283252233471184 0.3107276605999688 -0.013632929320405914 0 0 0 0
7032500 0.6609320707998875 -0.06344914007518408 0.3106797112730706 -0.013742004093381376 0 0 0 0
7080000 0.6606949151324173 -0.06388348763574624 0.31061405558577804 -0.01374726193817988 0 0 0 0
7127500 0.6606286677203689 -0.06412032702131926 0.3106283679285515 -0.013741841527606585 0 0 0 0
7175000 0.660665714609655 -0.06443521294974856 0.31066060990758987 -0.01384982075541014 0 0 0 0
7222500 0.6607515962954128 -0.06493540639991818 0.3107171029534911 -0.014030528662075652 0 0 0 0
7270000 0.6606502370733486 -0.06550469993707544 0.3106451296654612 -0.01417834531030396 0 0 0 0
7317500 0.6604583225300695 -0.06588500063398738 0.31064854366682526 -0.014172165052716155 0 0 0 0
7365000 0.6604932903123295 -0.06612071526914094 0.3106593206540155 -0.01419323917644126 0 0 0 0
7412500 0.6605472408594579 -0.06651516497649661 0.3107006999182059 -0.014352061250125168 0 0 0 0
7460000 0.6605533055692026 -0.06715741622899733 0.3106870563492763 -0.014494976383548377 0 0 0 0
7507500 0.6603669711750023 -0.06766599318885522 0.31063376789544267 -0.014514467214892848 0 0 0 0
7555000 0.6602276790337782 -0.06794410115401686 0.3106459586031018 -0.014582812534422887 0 0 0 0
7602500 0.6602406782673117 -0.06812716103382328 0.31064939188648566 -0.014654028578587434 0 0 0 0
7650000 0.660338143503202 -0.06863183441213229 0.31071142714515687 -0.014797293848565209 0 0 0 0
7697500 0.6603319519445088 -0.06927124706987783 0.31067104223473385 -0.014879534623079421 0 0 0 0
7745000 0.6600975251250668 -0.06968198522318529 0.3105977859898904 -0.014953926034196732 0 0 0 0
7792500 0.6601168557382707 -0.06992037076295116 0.31061825665674886 -0.015034166296601387 0 0 0 0
7840000 0.6601347770069697 -0.07028904344188236 0.310645567088645 -0.015058430112711152 0 0 0 0
7887500 0.6601919081322144 -0.07087821483816964 0.3106557695582329 -0.015214908914329722 0 0 0 0
7935000 0.6599943359392695 -0.07139359939154746 0.3105989545466765 -0.015295750257366923 0 0 0 0
7982500 0.659800398403095 -0.0717261564040158 0.3105799075265721 -0.01537196473366691 0 0 0 0
8030000 0.6598224892366862 -0.07192874093230674 0.3106454318739302 -0.015412227049363326 0 0 0 0
8077500 0.659929729258274 -0.07240039119869385 0.3107373534161476 -0.015530620172709567 0 0 0 0
8125000 0.659914260485712 -0.07292986329620398 0.3105868694078383 -0.015623436593004063 0 0 0 0
8172500 0.6596528880098171 -0.0732965872960074 0.31058768155769156 -0.015728319735876507 0 0 0 0
8220000 0.6596459666187784 -0.07366533832466844 0.31063410667511326 -0.015768831167552202 0 0 0 0
8267500 0.659755906583515 -0.07399275245867833 0.3106653202795271 -0.015834449732022884 0 0 0 0
8315000 0.6597689301209225 -0.07453816369562713 0.3107019464810755 -0.01594665545004476 0 0 0 0
8362500 0.6596179576188073 -0.07506054823759283 0.31062759607076823 -0.016115538941248685 0 0 0 0
8410000 0.6594830094186411 -0.07545551072355718 0.3105665795143305 -0.01614197047914772 0 0 0 0
8457500 0.6594398998086891 -0.07570539399669339 0.3106409803570171 -0.01619114459151105 0 0 0 0
8505000 0.659510846137546 -0.07611257159878435 0.3106517326382485 -0.01631275306855684 0 0 0 0
8552500 0.6595575383303984 -0.07664594218397311 0.3106843732286876 -0.016421408096656653 0 0 0 0
8600000 0.6593737024173021 -0.07721241255679336 0.310583692837104 -0.016496138811239975 0 0 0 0
8647500 0.6591123368627144 -0.07750039991076377 0.31060094092894797 -0.01660056996256796 0 0 0 0
8695000 0.6592212521971972 -0.07771679274410818 0.3106132057180292 -0.016618861816972662 0 0 0 0
8742500 0.6593358391625587 -0.07822900591872818 0.3106918823891581 -0.01666005047802368 0 0 0 0
8790000 0.6592453432722667 -0.07877800825201625 0.310650028632986 -0.016859144863761086 0 0 0 0
8837500 0.6591088376729826 -0.07919834027430553 0.3105484529238351 -0.016966065907104467 0 0 0 0
8885000 0.6589930099446698 -0.0795122127064159 0.3105768593174827 -0.01697979507075725 0 0 0 0
8932500 0.6590556957154649 -0.07983860361531478 0.3106253711953688 -0.016986425640911754 0 0 0 0
8980000 0.6591673907160466 -0.08039389425498449 0.3107147244675379 -0.01718814241332511 0 0 0 0
9027500 0.6589677604275199 -0.08098575244230205 0.31056325597620366 -0.017292665526266078 0 0 0 0
9075000 0.6587426879018942 -0.0812926956599903 0.3105257491510553 -0.017313959525302278 0 0 0 0
9122500 0.6587088763010005 -0.08152564918422978 0.310554061771425 -0.01737420666903346 0 0 0 0
9170000 0.6588101210116366 -0.08187490414337743 0.3106513663068057 -0.017505601452818362 0 0 0 0
9217500 0.6588478089117231 -0.08255646126900315 0.3106622087476158 -0.017652488914597236 0 0 0 0
9265000 0.6586746825770243 -0.08304065742710622 0.31061848650859386 -0.01774224858705967 0 0 0 0
9312500 0.6584741541426204 -0.08329244661419505 0.3105600168187134 -0.017719321604438225 0 0 0 0
9360000 0.6586018917107854 -0.08361382671217758 0.31061859516620327 -0.017827838653033765 0 0 0 0
9407500 0.6586465103702287 -0.08411381260830517 0.3106716214869264 -0.017945850839138796 0 0 0 0
9455000 0.6585334204369395 -0.08466748679076551 0.31066397831763914 -0.018116197134922372 0 0 0 0
9502500 0.6583667391018637 -0.08513786713375153 0.31057478873999733 -0.018140140854580298 0 0 0 0
9550000 0.6581584248638495 -0.08540004385841544 0.31059257454405137 -0.01808895109596537 0 0 0 0
9597500 0.6583642725949769 -0.08569542949408646 0.310679145168787 -0.018235278749037027 0 0 0 0
9645000 0.6583669485548278 -0.08622638658662747 0.3106813111329827 -0.01841955961376273 0 0 0 0
9692500 0.6582252431716819 -0.08672942282168969 0.31060433283523914 -0.01853611223773813 0 0 0 0
9740000 0.6580589676744406 -0.0870562243285938 0.31059838860150885 -0.018529963551436608 0 0 0 0
9787500 0.6580786538088226 -0.08740565597376566 0.31062252047561756 -0.018595361054853096 0 0 0 0
9835000 0.6581913157221471 -0.08784248445983266 0.31068646637665354 -0.01876158593337936 0 0 0 0
9882500 0.6580590115662505 -0.08845230532222366 0.31066387937032514 -0.018858508126432486 0 0 0 0
9930000 0.6578004253805559 -0.08891782669572984 0.31059072780244634 -0.018947271086209274 0 0 0 0
9977500 0.6577051053533567 -0.08909161226407279 0.3106178246178703 -0.018937807382520697 0 0 0 0
10025000 0.6578140453019659 -0.08940576159177377 0.3106505161225395 -0.019032828829572232 0 0 0 0
10072500 0.6578967965723852 -0.08994576725188354 0.3106714180776779 -0.019205449459467384 0 0 0 0
10120000 0.6577408549380778 -0.09052313215614616 0.3105948827804539 -0.019339732753216033 0 0 0 0
10167500 0.6575580825284566 -0.09082946354540929 0.31059703598686655 -0.01936937532105243 0 0 0 0
10215000 0.6575400684102016 -0.09113057305262011 0.3106314743336991 -0.019360019554575274 0 0 0 0
10262500 0.6576114726424133 -0.09155838131460999 0.3106525424647752 -0.019511633637285433 0 0 0 0
10310000 0.657635294205594 -0.09213176018904155 0.31067098935654763 -0.019680994909490476 0 0 0 0
10357500 0.6573590288969353 -0.09264225513179619 0.3105874606407055 -0.019712757596744606 0 0 0 0
10405000 0.6571919345113693 -0.0928636219034718 0.3105620280788782 -0.01979510576269701 0 0 0 0
10452500 0.6572399935276884 -0.09312957719142989 0.3107037886371935 -0.019810574185809633 0 0 0 0
10500000 0.6573795561735037 -0.09365237786140412 0.3106786939484777 -0.01996263141558813 0 0 0 0
10547500 0.6573021161730672 -0.09420627846329027 0.3106171440569493 -0.0200971883323903 0 0 0 0
10595000 0.6570680592147682 -0.09463409639211094 0.3106235874605824 -0.020167647311537487 0 0 0 0
10642500 0.6569266517723908 -0.09487987049109589 0.3106049958595474 -0.020225350977702877 0 0 0 0
10690000 0.6570516894919112 -0.09529711725051776 0.3107060570324409 -0.020284062763811107 0 0 0 0
