# HZ S RI R 50
1000000 0.6638805989048641 -0.010895988010049177 0.31094711858806 -0.0036730170171645382 0 0 0 0
1047500 0.6639218474696303 -0.0111637879648745 0.3107962866536689 -0.0037167235917343663 0 0 0 0
1095000 0.6639438888952695 -0.011684375871983572 0.3108010429838602 -0.0037597708223363665 0 0 0 0
1142500 0.6638359724599121 -0.012102138907730877 0.31083642657845806 -0.003782403631905526 0 0 0 0
1190000 0.6638559712546767 -0.012594527831756398 0.31089258680881 -0.0038372702008786968 0 0 0 0
1237500 0.6638886244230743 -0.012945748018108777 0.3109404686458082 -0.0038935463006469066 0 0 0 0
1285000 0.6639549923410664 -0.013428891297248741 0.31099864213659967 -0.004027787517269602 0 0 0 0
1332500 0.663885496414628 -0.013870231619254289 0.3109045039611526 -0.004109983784174048 0 0 0 0
1380000 0.6638575919452391 -0.014376554472903992 0.31081322163631436 -0.004104822302370926 0 0 0 0
1427500 0.6637251576189547 -0.014767650259868053 0.31090228121560165 -0.00413791545723182 0 0 0 0
1475000 0.6637941577606992 -0.01513605982713491 0.31091012855826367 -0.004255468481678212 0 0 0 0
1522500 0.6638028611754281 -0.015467322592880977 0.31096019886711956 -0.004375128024650073 0 0 0 0
1570000 0.6638197939618583 -0.016062150322442837 0.31086057054001176 -0.004474578624821265 0 0 0 0
1617500 0.6637111547932281 -0.016489843252055138 0.31088262131535965 -0.004448072629767023 0 0 0 0
1665000 0.6637565866776323 -0.016834060229300687 0.3108815607936281 -0.004546387613409416 0 0 0 0
1712500 0.6638579397139164 -0.017233696207212122 0.3109628567055806 -0.0046531559547874635 0 0 0 0
1760000 0.66383306682397 -0.017724020676557917 0.3109030738831663 -0.004733611524565066 0 0 0 0
1807500 0.6638335192808021 -0.018272821327356283 0.3108504848447343 -0.004766351271501088 0 0 0 0
1855000 0.6636916163180269 -0.018672303244650613 0.3108917747245567 -0.004797736120332954 0 0 0 0
1902500 0.6636522133492601 -0.018944031073173637 0.31092902695663366 -0.0048810414822598805 0 0 0 0
1950000 0.6636454391844097 -0.019361677986111086 0.31096112917539426 -0.005079624274239534 0 0 0 0
1997500 0.6637638273327598 -0.019840258581099314 0.31090760594886063 -0.005132833343307567 0 0 0 0
2045000 0.6636428047971487 -0.02028984909749999 0.31085360236925236 -0.005207239737551789 0 0 0 0
2092500 0.6636246852901913 -0.020790723967850644 0.31087885578573893 -0.005194050372736695 0 0 0 0
2140000 0.6636524785128992 -0.021084983677548512 0.31091994113169213 -0.0052974349837676534 0 0 0 0
2187500 0.6636956064257963 -0.021491710967653215 0.31093059615428564 -0.005413110570172749 0 0 0 0
2235000 0.6637388620851445 -0.02203246093675563 0.31088542903217314 -0.0055262949577713095 0 0 0 0
2282500 0.6635459458273497 -0.022565883993987693 0.31087919862480967 -0.0055345600700769 0 0 0 0
2330000 0.663469855179753 -0.022824859636004145 0.31091248767134355 -0.005554391983286154 0 0 0 0
2377500 0.6635441799332147 -0.023141643381364676 0.310933025552862 -0.005699855038990812 0 0 0 0
2425000 0.6636543826562478 -0.02364568105065529 0.3108725290583049 -0.0058159988104043055 0 0 0 0
2472500 0.6636034603975952 -0.024226985301500234 0.31083831696851505 -0.005901531226727355 0 0 0 0
2520000 0.6634725544525073 -0.02468481860783319 0.31086983093515147 -0.005897405798269192 0 0 0 0
2567500 0.6634444761762376 -0.024921090008568056 0.31090704155607496 -0.005959492653849823 0 0 0 0
2615000 0.6635385730571238 -0.025414862038955082 0.31089579169131787 -0.006150323056162777 0 0 0 0
2662500 0.6636103039575753 -0.025978661624461337 0.31089751241324776 -0.006218050591874034 0 0 0 0
2710000 0.6634849738996179 -0.026480213842866633 0.31077819501376497 -0.006249704827431083 0 0 0 0
2757500 0.6633469596964823 -0.02676519299257005 0.31085590555473336 -0.006319467614629873 0 0 0 0
2805000 0.6633892285843647 -0.027085899328343044 0.3108906573673088 -0.006409109499476986 0 0 0 0
2852500 0.663480515441008 -0.027552447915867685 0.31093566364610414 -0.006523317202637291 0 0 0 0
2900000 0.6634712645990536 -0.028096651597278796 0.3108485354078447 -0.006617484876088902 0 0 0 0
2947500 0.6633284126283575 -0.02849333139442138 0.3108385936108501 -0.00667171143749851 0 0 0 0
2995000 0.6633030746078977 -0.02885626353801301 0.31082669627964743 -0.006660984595493619 0 0 0 0
3042500 0.6633591619709722 -0.029213860198531824 0.31087947771688496 -0.006788183078440421 0 0 0 0
3090000 0.663417203158666 -0.029731612518404834 0.31089285814680634 -0.006940823477729772 0 0 0 0
3137500 0.663334826281374 -0.0303687721187844 0.3107699388426046 -0.0070503216024527995 0 0 0 0
3185000 0.6631862359506769 -0.03070290023128433 0.3108150348846279 -0.007019567008023839 0 0 0 0
3232500 0.6631454574313213 -0.0309635987765567 0.3108890080711552 -0.007096090100289016 0 0 0 0
3280000 0.6633467814579569 -0.031390207859604634 0.3109430011038208 -0.0071993641943340885 0 0 0 0
3327500 0.6633408623874233 -0.03197182690865679 0.31083400431736813 -0.007354446299798317 0 0 0 0
3375000 0.6631733269574284 -0.0324355992710375 0.3108041496600029 -0.00736386986334051 0 0 0 0
3422500 0.6631224059564794 -0.03273091053371072 0.31082421547866185 -0.0073927446054827236 0 0 0 0
3470000 0.6632314419796047 -0.03306556699691382 0.3109206851447022 -0.00750470253388658 0 0 0 0
3517500 0.6632477366438917 -0.03363914762630334 0.31087968338384014 -0.007700600548854635 0 0 0 0
3565000 0.6631964955750331 -0.034216849779357614 0.3107921144463693 -0.007722262237854437 0 0 0 0
3612500 0.6630125597892359 -0.03460001755334616 0.3107678103504624 -0.0077871460745133105 0 0 0 0
3660000 0.6629419579109245 -0.03484150003642528 0.31085451676260917 -0.007835800142385482 0 0 0 0
3707500 0.663026155478328 -0.035165448504063265 0.3108859666494492 -0.007938253472036345 0 0 0 0
3755000 0.6631037172189153 -0.03580116153990373 0.3109275861678973 -0.008088884933087888 0 0 0 0
3802500 0.6630328830892425 -0.0363177112481986 0.31086350697411813 -0.00811765742289028 0 0 0 0
3850000 0.6628723929482786 -0.03667244942531981 0.3108344326401218 -0.008166248403162511 0 0 0 0
3897500 0.6629900035386964 -0.0369280062732855 0.310872895612967 -0.008254906670398666 0 0 0 0
3945000 0.6630818715992183 -0.03743811916634201 0.31085946693544114 -0.008362472514317047 0 0 0 0
3992500 0.6630811839814382 -0.03802290293889075 0.31082100352643716 -0.00848310171341324 0 0 0 0
4040000 0.6628037697731032 -0.03844429671909769 0.3107930600666341 -0.008526994701110915 0 0 0 0
4087500 0.6627778787827566 -0.03874008645907844 0.3108486855515848 -0.008546387621092964 0 0 0 0
4135000 0.6628222530041042 -0.03902050441055926 0.3108866917092132 -0.00866661040581537 0 0 0 0
4182500 0.6629679391736564 -0.03958595787490873 0.310933679679938 -0.008809465057958953 0 0 0 0
4230000 0.6627927373876888 -0.0401709663009001 0.31080023227025655 -0.008913798108510134 0 0 0 0
4277500 0.662688406084549 -0.040535785682535096 0.31078968076696817 -0.008900498293163217 0 0 0 0
4325000 0.6626947657060985 -0.040840967712233375 0.31083731749320204 -0.008973961595162125 0 0 0 0
4372500 0.6628322069154474 -0.04128544648126017 0.31088728658472614 -0.009088606768249949 0 0 0 0
4420000 0.6627186268066299 -0.04186432551506929 0.31083465931657706 -0.009259611950136096 0 0 0 0
4467500 0.6626705456046188 -0.042378121806943676 0.3107747171864229 -0.009309484791713195 0 0 0 0
4515000 0.6624596795996329 -0.04267007468629066 0.31078941748767785 -0.009304961012046788 0 0 0 0
4562500 0.6625966839553127 -0.04288589381179749 0.3109031272797047 -0.009353993695740713 0 0 0 0
4610000 0.6626889982664008 -0.043488748499305487 0.31089964663693265 -0.009525747225499228 0 0 0 0
4657500 0.662583835168667 -0.04400882457538099 0.3108442287713738 -0.00963930826546147 0 0 0 0
4705000 0.6624287890937041 -0.044392504416203765 0.31081685268336645 -0.00964149464786636 0 0 0 0
4752500 0.6623893614349572 -0.04466312436029776 0.3108539684785771 -0.00975643486185605 0 0 0 0
4800000 0.6625844416035668 -0.04510207862987602 0.3108372515157674 -0.009822420707233047 0 0 0 0
4847500 0.6625768288195892 -0.04564046769572922 0.31089485004943435 -0.009970342995710266 0 0 0 0
4895000 0.662389937291299 -0.046174168265963336 0.31078466606549354 -0.010021645965385876 0 0 0 0
4942500 0.6622742767381387 -0.04653754804944868 0.31071748209234556 -0.010062896672821993 0 0 0 0
4990000 0.6622472967504349 -0.04677724318783546 0.3108459930193952 -0.010094037653432484 0 0 0 0
5037500 0.662364506549746 -0.04724820185734466 0.31089660369523575 -0.010224050839504898 0 0 0 0
5085000 0.6624103695674899 -0.04785276537262321 0.310808171514091 -0.010403549740030466 0 0 0 0
5132500 0.6621757720694085 -0.048317541871667626 0.3107779836252447 -0.010445213578176663 0 0 0 0
5180000 0.6620514002912818 -0.048619888094473755 0.31079122365776285 -0.010418633189929184 0 0 0 0
5227500 0.6621804494678104 -0.04895228278546623 0.31085538514607797 -0.010534231667351525 0 0 0 0
5275000 0.6622671061362048 -0.049491247832450486 0.3108670654863788 -0.010716114379262736 0 0 0 0
5322500 0.6621536293426027 -0.05006330058572524 0.31079072866618745 -0.010836619363776952 0 0 0 0
5370000 0.6619713799078601 -0.050472189458501855 0.31074712972215196 -0.010847671000076806 0 0 0 0
5417500 0.6618549208279517 -0.05065359158469924 0.3107889691973951 -0.010901469581446928 0 0 0 0
5465000 0.6620504181249488 -0.05103811072800004 0.31083575124210366 -0.010949572246190645 0 0 0 0
5512500 0.6621002319933504 -0.05164994206053973 0.31084139437449604 -0.011119506304547519 0 0 0 0
5560000 0.6619602180095736 -0.05216296046562733 0.3107933818882366 -0.011184683288628762 0 0 0 0
5607500 0.6617716440561828 -0.05247055277994584 0.3107928488319951 -0.011210054270925349 0 0 0 0
5655000 0.6618592090284734 -0.05273553588985258 0.3108719402705027 -0.011320139561049507 0 0 0 0
5702500 0.6619519136614498 -0.05329958771041043 0.3108842189699148 -0.011450611716100905 0 0 0 0
5750000 0.6618528072635859 -0.05389907264673746 0.31083869859746754 -0.011520620984442065 0 0 0 0
5797500 0.6616908474606905 -0.05434560038476037 0.31078395000849507 -0.011574313813559448 0 0 0 0
5845000 0.661607090005192 -0.054584750353212155 0.3107615231460436 -0.011622764190766606 0 0 0 0
5892500 0.6617018142513469 -0.05491153625706241 0.3108866795331958 -0.011684744440597482 0 0 0 0
5940000 0.6617042082427365 -0.05550437905008202 0.3108964638070315 -0.01186792695215528 0 0 0 0
5987500 0.6616400492677671 -0.05600680828439239 0.3108139229065213 -0.011996887724971967 0 0 0 0
6035000 0.6614108025950509 -0.05641353724846727 0.310803827365888 -0.011962236522441706 0 0 0 0
6082500 0.6614535744674058 -0.056639054820483474 0.3107889732458806 -0.012043448087636082 0 0 0 0
6130000 0.6616147261493359 -0.0570948164583643 0.31084964828148165 -0.012199176955840432 0 0 0 0
6177500 0.6615879304171318 -0.05776566357152701 0.31088529422549277 -0.012281730948283094 0 0 0 0
6225000 0.661362372611363 -0.05818953482849204 0.31074470123257925 -0.012361458909927172 0 0 0 0
6272500 0.6612509052872643 -0.05847246370995233 0.31074927298757776 -0.012361508244225383 0 0 0 0
6320000 0.6613263876262007 -0.058817622748431074 0.31085309808896927 -0.01241924248398881 0 0 0 0
6367500 0.6614191487067672 -0.059351817258242665 0.3108723944330357 -0.01259873740239224 0 0 0 0
6415000 0.6613071723160925 -0.05989171184518984 0.31078738872098144 -0.012739136387794992 0 0 0 0
6462500 0.6611461413515577 -0.06026245801238086 0.31077931736063125 -0.012794855408974046 0 0 0 0
6510000 0.6611008854511328 -0.06055382313146132 0.3107870700235911 -0.012819714295644597 0 0 0 0
6557500 0.6612179016297808 -0.061008849344746395 0.31084931314014985 -0.012895322249062435 0 0 0 0
6605000 0.6611836007973599 -0.061569546715798826 0.3108218294900571 -0.013053882785045538 0 0 0 0
6652500 0.6610786527098954 -0.06210903118900036 0.31073163358171446 -0.013165864689053852 0 0 0 0
6700000 0.6608525811994787 -0.06241526916862657 0.3107749988197697 -0.013153635737603205 0 0 0 0
6747500 0.6608866394523893 -0.062656899920881 0.31080577675615256 -0.01319034114015564 0 0 0 0
6795000 0.6609883466212833 -0.06317346471097436 0.3108813197202974 -0.013366509759184035 0 0 0 0
6842500 0.6609467009495982 -0.0637517805918808 0.31084610399837886 -0.013505834502842894 0 0 0 0
6890000 0.6608297045092829 -0.06417256534983334 0.31079533552517824 -0.01355784948828988 0 0 0 0
6937500 0.6606948132115089 -0.06444225029608712 0.3108053006484966 -0.013590542991776752 0 0 0 0
6985000 0.6608193433994021 -0.06479886562474448 0.3108901586454105 -0.013655536918842538 0 0 0 0
7032500 0.6608439364459299 -0.06535581745671803 0.3108661523084943 -0.013827607343812205 0 0 0 0
7080000 0.6606770927204217 -0.06592529780705396 0.3108415779401496 -0.013876798426707861 0 0 0 0
7127500 0.6604942001766391 -0.06626096320893779 0.31071944795405176 -0.01393392057124092 0 0 0 0
7175000 0.6604848007435916 -0.06649965329285278 0.310777695732722 -0.013985078670399874 0 0 0 0
7222500 0.660598256841552 -0.06692276419515204 0.31087880353740005 -0.014127338473119375 0 0 0 0
7270000 0.6605665780849878 -0.06756624976505016 0.3108101453908567 -0.01428785213748788 0 0 0 0
7317500 0.6603892902391482 -0.06799230396190599 0.31080180656885853 -0.01430679249071632 0 0 0 0
7365000 0.6603291875800071 -0.0682787561771268 0.3108117132721335 -0.014320680528421932 0 0 0 0
7412500 0.6603671154920681 -0.06862337747050527 0.31082642000596344 -0.014448576113739009 0 0 0 0
7460000 0.6604255479890452 -0.06919661344577516 0.31083988949359515 -0.014579328236830679 0 0 0 0
7507500 0.6602645645876477 -0.0697556810384728 0.31076593332051866 -0.014658490523060083 0 0 0 0
7555000 0.660078367405007 -0.07015343428901842 0.3107869811178396 -0.014747724697962 0 0 0 0
7602500 0.6600079890119824 -0.0704100800050809 0.3107804676131269 -0.014776647193125662 0 0 0 0
7650000 0.6601368937054378 -0.070828763323694 0.31086645148580067 -0.014896258308871787 0 0 0 0
7697500 0.6601600402387607 -0.07138928487317588 0.3109011394321421 -0.01499226870541421 0 0 0 0
7745000 0.659964948727384 -0.07186668974716048 0.3107992734906117 -0.015115353708625733 0 0 0 0
7792500 0.6597993468648681 -0.07217514964338848 0.3107534252279165 -0.015121526988308652 0 0 0 0
7840000 0.6599164165795262 -0.0724791037209134 0.3107576742608122 -0.01515082153201634 0 0 0 0
7887500 0.6600283563647058 -0.07304326662930005 0.310856245112665 -0.015316092209468564 0 0 0 0
7935000 0.659876577559304 -0.0736302307268977 0.3107899859866712 -0.015427532645353133 0 0 0 0
7982500 0.6597024180351 -0.07399771490319798 0.3107277424042268 -0.015538636269262114 0 0 0 0
8030000 0.6596080269834733 -0.07426509499382583 0.31078562152882455 -0.015498983114130145 0 0 0 0
8077500 0.659661293987294 -0.07461554796379134 0.31081798788938736 -0.015560776067843852 0 0 0 0
8125000 0.6596783284605812 -0.0751539856682746 0.3107635355242088 -0.015765724771898963 0 0 0 0
8172500 0.6593348336660081 -0.07564191601647992 0.31071647268758706 -0.015832776360292195 0 0 0 0
8220000 0.6593583164551049 -0.0759901965549642 0.3107258910349598 -0.015861167069329697 0 0 0 0
8267500 0.6593349901674903 -0.07629228048549148 0.3107805793406547 -0.015933103670263866 0 0 0 0
8315000 0.6594908740028675 -0.07679744981135114 0.31091522191367027 -0.01603705929096596 0 0 0 0
8362500 0.6594266667225684 -0.07735790354048554 0.3107812961583222 -0.016228436542462466 0 0 0 0
8410000 0.659251889610592 -0.07783120682601581 0.3107455102706484 -0.016282952897301122 0 0 0 0
8457500 0.6590518761851877 -0.07812313793524853 0.3107534701305085 -0.0163022777432639 0 0 0 0
8505000 0.6591295892241477 -0.07848582982339872 0.31083519724317077 -0.01638707167255613 0 0 0 0
8552500 0.6592828866719928 -0.07900006342590205 0.310872778009573 -0.016530337684774646 0 0 0 0
8600000 0.6591679593629901 -0.07954400750057952 0.31075746910448176 -0.01662478471224886 0 0 0 0
8647500 0.6588381313534318 -0.08000847984119161 0.3107200467372646 -0.016730007348563506 0 0 0 0
8695000 0.6588647372835228 -0.08021654881152343 0.3107180177673677 -0.016728188969461443 0 0 0 0
8742500 0.6589831734209968 -0.08063553314642109 0.3108640987958438 -0.016782237175496897 0 0 0 0
8790000 0.6589490600667577 -0.08120525109781065 0.31080403419814623 -0.01695590687650257 0 0 0 0
8837500 0.658799763119033 -0.0817304056437517 0.31071730028478023 -0.017098766843050874 0 0 0 0
8885000 0.6586405192459451 -0.0819792620552192 0.3107508759551968 -0.017111078782686265 0 0 0 0
8932500 0.6586693258459524 -0.08231376343762344 0.3108004151935623 -0.0170953969992573 0 0 0 0
8980000 0.6587686374788816 -0.08279129355964654 0.3108230651715788 -0.017289486782536813 0 0 0 0
9027500 0.6586402559751263 -0.08344814677342945 0.31079728729802714 -0.017439989795612384 0 0 0 0
9075000 0.6583967858306251 -0.08379385910548419 0.3107238516392361 -0.01747953125570657 0 0 0 0
9122500 0.6583093527991952 -0.08401460980376409 0.3106926724685785 -0.017491362544584273 0 0 0 0
9170000 0.6583699638566332 -0.08446139976837129 0.31078379813309964 -0.01754962616793933 0 0 0 0
9217500 0.6584297478364061 -0.08497435738278467 0.31084679598883824 -0.017790397364935283 0 0 0 0
9265000 0.6583019933624622 -0.0855414752371304 0.3108000947731281 -0.017903787039344626 0 0 0 0
9312500 0.6581090509896653 -0.08585873369002789 0.3107322194623808 -0.017874898220393075 0 0 0 0
9360000 0.6580668329024547 -0.08614547363129735 0.3107646198317092 -0.01795493114829435 0 0 0 0
9407500 0.6581396197378564 -0.08658679524767514 0.3108638155878293 -0.01801773399268103 0 0 0 0
9455000 0.6581833384035405 -0.08720385540365864 0.3108443448952409 -0.018224565236131106 0 0 0 0
9502500 0.6579535863273057 -0.0877279264845102 0.31074999785710633 -0.01829231774663975 0 0 0 0
9550000 0.6578092947162896 -0.08796365090153441 0.310756410834713 -0.018277161234623595 0 0 0 0
9597500 0.6579070997471907 -0.08823901207463314 0.31082468751594583 -0.018364815493326744 0 0 0 0
9645000 0.6579741716047542 -0.08884567808154496 0.3109306610915575 -0.01848131195861622 0 0 0 0
9692500 0.657853222240823 -0.08937372557493466 0.31080564500104385 -0.018647508616717958 0 0 0 0
9740000 0.6576132804277864 -0.08969326024177544 0.3107306234951073 -0.01874582587031048 0 0 0 0
9787500 0.6575094106671583 -0.09005149091195803 0.3107740241991114 -0.01875300827236106 0 0 0 0
9835000 0.6576014332945826 -0.09037450801530444 0.31085573576743175 -0.018833918510356044 0 0 0 0
9882500 0.657599661843332 -0.09101468053939285 0.31087081097842373 -0.018965189988869858 0 0 0 0
9930000 0.6573455879271527 -0.09154824970764981 0.31079326411576275 -0.019099421970511142 0 0 0 0
9977500 0.6571878127101771 -0.09177326443519282 0.31073566085714777 -0.01908580593509665 0 0 0 0
10025000 0.6572780067249476 -0.09210858169954579 0.3108045532511171 -0.019138642862407802 0 0 0 0
10072500 0.6573252908025902 -0.09257330760604979 0.3108520025748434 -0.019312550971697214 0 0 0 0
10120000 0.6572744884115652 -0.09321579029530372 0.31083150192334197 -0.01947236481935434 0 0 0 0
10167500 0.657010742793483 -0.09356104789218192 0.3107678347753027 -0.01943858896596377 0 0 0 0
10215000 0.6569686672360715 -0.09387141198957699 0.3107647777621054 -0.019510504672232483 0 0 0 0
10262500 0.657103200054429 -0.09427823910951093 0.31083848488159493 -0.01958304984241749 0 0 0 0
10310000 0.6570790876671901 -0.09476447091804589 0.3108270618650709 -0.019750898466912352 0 0 0 0
10357500 0.6568687942808202 -0.0953489881087233 0.31076794910939953 -0.019840070430768575 0 0 0 0
10405000 0.6566454107691732 -0.09563592195171834 0.31071987678084234 -0.019911697535442474 0 0 0 0
10452500 0.6566412530160736 -0.09596537108136499 0.3108498691241517 -0.01993085132064593 0 0 0 0
10500000 0.6567111934061226 -0.09641449887681333 0.31086178279711035 -0.02003808715399363 0 0 0 0
10547500 0.6567162168183924 -0.09701808678517036 0.3108709295470458 -0.020226729485961215 0 0 0 0
10595000 0.6565252420146979 -0.09746360635032142 0.3108710000561784 -0.02030110305335612 0 0 0 0
10642500 0.6563800741940362 -0.09779541203530064 0.31071857224619487 -0.020349502343219673 0 0 0 0
10690000 0.6563942191987352 -0.09810518484335685 0.3108200960890639 -0.020361677396789298 0 0 0 0
