# HZ S RI R 50
1000000 0.9987459522281597 -0.011384784202072243
1047500 0.9991689847176977 -0.012038985305180171
1095000 0.9985921271385091 -0.012734159009458262
1142500 0.9984177069314133 -0.013285171237209906
1190000 0.9982201714796182 -0.013768693365464414
1237500 0.9985077470913336 -0.014132759720237467
1285000 0.9988149396873517 -0.014631788503116708
1332500 0.9988916771624123 -0.015271098965951219
1380000 0.9987830566341063 -0.015543837930039129
1427500 0.9989361018018227 -0.016021637941323875
1475000 0.9989859858901068 -0.016688313512601513
1522500 0.9988140051393608 -0.01735434826802367
1570000 0.9986013417532371 -0.018024914617058855
1617500 0.9987298345067669 -0.01845354050743759
1665000 0.9988167414157852 -0.019005271875016456
1712500 0.9989073856464323 -0.019688976916785558
1760000 0.9987763468878231 -0.02043926592756738
1807500 0.9987183930600342 -0.020948903853652986
1855000 0.9987733634016529 -0.021367565433489093
1902500 0.9988095976879146 -0.021992878208253186
1950000 0.9988320491989754 -0.022700561457511894
1997500 0.9988318166202422 -0.02323712337316275
2045000 0.9987922034683866 -0.023748781262395595
2092500 0.9988931727187407 -0.02416888386749178
2140000 0.9989041636671666 -0.024859636356067458
2187500 0.9990261711039335 -0.02548770891384267
2235000 0.9989476244055746 -0.026019838781106853
2282500 0.9988735977459386 -0.026428408209852663
2330000 0.9990250881164284 -0.026835379669038307
2377500 0.9991098514218064 -0.02750942937975136
2425000 0.9990660531965146 -0.028108090269181856
2472500 0.9989263653924182 -0.028541063852524886
2520000 0.9988883133348033 -0.028890150366416165
2567500 0.9990425577882409 -0.029475446157591127
2615000 0.9990993464630121 -0.030194980724417262
2662500 0.9988295340825994 -0.03077246293203115
2710000 0.9985845887843843 -0.031183762504107284
2757500 0.9987528415834456 -0.03168030527756693
2805000 0.9989134951862347 -0.03247766830796244
2852500 0.998691188125136 -0.03309250039481651
2900000 0.9985677169434043 -0.03358197083261513
2947500 0.9986922158804487 -0.03407111126138336
2995000 0.9988522664761004 -0.03470130889523226
3042500 0.9988595366334702 -0.035393118373375235
3090000 0.9986194692697509 -0.03604128062257885
3137500 0.9985882383107836 -0.03648709111534417
3185000 0.9987115346153556 -0.03693944028142705
3232500 0.9988621719240985 -0.0376347331817633
3280000 0.998722680355326 -0.03829711812018464
3327500 0.9987103912080505 -0.03883578934770802
3375000 0.9987706303013402 -0.039235643162266284
3422500 0.9989639427747028 -0.0397390012212836
3470000 0.9989871330508382 -0.04046534860071937
3517500 0.99892255105536 -0.041070215969111944
3565000 0.9987776307574204 -0.04153558120344303
3612500 0.9988787163931389 -0.041916500556440146
3660000 0.9989589302305919 -0.04256722088070041
3707500 0.9988891791576392 -0.04321443938393245
3755000 0.9987512640373313 -0.04364488627836926
3802500 0.9987851964149205 -0.04407430736295879
3850000 0.998895398581939 -0.044548539102942604
3897500 0.9989181421163202 -0.045280500050717876
3945000 0.9987658338227272 -0.045932377334311436
3992500 0.9986434102460912 -0.04636956451435398
4040000 0.9986331018412495 -0.04675062520199578
4087500 0.9987850229628802 -0.04737818392518642
4135000 0.998775764994987 -0.048256120652152346
4182500 0.9986223789652053 -0.04875392480304324
4230000 0.9985079994810927 -0.04918871612061822
4277500 0.9988147141720211 -0.04971988891853604
4325000 0.9989128377136097 -0.050396322781838004
4372500 0.9987710525332255 -0.05113354879562077
4420000 0.9985378553216698 -0.05163164290532699
4467500 0.9985754319183383 -0.05208921943928545
4515000 0.9988386681780221 -0.05262039295650076
4562500 0.9988725156095176 -0.05334340421308564
4610000 0.9986858850181445 -0.053987432427626256
4657500 0.9986934757011918 -0.05437421677157928
4705000 0.998810792560414 -0.0548150287010475
4752500 0.9988947108807197 -0.05546942591417948
4800000 0.9988176111259685 -0.0562092402780161
4847500 0.9988101610226715 -0.05669036787716396
4895000 0.9987209141986592 -0.05699029887548541
4942500 0.9988933926783212 -0.057485752245048954
4990000 0.9988823109568428 -0.05814048003707504
5037500 0.9987916467371603 -0.058741033833620206
5085000 0.9987429703286751 -0.059272948418530196
5132500 0.9986329012356826 -0.05967693120522841
5180000 0.9987274731141053 -0.06024842044206396
5227500 0.9987900873655886 -0.06096744350308533
5275000 0.9985459538240768 -0.06164531130214602
5322500 0.998578555629271 -0.06195193998202338
5370000 0.998616790209718 -0.06251686535470913
5417500 0.9987031395434729 -0.06323332997694266
5465000 0.9985420331115532 -0.06387445848266347
5512500 0.998393910664939 -0.06425029689531196
5560000 0.9984579204765991 -0.06472629126218575
5607500 0.9986844111460228 -0.06552372399032431
5655000 0.9985591763239471 -0.06622814839632166
5702500 0.9983595022436155 -0.06675763068323201
5750000 0.9983076439778621 -0.06721312947959109
5797500 0.9985469007230907 -0.0677906076819054
5845000 0.9985830902556249 -0.0686155462409861
5892500 0.9984786595860878 -0.06917887444385509
5940000 0.9983823299066287 -0.0696102997214071
5987500 0.9986225433035307 -0.07002861164403537
6035000 0.9987385084921887 -0.07067992222335806
6082500 0.998650880940026 -0.07148551527343121
6130000 0.9984633532998207 -0.07196511813093127
6177500 0.9985241148609476 -0.07234568720130467
6225000 0.9987044206379498 -0.07284727203293412
6272500 0.9987112444476747 -0.07348361253256959
6320000 0.9984923416372422 -0.07411690254861535
6367500 0.9984993020105861 -0.07455945466941948
6415000 0.9986759126563802 -0.07491839779077877
6462500 0.9987322994362832 -0.07555939527297352
6510000 0.9986656177336577 -0.07625124973176838
6557500 0.9984976874471967 -0.0768131518209105
6605000 0.9985211439652159 -0.07723181495388697
6652500 0.9985478652530883 -0.07766089495449686
6700000 0.9986153043829169 -0.07825188554337377
6747500 0.9984742815196999 -0.07894608373887979
6795000 0.9982506633880109 -0.0794100619305516
6842500 0.9982868379390654 -0.07991814921102543
6890000 0.9983593914178387 -0.08036947707520878
6937500 0.9985313852403849 -0.08116167321363593
6985000 0.9983984994733105 -0.081948028549909
7032500 0.9982546505250308 -0.0823369452655258
7080000 0.9981502954607219 -0.0828223560316872
7127500 0.9984239430572832 -0.08341851298473238
7175000 0.9983335772590688 -0.08429466268592353
7222500 0.998233494949508 -0.08473592210535591
7270000 0.9982556747289498 -0.08517940540675499
7317500 0.9985255038297609 -0.08575359543716714
7365000 0.9985365931818095 -0.08651301641582923
7412500 0.9982886987939613 -0.08706128086304221
7460000 0.9982092733994313 -0.08757904411555467
7507500 0.9983503003775748 -0.08810378407388011
7555000 0.9986014398920626 -0.08872606621284963
7602500 0.9985110976558063 -0.08940270431464688
7650000 0.9982757881286949 -0.08994344887380434
7697500 0.9983383857826416 -0.09031963912385194
7745000 0.9984723068859331 -0.09085968295870447
7792500 0.9985486799315005 -0.09154717784023851
7840000 0.9983025700619035 -0.09211910664146913
7887500 0.9981655856410422 -0.09263211472423927
7935000 0.9983685737001903 -0.09298792308997893
7982500 0.998363335829429 -0.09360163966432032
8030000 0.9982050433467922 -0.09429365312257468
8077500 0.9981026230901786 -0.09476427626589672
8125000 0.9981479514774759 -0.09522612452794918
8172500 0.9981439774773249 -0.09603911069555192
8220000 0.9979575780347928 -0.09648975967182662
8267500 0.9980045534753055 -0.09703113474793397
8315000 0.9978103631867894 -0.09748095785716396
8362500 0.997906474963017 -0.09797172356006971
8410000 0.998030975436203 -0.09862280305461266
8457500 0.9979883725050845 -0.09943021983355059
8505000 0.9978453212692395 -0.10000372668372015
8552500 0.9977666232947218 -0.10042674933077304
8600000 0.9979665849664009 -0.1010684251590676
8647500 0.9980460523498195 -0.10177896316290522
8695000 0.9979864277375995 -0.10237512761292979
8742500 0.9978941771425901 -0.10283964561701367
8790000 0.9978816460043864 -0.10328976610374986
8837500 0.9981014305605252 -0.10396926060725867
8885000 0.9982559786959506 -0.10465728939391933
8932500 0.9981665168566789 -0.10521812526074056
8980000 0.9979744326156015 -0.1056814332416126
9027500 0.99830598025177 -0.10612086764407787
9075000 0.9982612372556164 -0.10684791187439212
9122500 0.9980062733062054 -0.10747053679880887
9170000 0.9980189610936562 -0.1079836776817768
9217500 0.9980944056041913 -0.10840729821622584
9265000 0.9982135691035771 -0.10906079064670601
9312500 0.9982506904172912 -0.1096982276187652
9360000 0.9978899843119692 -0.11017731756603506
9407500 0.9980424530295776 -0.11064482324537478
9455000 0.9980046916605619 -0.11120407168453046
9502500 0.9980429608668097 -0.11190218711318127
9550000 0.9978825901502174 -0.11251734802933551
9597500 0.9977995941557087 -0.1130267452866038
9645000 0.9978647573215197 -0.11343234294866306
9692500 0.9978370639580001 -0.11418878814268202
9740000 0.9975867572117931 -0.11490905945896628
9787500 0.9975712046775976 -0.11542869877142273
9835000 0.9975950720980913 -0.11589267619495078
9882500 0.9976985120032079 -0.11658828460682777
9930000 0.9977210712006573 -0.11731828061509911
9977500 0.9975771091903024 -0.11800627541278809
10025000 0.9976274690025174 -0.1184759409919513
10072500 0.997674153654312 -0.11892588668225867
10120000 0.9976725996360863 -0.11961049291796584
10167500 0.9976716772201636 -0.12033943268404274
10215000 0.9975996552799095 -0.12087660136182236
10262500 0.9975756211551946 -0.12132735038532914
10310000 0.9976257972479285 -0.12194331711075765
10357500 0.9976491314069494 -0.12253944799596313
10405000 0.9975563636449789 -0.12318315212342172
10452500 0.9976307835916323 -0.12359765288086384
10500000 0.9977252575449272 -0.12409608555939312
10547500 0.9978023954451363 -0.12470971507497916
10595000 0.9976137069550606 -0.12531476468896308
10642500 0.9975146183176183 -0.1258437661340067
10690000 0.9974536121536236 -0.1261987869356331
10737500 0.9975690680681584 -0.12680183780992418
10785000 0.9975290335017205 -0.127540283686958
10832500 0.9974150648863482 -0.12811596507169715
10880000 0.9974019467123925 -0.12856668706626878
10927500 0.9973720528385907 -0.1290564533262242
10975000 0.9975223723722906 -0.12973084236827967
11022500 0.9973718946773216 -0.1303246194476013
11070000 0.9970673358762988 -0.1308883996503603
11117500 0.9971227652354456 -0.13137179809896232
11165000 0.9971879110064972 -0.1320113094761998
11212500 0.9972289607744916 -0.13274333079596098
11260000 0.99688107526067 -0.13332005796889385
11307500 0.9968955595542878 -0.13382051450507626
11355000 0.9969172934023982 -0.13429386399838317
11402500 0.9968916076384823 -0.13501350336715248
11450000 0.9968376197168499 -0.13568844827186827
11497500 0.9967834190304199 -0.13626990447278142
11545000 0.9967779352457747 -0.13680328830909477
11592500 0.9969760916878013 -0.13745429398387352
11640000 0.9968127085142053 -0.13814565805838444
11687500 0.9967926818894531 -0.13872799500391733
11735000 0.9967737312431872 -0.13923881443349315
11782500 0.9968503544649496 -0.13980211075799576
11830000 0.9969082245732281 -0.1405169384767045
11877500 0.9968879385853695 -0.1412407980742267
11925000 0.996792229713929 -0.14179853534738426
11972500 0.9967176934006472 -0.1422427355689321
12020000 0.9967095558720129 -0.14287695590354538
12067500 0.9967034201246723 -0.14353008613568194
12115000 0.9966214751169936 -0.1442750869826945
12162500 0.9964409198697372 -0.1447843520459773
12210000 0.9964337938439732 -0.14527801356875378
12257500 0.9964944455736471 -0.14605278316994483
12305000 0.9965131191418016 -0.14681837931318426
12352500 0.996178155061608 -0.14755658847405648
12400000 0.9959335964186216 -0.1480887319867169
12447500 0.9960596203492229 -0.14881950057105195
12495000 0.9959476191210734 -0.14959655519133444
12542500 0.995701025846447 -0.15048870435330575
12590000 0.9954116282738787 -0.15132838013601815
12637500 0.9951620868236672 -0.15216994763411845
12685000 0.9948798070178343 -0.15320578717905706
12732500 0.9940742605009812 -0.15439743570091952
12780000 0.9925815467450121 -0.15576698719953816
12827500 0.9900187326667295 -0.15660267060222577
12875000 0.9861789024049017 -0.1548280598973588
12922500 0.9863293452323042 -0.14894042347012856
12970000 0.9910270359841713 -0.14743161711064198
13017500 0.9938260031721103 -0.14909543451044965
13065000 0.9950429519635424 -0.150646184416933
13112500 0.9956123531685295 -0.15203929830886453
13160000 0.9959803589920628 -0.1534638229356825
13207500 0.9960940142294721 -0.15451370258789585
13255000 0.9961408455976277 -0.15552379808551328
13302500 0.9962171009306068 -0.15633735402192822
13350000 0.9963002907605465 -0.1570441493833352
13397500 0.9963359888225761 -0.15793405278160277
13445000 0.9962822541525759 -0.158722316947565
13492500 0.9961751057439989 -0.15934106212030413
13540000 0.9961285203640681 -0.15995759197464635
13587500 0.9962264189330904 -0.16072895037539855
13635000 0.9962221579676396 -0.161418053461404
13682500 0.99604992392457 -0.1620868589810723
13730000 0.9960011645834116 -0.16268376571359072
13777500 0.996032865454203 -0.16329238847379315
13825000 0.9961328780261142 -0.16391994569903048
13872500 0.9959252443319424 -0.16451329180183588
13920000 0.9958481938392378 -0.16502811683019517
13967500 0.9957055567024781 -0.16565418318134015
14015000 0.9958169032297285 -0.1664223413609643
14062500 0.9957488043639887 -0.16713390846066817
14110000 0.995477386068514 -0.1677634172957432
14157500 0.9954601271708917 -0.1682481700140788
14205000 0.9955336616560733 -0.1688993143550551
14252500 0.9953802909839653 -0.16957644369730823
14300000 0.9950702094322137 -0.17012470551039455
14347500 0.9951365005081299 -0.17086433523793013
14395000 0.9952105262090498 -0.17137621484211452
14442500 0.9951806581828962 -0.1720858130175506
14490000 0.9950190229468197 -0.17281672880133392
14537500 0.9949351514034097 -0.1733629498223058
14585000 0.994925850209498 -0.173945420291626
14632500 0.9950151370566093 -0.17466285449764382
14680000 0.9949716051658967 -0.175349815370245
14727500 0.9949853971306367 -0.17595929155837636
14775000 0.9949225266725243 -0.176435573865893
14822500 0.9948987529503098 -0.17701959521525062
14870000 0.9948668837602704 -0.1776507700933221
14917500 0.9948635567170987 -0.17834500301664077
14965000 0.99473401660155 -0.17886256364814693
15012500 0.9946550029885126 -0.17945244519404152
15060000 0.9945582479661746 -0.18006335169564122
15107500 0.9946406171215629 -0.1806302411029655
15155000 0.9945545004025421 -0.18124480526216133
15202500 0.9945082072114092 -0.181676595315203
15250000 0.9944864547258114 -0.18218814706505448
15297500 0.9944486839876303 -0.18286594283137167
15345000 0.9942770221882963 -0.18346648011847888
15392500 0.9942001335506843 -0.18406492163594443
15440000 0.9939407265983268 -0.1846082924733722
15487500 0.9940104131475699 -0.18516781596376752
15535000 0.9939545696178979 -0.1858120347248962
15582500 0.9937789246115839 -0.18645825852995868
15630000 0.993551348019258 -0.18700315404050763
15677500 0.993505849916644 -0.18751887585676918
15725000 0.9935853700390452 -0.18815502012037255
15772500 0.9934486567593174 -0.1889231107483632
15820000 0.9932552174012362 -0.18938427636311647
15867500 0.9931811969828079 -0.18998335429515006
15915000 0.9931941788525519 -0.19053402776850523
15962500 0.9931052553127 -0.19119337708465603
16010000 0.9929547988865277 -0.19178862260752552
16057500 0.9929157523926787 -0.19240019712678605
16105000 0.9928012980205885 -0.1928735773475502
16152500 0.9928181447581682 -0.19340395631778304
16200000 0.9927733604357794 -0.19397399676217736
16247500 0.9926082123486135 -0.19455143296178878
16295000 0.9925991062747912 -0.19495591692347986
16342500 0.9925382871829272 -0.19548994104568881
16390000 0.9924830132860638 -0.19589272529077237
16437500 0.9924598395346333 -0.19638656180008607
16485000 0.9923977092356407 -0.19690858746012127
16532500 0.9923273913080582 -0.19725143658578123
16580000 0.9922644516766801 -0.19773780003277838
16627500 0.9923057393196322 -0.1982665168547612
16675000 0.9922679068564061 -0.19873759836066487
16722500 0.9922767109759767 -0.19920273127446214
16770000 0.9922217588418003 -0.1995636625674079
16817500 0.9922225198374764 -0.20015275382168543
16865000 0.9922857521869614 -0.20066476833946753
16912500 0.9922572274199016 -0.20123960498788082
16960000 0.9922699268244196 -0.2016633689529166
17007500 0.9923770887085179 -0.20235270418095078
17055000 0.9923974655357577 -0.2028877888032647
17102500 0.9923849751803069 -0.203504275772776
17150000 0.9923885152194593 -0.20410838774106843
17197500 0.9924682405077331 -0.20474757456401746
17245000 0.9925131727986582 -0.20531085827546738
17292500 0.992560330449895 -0.20600932180748427
17340000 0.9925113596190469 -0.20652542556764242
17387500 0.9925833437286821 -0.20718460845086994
17435000 0.9927036131047818 -0.20788834508347084
17482500 0.9927430176458752 -0.20848062927584626
17530000 0.9927330424547818 -0.2091986617673152
17577500 0.9928129363246464 -0.20968417239801396
17625000 0.9928884179563138 -0.2104147610784201
17672500 0.99291425795647 -0.2110123833457033
17720000 0.9928465736847314 -0.21161068851194598
17767500 0.9929817852783865 -0.2122036723214907
17815000 0.9929946612915804 -0.21284819382663656
17862500 0.9930435580485131 -0.21339053501663005
17910000 0.9930090826172427 -0.21406061833757553
17957500 0.993069987217319 -0.21465304345610128
18005000 0.9929235342300278 -0.2152889122207294
18052500 0.9929058317132239 -0.21586109109084659
18100000 0.9928137857619596 -0.21646998153851393
18147500 0.9928474984383631 -0.21712062944827412
18195000 0.9927818745898852 -0.21763345057686162
18242500 0.9926891426114935 -0.21827919433248325
18290000 0.9926089200093497 -0.2188395139961442
18337500 0.992621032480462 -0.21947413767114307
18385000 0.9926089948233928 -0.22020321746157798
18432500 0.9925830511664903 -0.2208779044586904
18480000 0.9924877999380236 -0.22153130513343602
18527500 0.9924450110482049 -0.22214283282469724
18575000 0.9924975473807062 -0.2227930584463251
18622500 0.992423032042848 -0.22346072829901292
18670000 0.9923361670908702 -0.22403573758997142
18717500 0.9924251428358823 -0.22475396457819669
18765000 0.992426566056181 -0.22546564627017074
18812500 0.9923884263074416 -0.22611527582295202
18860000 0.9923090471945103 -0.22674136091018923
18907500 0.9923654953516707 -0.2273724603927293
18955000 0.9924000227846458 -0.228035273062095
19002500 0.9924031345290241 -0.22863935410286304
19050000 0.9923657823577141 -0.2291905562277964
19097500 0.9923559763895302 -0.22988661730445112
19145000 0.9924073770283818 -0.23045695656400783
19192500 0.9923402394209271 -0.23108568447916258
19240000 0.9923221675765705 -0.23167883271653728
19287500 0.9923646348400391 -0.23232158738287442
19335000 0.9923164541703267 -0.23299229992333284
19382500 0.9922465625399172 -0.2336166552725557
19430000 0.9920756230862519 -0.2341460740604517
19477500 0.9920387467575017 -0.23473381629014428
19525000 0.9920560955330869 -0.2353296644120448
19572500 0.9920380113484478 -0.2359857684619742
19620000 0.9919379731462521 -0.2365103978522011
19667500 0.9919626635688104 -0.2372113647965116
19715000 0.9918168668839661 -0.23783168092908843
19762500 0.9917367792711191 -0.23855979828286716
19810000 0.99165673278383 -0.2391737452555288
19857500 0.9916320379915414 -0.23985450362026528
19905000 0.9916129682600858 -0.24048342824357005
19952500 0.9915361553521387 -0.24104796178456545
20000000 0.9916880475693077 -0.2418448230657805
