# HZ S RI R 50
1000000 1.0009884341986983 -0.022072863768536333
1047500 1.0011781897291738 -0.023257992110771113
1095000 1.0007976161935412 -0.024375466332943806
1142500 1.000545270740245 -0.025323461961570273
1190000 1.0003560482226617 -0.026323831147122626
1237500 1.0006521021981394 -0.027246290000116937
1285000 1.0009228378629893 -0.028225819023278597
1332500 1.000878360876492 -0.029204262853655905
1380000 1.0010119859750253 -0.029891177787333443
1427500 1.0011019480376477 -0.030961523611933616
1475000 1.0010085758971183 -0.03215413533536409
1522500 1.000918569235048 -0.03333152578876083
1570000 1.0006619991831085 -0.03445242441504918
1617500 1.0007081046333794 -0.03532805406093943
1665000 1.0008350843027332 -0.036430375238984396
1712500 1.0008554040172963 -0.03754811332541326
1760000 1.0006493907627254 -0.03870491809101055
1807500 1.0006301803301965 -0.039628007535419896
1855000 1.000803553162497 -0.0406514404540252
1902500 1.0008629124433013 -0.04182063134466902
1950000 1.000753482029099 -0.04305576906095586
1997500 1.0006645471486935 -0.04400468993614874
2045000 1.0006223350133248 -0.04487427074752282
2092500 1.0007527810883587 -0.04589677426236122
2140000 1.0007311216332044 -0.04708730833737593
2187500 1.0007198711308267 -0.04813473275888677
2235000 1.0006648023380997 -0.04897277876675789
2282500 1.0007171578452365 -0.049947103019632136
2330000 1.0008295104345377 -0.05102336945742884
2377500 1.0007882149462197 -0.052202250848228944
2425000 1.0005666537824591 -0.05314956906907814
2472500 1.0005189880954302 -0.05398287992766483
2520000 1.0005847601060491 -0.05493943883727234
2567500 1.0005529155396657 -0.05607494687513515
2615000 1.0004258731714764 -0.057154821845108776
2662500 1.0002635278065557 -0.058057381701457036
2710000 1.000188291281298 -0.05895892020234019
2757500 1.0003313194613643 -0.06008149974253386
2805000 1.0003144707210814 -0.06138021331648518
2852500 1.0001128822297534 -0.062423339618413044
2900000 0.9999566495680022 -0.06326000915220802
2947500 1.000039358708766 -0.06442020601760386
2995000 1.0001691455198056 -0.06554137582575768
3042500 0.9999319894902061 -0.06671083725244357
3090000 0.9997500753714117 -0.06766285656690198
3137500 0.9997995888915715 -0.06858720498877044
3185000 0.9999895238367921 -0.06970198333028776
3232500 0.9999700843322192 -0.07092552321108908
3280000 0.9997163781280056 -0.0719647967116041
3327500 0.9996830714067324 -0.07285836725700277
3375000 0.9998737900200965 -0.07380669490412498
3422500 0.9999129840855926 -0.0749377083552192
3470000 0.9997727915486713 -0.07609457919904673
3517500 0.9996972664604337 -0.077023174672644
3565000 0.9997483459182056 -0.07792972770026932
3612500 0.9997766899532736 -0.07890133697913446
3660000 0.9997085136362024 -0.08010270663244638
3707500 0.9995706980844817 -0.08121931364302853
3755000 0.9994784158036178 -0.08205887900453318
3802500 0.9994337565744702 -0.08297654713892395
3850000 0.9994031125817433 -0.08405033698346309
3897500 0.9994332979317767 -0.08524447259660722
3945000 0.9992170247643248 -0.08625912023772735
3992500 0.9990969025100995 -0.08711872574697206
4040000 0.9991023754250371 -0.08808958423133183
4087500 0.9992226851702559 -0.08927175535418004
4135000 0.9990762790455087 -0.09047573518402989
4182500 0.9988181148798131 -0.09142530605496488
4230000 0.9987650244870946 -0.09231433721552593
4277500 0.9988559148563262 -0.09339707266371393
4325000 0.9988376391063439 -0.0945893986941012
4372500 0.9986338357006402 -0.09562290722797728
4420000 0.9985107990797659 -0.09656514074245989
4467500 0.9986745469026579 -0.09758856978980676
4515000 0.9987930590999381 -0.09875025765553144
4562500 0.9986596661584163 -0.09998541245009741
4610000 0.998345776459443 -0.10095330982306663
4657500 0.9984459323773093 -0.10178406972888834
4705000 0.9986315764024548 -0.10297280513367706
4752500 0.9984523541528159 -0.10405150100911395
4800000 0.9981883632455835 -0.105050609823499
4847500 0.9982997128949352 -0.10594171722639147
4895000 0.9984431802003982 -0.10683509412434102
4942500 0.9984062522383261 -0.10803413637705785
4990000 0.9981181646168004 -0.10915497994281446
5037500 0.9980156291419318 -0.10999077838334934
5085000 0.9979755844979052 -0.11094419953215892
5132500 0.998017667705598 -0.11198182255721688
5180000 0.9977671425419962 -0.1132749659482244
5227500 0.9976414789834858 -0.11423483886879489
5275000 0.9976093314235496 -0.11512674607441906
5322500 0.9976635875943404 -0.11611439305903022
5370000 0.9976509162479399 -0.11735850633187343
5417500 0.9973980775836871 -0.11847488834752588
5465000 0.9972060583235506 -0.11939690554975475
5512500 0.9971381609868541 -0.1202941770684155
5560000 0.9971307197996897 -0.12132603003228579
5607500 0.997121378081874 -0.1226314504506873
5655000 0.9968133494429088 -0.1237428695107673
5702500 0.9968710767091173 -0.12464938760585176
5750000 0.9969226409945684 -0.1257891123396957
5797500 0.996726288108724 -0.12704444838665582
5845000 0.9964974465102677 -0.12786028496942972
5892500 0.9966016183843013 -0.12871374539478178
5940000 0.996550649912076 -0.1300652675827499
5987500 0.9963337218220555 -0.13108423303026087
6035000 0.996278910989719 -0.13202597614148306
6082500 0.9964457915261566 -0.1330017859076228
6130000 0.9964034573231807 -0.1341952906070874
6177500 0.9962386615367472 -0.13530131465228667
6225000 0.9961212771721145 -0.13609557173322573
6272500 0.9961369835896231 -0.1371334999135865
6320000 0.9961327344468962 -0.13829916124199265
6367500 0.995882597036883 -0.13929896238628445
6415000 0.9958626624892515 -0.14019759509637703
6462500 0.9960746345105925 -0.14127565278939064
6510000 0.9958720535180446 -0.1424608208796873
6557500 0.9956138730614869 -0.1434632373298626
6605000 0.995572561653824 -0.14424072262393023
6652500 0.9956166507240221 -0.1453625044060969
6700000 0.9953699469011 -0.14643693997814386
6747500 0.9952416073383288 -0.14745387486123526
6795000 0.9951807736435148 -0.14831380317743173
6842500 0.9952655840483996 -0.14946234669707725
6890000 0.9949152314891929 -0.15069053275296868
6937500 0.9947283487613456 -0.1516384812767046
6985000 0.9947625618872192 -0.1525444444240111
7032500 0.9948293529820464 -0.15374919806798532
7080000 0.9944248844268231 -0.15488386626681153
7127500 0.9942846905972472 -0.15584223487044438
7175000 0.9943794502719941 -0.1567874762992671
7222500 0.994397158592657 -0.15798247227744075
7270000 0.9941288875256908 -0.15922437858300909
7317500 0.993943174667491 -0.16010818715788405
7365000 0.9940612231207542 -0.16106015528498116
7412500 0.9940143375944046 -0.16232502693820464
7460000 0.993681242861723 -0.1632584032484517
7507500 0.9936528611711024 -0.16418643642710057
7555000 0.9937617301066455 -0.1652176551861672
7602500 0.9937814753156395 -0.1664394091193412
7650000 0.993424850375963 -0.1675036967431408
7697500 0.9933238086744951 -0.16830909632718388
7745000 0.9934835007183356 -0.16935342240576481
7792500 0.9933392530988041 -0.17051227233290778
7840000 0.9930096290903293 -0.17150718956369526
7887500 0.9928967787319789 -0.17242935577203314
7935000 0.9930005553043136 -0.1733541240236478
7982500 0.9929344563773531 -0.17457656536497135
8030000 0.9925675008027485 -0.17561713577376856
8077500 0.9924318281250729 -0.17648716896768785
8125000 0.9925093209900973 -0.17754601026971875
8172500 0.9920457435386206 -0.1784776058955408
8220000 0.9920363190923974 -0.1796842825109583
8267500 0.9919902850081707 -0.180651435072254
8315000 0.992021545620653 -0.18169187487267957
8362500 0.9919140867460928 -0.18298488477509933
8410000 0.9915228519872205 -0.18400258826118743
8457500 0.9914072174871177 -0.18490428797508948
8505000 0.9915908155514249 -0.18603021906791734
8552500 0.9914152106689347 -0.18727423487835002
8600000 0.9911757160163698 -0.18828474734184852
8647500 0.9911016989743618 -0.18925730512396788
8695000 0.9911650929212483 -0.19024227783807532
8742500 0.9910743995584402 -0.1914962900645705
8790000 0.9907952734679164 -0.19256405685806663
8837500 0.9908129077470421 -0.1933964681860975
8885000 0.9908447166173933 -0.19441747376701396
8932500 0.9907696652031861 -0.19564536087326023
8980000 0.9905440969533327 -0.19675110120608436
9027500 0.9904399892033188 -0.19753422389636077
9075000 0.9905498025748275 -0.19858760339433323
9122500 0.9903904641563072 -0.19982755664778257
9170000 0.9901164093872737 -0.2008710504679078
9217500 0.9899191004058523 -0.20175019363820332
9265000 0.9899159731862726 -0.20266933132041
9312500 0.9898960934242136 -0.20388421698370185
9360000 0.9895792777289716 -0.20486977185990993
9407500 0.9894379133096926 -0.20586052678855427
9455000 0.9893141450351528 -0.20681971493455198
9502500 0.9893161986836354 -0.20798160959926876
9550000 0.9889414741229631 -0.20908327029521515
9597500 0.9887006172371627 -0.21002447097045351
9645000 0.9887076146181206 -0.21099414260000915
9692500 0.9885126737530738 -0.21205875515458397
9740000 0.9880782211178946 -0.2130750486787314
9787500 0.9879890548369377 -0.21395239760708407
9835000 0.9878448154344814 -0.2148512283966826
9882500 0.9878686574602767 -0.21595481644255574
9930000 0.9876448606372602 -0.21716278104010187
9977500 0.9874639974328449 -0.21821591023033343
10025000 0.98737748349902 -0.21913618194372
10072500 0.9874239456219558 -0.2202808012108225
10120000 0.9872476190492002 -0.22150533038539152
10167500 0.9870058266830439 -0.22256459522095035
10215000 0.9869046418985268 -0.22354316164835975
10262500 0.9868926947757869 -0.2244777043115822
10310000 0.9866479697802231 -0.22569935062006666
10357500 0.9865125806667036 -0.22671852715784666
10405000 0.9863529799286316 -0.2276764902285661
10452500 0.9863847855343876 -0.22866158551804017
10500000 0.9863554078010853 -0.22985402920378697
10547500 0.9860531839555388 -0.23090211234028024
10595000 0.9858864853786863 -0.23176508629135062
10642500 0.9857267977798331 -0.23273021941045094
10690000 0.98563031169275 -0.2337597562946712
10737500 0.9855387877464822 -0.23497273775290595
10785000 0.9852596830570972 -0.23588890711034302
10832500 0.9851509854448907 -0.23693060499560412
10880000 0.9850626936379492 -0.23806706512153927
10927500 0.9849590063211396 -0.23927474065674392
10975000 0.9846138623048835 -0.24022895694235055
11022500 0.9844723399793232 -0.24106021665437016
11070000 0.9843482986363346 -0.24223949122117866
11117500 0.9841658424698341 -0.2433551388080777
11165000 0.9838904114710268 -0.24444833470504135
11212500 0.9836380218462406 -0.2454339703121097
11260000 0.9835574015162893 -0.2464262476052715
11307500 0.983512439813833 -0.24767094082871527
11355000 0.9831940711614682 -0.2488166649572154
11402500 0.9829554400629452 -0.24980954988869794
11450000 0.9827866825153062 -0.2507484368774597
11497500 0.9827644570278058 -0.2518605450701717
11545000 0.9825071260797518 -0.2530326300428501
11592500 0.9823003367210272 -0.25406779250634737
11640000 0.9821043867218048 -0.25499436279322013
11687500 0.9822457204866277 -0.2561002027846626
11735000 0.9820424998365381 -0.2573342141098594
11782500 0.9816700820849182 -0.258397520374075
11830000 0.9814994395865047 -0.25934595323737086
11877500 0.9815602169445403 -0.26040241990519447
11925000 0.9812840996978899 -0.26151898200235435
11972500 0.9810059812729626 -0.26262806504556924
12020000 0.980805019232842 -0.26357667774176696
12067500 0.980747007506013 -0.26451989365995254
12115000 0.9806393645013572 -0.26568552584029065
12162500 0.9803915891164956 -0.266812802522278
12210000 0.9800542737449535 -0.26769691619280445
12257500 0.9799084976296484 -0.26875374534572516
12305000 0.979820372776953 -0.26972911052131493
12352500 0.9795477954763423 -0.27098150998177106
12400000 0.9792205936624152 -0.27190724298217434
12447500 0.9790472200568697 -0.27285936047063175
12495000 0.9789806122370022 -0.27395495591857016
12542500 0.9787620716749528 -0.2751657654700685
12590000 0.978488985609237 -0.27613551749514786
12637500 0.9782114970710618 -0.2772266885345481
12685000 0.977970175420731 -0.27819990532271166
12732500 0.9778725282304728 -0.2792241150294199
12780000 0.9776019435729247 -0.2803625220393943
12827500 0.9773593141142665 -0.28142403639545793
12875000 0.9771660006484207 -0.28247207627801474
12922500 0.9770635182571538 -0.2835331074328211
12970000 0.9768366264343838 -0.2847195389127516
13017500 0.9765760890076824 -0.28585681671574437
13065000 0.9763376239854389 -0.28685514892632297
13112500 0.9762266217097374 -0.28784770564925793
13160000 0.9760600023229595 -0.2888870709266915
13207500 0.975860438678896 -0.29010401921962137
13255000 0.9757072958749656 -0.29120545710087536
13302500 0.975496902353318 -0.2921922412593455
13350000 0.9753116273113919 -0.293245834785447
13397500 0.9752694419933189 -0.29435730442823055
13445000 0.9750326334584962 -0.29550113104951964
13492500 0.9746990286464777 -0.29646576143622133
13540000 0.974538307986046 -0.2974384899755333
13587500 0.9744107951279661 -0.2985042096870809
13635000 0.9741854233723499 -0.2997034348245229
13682500 0.973891229151717 -0.30064109475865786
13730000 0.9736320315491702 -0.30154893470491495
13777500 0.9735955223129167 -0.30259653356083177
13825000 0.9734166015832181 -0.3037100876114091
13872500 0.9730897577137867 -0.30466820821706075
13920000 0.9728547142695523 -0.3055971752539471
13967500 0.9726507780640556 -0.30672012872935267
14015000 0.9724538722926009 -0.3078178036313764
14062500 0.9722555926430321 -0.30888736064030947
14110000 0.971886831063647 -0.3098140160401776
14157500 0.9716676112721343 -0.3108313213143819
14205000 0.9716301877352732 -0.3118709791183132
14252500 0.9712942487184669 -0.3130041309852657
14300000 0.9709871773118318 -0.31396792089928033
14347500 0.9707541363430285 -0.31503028444095815
14395000 0.9705602261956977 -0.3161482311806803
14442500 0.9702581505227552 -0.31722314429216925
14490000 0.969949623300432 -0.3183766521574756
14537500 0.969724835237936 -0.31943468232301436
14585000 0.9696605652199296 -0.3203539481199922
14632500 0.9695182017280723 -0.3215263054649688
14680000 0.969264428317442 -0.32256491516986785
14727500 0.9690778692058641 -0.32363491492566987
14775000 0.9689117746425243 -0.32461298976439174
14822500 0.9687013288442599 -0.32561553768384377
14870000 0.9685476443988666 -0.3266612569149376
14917500 0.968393835717355 -0.3277344097589217
14965000 0.968188705541674 -0.32877453918952815
15012500 0.967963098408572 -0.3297202913229782
15060000 0.9677878937009967 -0.3308210620585432
15107500 0.9676107475940199 -0.3318097969394134
15155000 0.9674548169114169 -0.33286884951544166
15202500 0.9672250081539753 -0.3338735667532928
15250000 0.9669558071471892 -0.3348335291152181
15297500 0.9666869775661938 -0.33593929317977983
15345000 0.9665251790082504 -0.3369791350882968
15392500 0.9661662622046545 -0.3379460507283449
15440000 0.9658029819325169 -0.33892165586289097
15487500 0.9657457825314845 -0.3399698708938173
15535000 0.9654977921668815 -0.34107186681131824
15582500 0.9652921307725678 -0.3419924355382466
15630000 0.9649240617776357 -0.34309466827688745
15677500 0.964777050219619 -0.3441072357496685
15725000 0.9645057247995287 -0.34522827971422043
15772500 0.9642919201239072 -0.3463098389255971
15820000 0.9639158913974041 -0.3472856026140134
15867500 0.9637975358894064 -0.3483474713781879
15915000 0.9636834064832217 -0.3494569648199182
15962500 0.9634741950585601 -0.3505401966755761
16010000 0.9631876945550537 -0.35153123538564146
16057500 0.9629908634687911 -0.3527293953951737
16105000 0.962858180670178 -0.3537973568304746
16152500 0.9625716643707738 -0.35480669227401357
16200000 0.9622546255323863 -0.35589037739656615
16247500 0.9621820219059141 -0.3568530937885789
16295000 0.9620353360222959 -0.35785842068281964
16342500 0.961796004821015 -0.35895121454064366
16390000 0.9615937330872008 -0.3599179843343527
16437500 0.9613885893450224 -0.3609670248103776
16485000 0.9611641109435909 -0.361962631676707
16532500 0.9608411075008398 -0.36302438728442693
16580000 0.9605925073746728 -0.36408580911470056
16627500 0.9604293877490182 -0.36502892503219936
16675000 0.9602093602460976 -0.36604486931752406
16722500 0.9599182849637509 -0.36705740714151164
16770000 0.9596519514462761 -0.36806393913111124
16817500 0.9594328249617686 -0.369064512214884
16865000 0.9591608393425579 -0.3701997402901271
16912500 0.9588591610386458 -0.3712361368431018
16960000 0.9586143160336509 -0.3722266856461879
17007500 0.9584193779950307 -0.3733526340846578
17055000 0.9580829003385929 -0.374484577340228
17102500 0.9579168052812062 -0.375489973358547
17150000 0.9575456288000148 -0.37653131818954183
17197500 0.9574285510105149 -0.3776549967002281
17245000 0.9571958979205492 -0.3787165409185407
17292500 0.9569445453654966 -0.37976049968125547
17340000 0.9566632111674953 -0.3808193519749123
17387500 0.9564155724468495 -0.3819405999459867
17435000 0.9561803719734161 -0.3830526218616981
17482500 0.9559575932259703 -0.38415235396284725
17530000 0.9556226012614414 -0.3851605936731892
17577500 0.9555560501554213 -0.3863071883153695
17625000 0.955339316992926 -0.3873283787126191
17672500 0.95507336836791 -0.38838150303674235
17720000 0.9547819491373472 -0.38940443107342965
17767500 0.9546958292825963 -0.39053311765451687
17815000 0.9545184065394177 -0.39159277077900145
17862500 0.9543070292216842 -0.3926483182387552
17910000 0.9539915762351041 -0.3937090552431821
17957500 0.9538051730718962 -0.39472276983441845
18005000 0.9535112501435358 -0.3957739168021821
18052500 0.9532079525466536 -0.3968144246205806
18100000 0.9528548056433528 -0.3977928057179699
18147500 0.9526137750740263 -0.3988618407708603
18195000 0.9524173746814003 -0.39993513886568216
18242500 0.952081900828217 -0.4010102855037632
18290000 0.9517269925412729 -0.4019763000860194
18337500 0.9514676203871091 -0.4031320976326297
18385000 0.9511691056726724 -0.4042553074353297
18432500 0.9508854167546156 -0.405286611461951
18480000 0.9505411245267125 -0.4063839707153377
18527500 0.950352413202834 -0.4075266163615256
18575000 0.950077665584781 -0.4086128878738166
18622500 0.9498510686802522 -0.4097019009539893
18670000 0.9494831411392439 -0.410787912715292
18717500 0.9492529159308241 -0.41197872340615765
18765000 0.9489955128045018 -0.41301185535540597
18812500 0.9486913296983466 -0.41409235408912787
18860000 0.9484070627836619 -0.4151970126444242
18907500 0.9482666395638166 -0.41637469160750473
18955000 0.9479977959035115 -0.4174822839318329
19002500 0.9477652317895784 -0.4185010964552311
19050000 0.9475034292421491 -0.419539551221557
19097500 0.947339291236912 -0.4207270351192693
19145000 0.9470388808227924 -0.42182021704282396
19192500 0.9467375029482682 -0.422879583984851
19240000 0.9464168300038418 -0.4238470201799158
19287500 0.9462402851539068 -0.4249271579332168
19335000 0.9459339937179926 -0.42595891270391606
19382500 0.945606419209725 -0.4270342333502524
19430000 0.9452246992897345 -0.42805447666887997
19477500 0.9450535061610624 -0.4290016152835011
19525000 0.9448693867918869 -0.43013897701949894
19572500 0.9445420056876525 -0.431206842518319
19620000 0.9441977357318294 -0.4321553107183535
19667500 0.9438803548457063 -0.4332309413422852
19715000 0.9436278746782853 -0.4343246376929387
19762500 0.9432160994468495 -0.4354831069622757
19810000 0.9427329784135312 -0.4365518528408247
19857500 0.9426018513261882 -0.4376094055602019
19905000 0.9423431175009002 -0.43873523279877674
19952500 0.9420346837837617 -0.43984031360992726
20000000 0.9416508453305568 -0.4409745949655556
