# HZ S RI R 50
1000000 0.9996959049215649 -0.010568382395410063
1047500 0.9999445175713557 -0.011189504160741846
1095000 0.9996091618449003 -0.011805255389682906
1142500 0.9993477809716677 -0.012285266093640555
1190000 0.9992282812287678 -0.012753825612274101
1237500 0.9995968526809218 -0.013087498060225081
1285000 0.9997156598493738 -0.013538328955818158
1332500 0.99984398338878 -0.013916525771437798
1380000 0.9997815164057496 -0.014229950047384265
1427500 0.9998972360164613 -0.014663281614119414
1475000 0.9999566311646513 -0.015298363176211263
1522500 0.9998579770771185 -0.01591305982356004
1570000 0.9996113821069115 -0.016500133368522796
1617500 0.9996549700758086 -0.016944083817189655
1665000 0.9997815176763561 -0.017422905431291175
1712500 0.999849435065376 -0.01801497986128944
1760000 0.9996994779835715 -0.018640706764032372
1807500 0.9997183036777795 -0.01910787838927197
1855000 0.9998696168078682 -0.019503997867831076
1902500 0.9998963897711517 -0.02008135713805663
1950000 0.9998560813809327 -0.02076574177199074
1997500 0.9998391168603982 -0.021178089098065733
2045000 0.9998534666989188 -0.02159567687005534
2092500 0.9999835454175525 -0.022046354565249338
2140000 1.0000032459830102 -0.02266302129296139
2187500 0.999943911534842 -0.023279622643593963
2235000 0.9999383011015761 -0.02358184926341904
2282500 1.000020573963548 -0.023949144921514794
2330000 1.0001265401388852 -0.02444562657558453
2377500 1.0001969449418115 -0.02505571641997187
2425000 1.0000419506371847 -0.02553158220542681
2472500 0.9999701496204176 -0.025893663268999223
2520000 1.000005027786813 -0.026247364195697755
2567500 1.0001378737812905 -0.026785181813109234
2615000 0.9999899274630271 -0.02741368631679265
2662500 0.9998478077008532 -0.02778888135363586
2710000 0.9997315959344956 -0.028166473436979797
2757500 0.9999123364505912 -0.0287217997070195
2805000 1.0000564620551111 -0.029398052907421885
2852500 0.9998361494684522 -0.030082900005106203
2900000 0.999674685266057 -0.03046281563545281
2947500 0.9998077016834855 -0.03082110409271019
2995000 0.9998774045916573 -0.03147896608960663
3042500 0.9998576530753591 -0.032128571421516344
3090000 0.999683565763642 -0.03258835867688206
3137500 0.9997193336345346 -0.03295365187928714
3185000 0.9999044292120639 -0.03346725275858256
3232500 0.9999952756272781 -0.03408164544295351
3280000 0.9998998014826614 -0.03478850803788168
3327500 0.999847588895998 -0.03511457930143237
3375000 0.9998967002914116 -0.03549268906604592
3422500 1.0000406226358303 -0.035979458163410964
3470000 1.0000701133490018 -0.03655318853302507
3517500 1.0000521370692919 -0.0371659611283137
3565000 0.9999054488288115 -0.03748184902053411
3612500 1.0000066305118736 -0.03780704523033011
3660000 1.0000950100732744 -0.038390131477865304
3707500 1.0002152059807292 -0.039033415306874646
3755000 1.0000503000193153 -0.03951838199533099
3802500 0.9998680578034714 -0.0398836338713268
3850000 0.9999325036028215 -0.04029536010899541
3897500 1.0001495669915497 -0.04083499357297493
3945000 1.0000035959861617 -0.041488686267058116
3992500 0.9998433831815444 -0.04191660696778056
4040000 0.9997422736713072 -0.04222793847468372
4087500 0.9999284456765714 -0.04271291522330472
4135000 0.9999673249368615 -0.04340285694874054
4182500 0.9998415830015019 -0.04407552785142073
4230000 0.999712393051837 -0.044411155605682595
4277500 0.9998657288954498 -0.0448365317866639
4325000 1.0000353146631549 -0.04553029880559665
4372500 0.9999461334836673 -0.04615611739741539
4420000 0.9997609690665257 -0.046537972528011895
4467500 0.9998818122785356 -0.04690127473152883
4515000 1.00005078971266 -0.047513665758047365
4562500 1.0001305309536723 -0.04812686751615109
4610000 0.9998845135587571 -0.048786719987513064
4657500 0.9999337821448753 -0.049154514438623745
4705000 1.00003800576902 -0.04946896589301523
4752500 1.0001352853349579 -0.05006447041797205
4800000 1.0000446779890344 -0.05072093156085558
4847500 0.9999288174249837 -0.0511377065618168
4895000 0.99999452280219 -0.05138995907497781
4942500 1.0001862427725006 -0.0518211380378527
4990000 1.0002422383777625 -0.05232296106664177
5037500 1.0001158031131994 -0.05297898557896764
5085000 0.9999417446099835 -0.05341113214226496
5132500 0.9999402748498917 -0.053732984495107425
5180000 1.0000814244268674 -0.05445062290268073
5227500 1.000047248339667 -0.05507841844712763
5275000 0.9998698908180886 -0.05538304965215526
5322500 0.999910959985817 -0.05573122895072727
5370000 1.0000365601953731 -0.05633873996846621
5417500 1.0000547126790733 -0.05700109158809702
5465000 0.9999284879771535 -0.05756447748575671
5512500 0.9997488152717868 -0.05788643543956642
5560000 0.999737666501922 -0.0583639694453276
5607500 0.9999436043239021 -0.058916409135312584
5655000 0.9999021939855164 -0.059659270888895825
5702500 0.9997454083069429 -0.06015539981724712
5750000 0.9996752321004768 -0.06048885538110618
5797500 0.9999430307455837 -0.06099732244666601
5845000 1.0000666765924087 -0.06168347642583856
5892500 1.0000460953186656 -0.06233626186594466
5940000 0.9997620677904283 -0.0627773456941483
5987500 0.9998655275981698 -0.06310325465324777
6035000 1.0000592156743673 -0.06351626747872285
6082500 1.0000946487234357 -0.0642603066636066
6130000 0.9999039569787407 -0.06477186234868028
6177500 0.9999251088692923 -0.06518042774353087
6225000 1.0000790582430794 -0.06552545084945793
6272500 1.0001779598838825 -0.0660646941137535
6320000 1.0001437022004922 -0.06672750003798862
6367500 1.0000424095671006 -0.06715683820428815
6415000 1.000076139768844 -0.06754482633591767
6462500 1.000198148309596 -0.06796904107615398
6510000 1.0001862616224093 -0.06855065634615065
6557500 1.0001335890699594 -0.06912554023365247
6605000 1.0000181432595374 -0.06950507741742215
6652500 1.0000588840758293 -0.06980857115145661
6700000 1.0001311002366526 -0.07031451041640549
6747500 1.0000784556645428 -0.07099773684828688
6795000 0.9999855900346125 -0.07159839094913299
6842500 0.9999809886262674 -0.07187779200555218
6890000 0.9998679821041613 -0.0723315101903436
6937500 1.000022587570471 -0.07302551105448485
6985000 0.9999331205089216 -0.07358335441431196
7032500 0.9997258116508663 -0.0741212334667052
7080000 0.9997233958576497 -0.0744735521703146
7127500 0.9999937821622268 -0.07499188920469645
7175000 1.0001111265546405 -0.07573228946590338
7222500 0.9998764078131056 -0.07628589127293696
7270000 0.9998223832047581 -0.07677890879176377
7317500 0.9998799637320451 -0.0770975928259255
7365000 1.0000894939718894 -0.07769652454988359
7412500 1.000100424239766 -0.07831829086312814
7460000 0.9998325492465037 -0.07888951446855244
7507500 0.9998870120686751 -0.07922553014612167
7555000 1.0001313633371363 -0.07962480777505344
7602500 1.000231977083549 -0.08029305826370557
7650000 1.0000030751543048 -0.08090556946372009
7697500 1.0000507196414898 -0.081337364178182
7745000 1.0000179857614813 -0.08157701154485905
7792500 1.0003209112306237 -0.08211624864492514
7840000 1.0001399410519642 -0.082726241704659
7887500 0.9999365129569802 -0.08316922698219242
7935000 0.9999880835437964 -0.08355535599128817
7982500 1.0000802475615829 -0.08391213952911632
8030000 1.0000454975033601 -0.08449046814247949
8077500 1.0000933297199457 -0.0851871835062276
8125000 0.9999197255988528 -0.085705132215262
8172500 1.000330160662398 -0.08589356167289962
8220000 0.9999986968823134 -0.0864873649040684
8267500 1.000126271175645 -0.08720415728104289
8315000 0.9998756861066722 -0.08771523087914385
8362500 0.9997153014031374 -0.08816422262232419
8410000 0.9996994005913772 -0.08855782064105806
8457500 0.9998861873414753 -0.0891568881850223
8505000 0.9998877195102949 -0.08982352095355442
8552500 0.9997968094727856 -0.09033306309888377
8600000 0.9996529044130007 -0.09066987113299797
8647500 0.9999141145396901 -0.09114644432380285
8695000 1.0000430261637332 -0.0918120554023197
8742500 0.9999811560938371 -0.0924951626961531
8790000 0.9997843931878941 -0.09300646416311562
8837500 0.999923636918888 -0.09330978425539754
8885000 1.0001191468905486 -0.09392967109771032
8932500 1.0000963053791343 -0.09448560854195581
8980000 0.9999300479067801 -0.09492372578681907
9027500 1.0000398613753412 -0.09518952951058957
9075000 1.0002044332468136 -0.09568769589553938
9122500 1.0003553119750206 -0.09633848261339359
9170000 1.0000364192864513 -0.09692662026726379
9217500 1.0000549344149239 -0.09730422822731968
9265000 1.0000218549132962 -0.09771469104501303
9312500 1.0001071060009996 -0.09813230458584515
9360000 1.000086075697984 -0.09875168496971941
9407500 0.9999119730076061 -0.09929504281139291
9455000 0.9999864639485282 -0.09960985098800214
9502500 1.000058289735061 -0.1001317767598411
9550000 1.0000159191648204 -0.10075854910052208
9597500 0.9999868514327166 -0.10129813413481017
9645000 0.9998294248882476 -0.10183009065587025
9692500 0.9997812162439396 -0.10213213102082754
9740000 0.9996754432045792 -0.10272886630228875
9787500 0.999881983084271 -0.10339435086489672
9835000 0.999753575003136 -0.10396468248365168
9882500 0.9996740968785711 -0.1044293089001431
9930000 0.9997098502505878 -0.10475968947049512
9977500 0.99996093011566 -0.10548740837207768
10025000 0.9999350688861702 -0.1060495609956877
10072500 0.9998487758838157 -0.10666366974379049
10120000 0.9996563374356061 -0.10702193400406616
10167500 0.9997676744914546 -0.1075253390346829
10215000 0.999933457071723 -0.10802038656702917
10262500 0.9998994724117 -0.1086825300626657
10310000 0.9997452034904956 -0.10904410357961168
10357500 0.9998822612170343 -0.10938082468892736
10405000 1.0001679006520825 -0.10995431718040055
10452500 1.0001714342970016 -0.11054688568217891
10500000 0.9999827670537171 -0.1111054120274592
10547500 0.9999530749021087 -0.11153354055640513
10595000 1.0000594713464173 -0.11186951301761616
10642500 1.00005449626076 -0.11249062107709926
10690000 0.9998210409189832 -0.11295534210989396
10737500 0.9998963116879703 -0.11344193445280916
10785000 0.9999322726707954 -0.11371103056963149
10832500 1.0001201829703237 -0.11432474018443325
10880000 0.999959477240808 -0.11498034740536782
10927500 0.9998796884747002 -0.1155420906351378
10975000 0.9998832646224669 -0.11579901566451971
11022500 0.9999498395230564 -0.11630534596627175
11070000 0.9999192653842449 -0.1169904850209191
11117500 0.9998287285672334 -0.11757465751151736
11165000 0.9996524583490396 -0.11800478054189996
11212500 0.9997387682584795 -0.1183685269311757
11260000 0.9997438704581436 -0.11889792550858362
11307500 0.9998102039866276 -0.119691513381636
11355000 0.999743291415462 -0.12016013392362265
11402500 0.9995616016627503 -0.12066200729208833
11450000 0.9995512761279954 -0.12110563895239528
11497500 0.9996257036134638 -0.12168675152345058
11545000 0.9996769745871004 -0.12230111997177674
11592500 0.9996448049778845 -0.12281761961126249
11640000 0.9996636211910238 -0.12319669151682953
11687500 0.9998405738112933 -0.12371647140310829
11735000 0.9998858761170384 -0.12442788886834427
11782500 0.9997277531297905 -0.12495870280029236
11830000 0.9995517653358685 -0.12539394241820936
11877500 0.9997193132159832 -0.12583351137275334
11925000 0.99978481567627 -0.12630285068595634
11972500 0.9997411374748555 -0.12692306021143374
12020000 0.9995965196113503 -0.1273538260104412
12067500 0.9995729365670225 -0.12776436360668958
12115000 0.9996738691849946 -0.12824291490651185
12162500 0.9996835726875593 -0.12878016853963803
12210000 0.9994113517723895 -0.12940822509680638
12257500 0.9993638846036152 -0.12981705013049702
12305000 0.9994714835775946 -0.1302146283205022
12352500 0.9995441631102701 -0.1307059372806428
12400000 0.9994423809549897 -0.13134290851324582
12447500 0.9994042946024464 -0.13182890712162904
12495000 0.9992766416385286 -0.13227480447824125
12542500 0.9992932860506976 -0.13259412458932238
12590000 0.9993139231925477 -0.13323221545340044
12637500 0.9992967139200256 -0.13379168132745448
12685000 0.9990958173438734 -0.13440694525186245
12732500 0.9989782214101448 -0.13474132679983564
12780000 0.9990309231640226 -0.1352190516866341
12827500 0.9989919682285658 -0.1358641427005933
12875000 0.9990328576320386 -0.13652039637764754
12922500 0.9989663643559016 -0.13696220652037946
12970000 0.9989492984314485 -0.13736637624124987
13017500 0.999115580139897 -0.13793016054748025
13065000 0.9992124729621377 -0.13861431921746428
13112500 0.9990837714000507 -0.13911692982831958
13160000 0.998852437161307 -0.1396595551308946
13207500 0.9990744351154565 -0.1400772673540562
13255000 0.9991952936816391 -0.14064739614239347
13302500 0.99926346795902 -0.14129587408070612
13350000 0.9990753568591009 -0.14165279232083053
13397500 0.9991012006927492 -0.1421566778703663
13445000 0.9992366227457685 -0.1426174410555106
13492500 0.9992815150196233 -0.14318736410309738
13540000 0.9991763460088031 -0.1437472611396792
13587500 0.9992045524021849 -0.14422998954109342
13635000 0.9991647199590967 -0.14462087424604061
13682500 0.9992810285968399 -0.14514077469054926
13730000 0.9992036201152195 -0.1457216620572323
13777500 0.9992472993343553 -0.14613959689158293
13825000 0.9991147659843516 -0.14648335887708142
13872500 0.9991804544879075 -0.14695239122549655
13920000 0.9991588529644708 -0.14748813280535464
13967500 0.9991971383034158 -0.14810045210505393
14015000 0.999009435738047 -0.1486270992589038
14062500 0.9990219890557182 -0.14902394971379052
14110000 0.9989528296826161 -0.1495046931245643
14157500 0.999076163414768 -0.15013590201792754
14205000 0.9989742323046173 -0.15069559967954008
14252500 0.9988335558124541 -0.15120585792750368
14300000 0.9988464987571111 -0.15156033371775604
14347500 0.998888499237036 -0.15212850503906583
14395000 0.9989736353994617 -0.15286039963985557
14442500 0.9987839529472935 -0.15332873217379434
14490000 0.9986465513258719 -0.15384829120848278
14537500 0.9988888889388521 -0.1543049812695975
14585000 0.9989167819228842 -0.15500006371534783
14632500 0.9990017993769832 -0.15555063071582453
14680000 0.998825934804387 -0.15601101853677712
14727500 0.9988947562840567 -0.15642588113278608
14775000 0.9990652191421001 -0.1569682505839962
14822500 0.9990657932424913 -0.15760406473005556
14870000 0.9991524198030335 -0.1581266516848766
14917500 0.9990312929244072 -0.15859601884263866
14965000 0.9989972361107298 -0.15912289537234783
15012500 0.9990862893738555 -0.1596040557391346
15060000 0.9989805681375428 -0.1601101749983145
15107500 0.999055151692498 -0.16062033112857646
15155000 0.9990183425158055 -0.16107004888486454
15202500 0.9991240282785772 -0.16151550048565902
15250000 0.9990880232557415 -0.1620140673726489
15297500 0.9990659074947161 -0.1626210447464226
15345000 0.9989659745127765 -0.16323663932870525
15392500 0.9988881631824295 -0.1636100412696641
15440000 0.9988624167785648 -0.1641089256938841
15487500 0.9988727003330895 -0.16466524697405616
15535000 0.9988309566911562 -0.16527753390914507
15582500 0.9987230731635506 -0.16567081130765282
15630000 0.99863205974946 -0.16613374014026763
15677500 0.9987415924611225 -0.16669899665003945
15725000 0.9988065293563241 -0.16732271696595918
15772500 0.9986596087295363 -0.16801180503961421
15820000 0.9985171393006054 -0.1683239440997571
15867500 0.9986171145788959 -0.16894859509273416
15915000 0.9986419795730476 -0.16945610326205912
15962500 0.9987074022761226 -0.170075129462853
16010000 0.998567669575889 -0.17054997341612277
16057500 0.9986158606436412 -0.17104617859894206
16105000 0.9987040412519362 -0.1716144916586059
16152500 0.9987065814665635 -0.17221382378397976
16200000 0.9986217506061446 -0.17276771540115826
16247500 0.9986014207789472 -0.17324256868223387
16295000 0.9986829820338217 -0.17368446181199973
16342500 0.9986617662381209 -0.17423101414825987
16390000 0.998520152039796 -0.17462430919645341
16437500 0.9985515023475644 -0.17504766733512525
16485000 0.9985841279790171 -0.17553186480320548
16532500 0.998592113124106 -0.1760383140839896
16580000 0.9984434295483662 -0.1766198451095946
16627500 0.9984288063312968 -0.17705738939730753
16675000 0.998383930955459 -0.1775304956128321
16722500 0.9983140886042546 -0.17794895498384813
16770000 0.9982280291618525 -0.17848186258749194
16817500 0.9982445109877648 -0.17901424601767119
16865000 0.9981236850365693 -0.1795037543978402
16912500 0.9980638688655049 -0.17999341623894644
16960000 0.9980081097899413 -0.18045910645911353
17007500 0.9980046525892807 -0.1810337445116103
17055000 0.9979609251183208 -0.18152855661054282
17102500 0.9978054817553335 -0.18208431740451486
17150000 0.9977811795680867 -0.18263775473799257
17197500 0.9979269742972446 -0.18310847645415396
17245000 0.9978553253271711 -0.18372880891178128
17292500 0.9977650690411345 -0.18420058619454854
17340000 0.9977135333204765 -0.18466860767237855
17387500 0.997694079666973 -0.18519770308657707
17435000 0.9977749401294795 -0.18564488758629444
17482500 0.9977959660418394 -0.1861992090542131
17530000 0.9977909502677385 -0.18679717206139648
17577500 0.9979747528277275 -0.18736336247663696
17625000 0.9978737390885913 -0.18783461807962648
17672500 0.9978402790626962 -0.18831813240442943
17720000 0.9977758008077557 -0.18875668995560452
17767500 0.9978794869181451 -0.1892599359792258
17815000 0.9978812696809168 -0.18974613268130464
17862500 0.9978927514800013 -0.19019166481280675
17910000 0.997898068701887 -0.19071992397800225
17957500 0.997834438268173 -0.19118184405270372
18005000 0.9978467122785196 -0.1914339814056231
18052500 0.9978994327481143 -0.19211987940085995
18100000 0.9976144268223149 -0.19267784158583995
18147500 0.9977609584407738 -0.1930521661369157
18195000 0.997638648794927 -0.19361377428524634
18242500 0.9976152520925451 -0.19405390288117708
18290000 0.9974617563306176 -0.19448993560593586
18337500 0.9975611143081083 -0.1950693379878794
18385000 0.9975335181633223 -0.19556741822581575
18432500 0.9974517559389898 -0.19610157346464596
18480000 0.9974101736174429 -0.19660374359215724
18527500 0.9974747332318721 -0.19721682188157547
18575000 0.9975397261319152 -0.1977552978000859
18622500 0.9975037437179448 -0.19825841725311702
18670000 0.9974088356381438 -0.19878829998363276
18717500 0.9974336500337869 -0.1991047503248469
18765000 0.9975048501195265 -0.19980718637809916
18812500 0.9975470469375083 -0.20035607685566745
18860000 0.9974958824716356 -0.2008448244541066
18907500 0.9975544521275377 -0.20142915899140515
18955000 0.9976001915673948 -0.20193267563153136
19002500 0.9976721538412223 -0.20240337915235454
19050000 0.9976126685422639 -0.2029317673197611
19097500 0.9977450074188331 -0.20343926978425833
19145000 0.9977256728476332 -0.20396700749268182
19192500 0.99767942065428 -0.2044130132750416
19240000 0.9977457012886565 -0.20485519199574764
19287500 0.9977548576761406 -0.205390259933413
19335000 0.9978070661674515 -0.20590866011839
19382500 0.997672753126075 -0.20630923258910222
19430000 0.997679116346811 -0.20680364871676202
19477500 0.9977716339919495 -0.20726451058095322
19525000 0.9978211342310475 -0.20778523862346177
19572500 0.9977784194716622 -0.20834307093305696
19620000 0.9976404266360276 -0.20870024231324077
19667500 0.9977309515638001 -0.20921337700477222
19715000 0.9977361363021113 -0.20973664488333155
19762500 0.9977101315725081 -0.21016685287975723
19810000 0.9975777384626975 -0.21073245825158066
19857500 0.9976731757526344 -0.21118466033726846
19905000 0.997748593219522 -0.21174059438751858
19952500 0.9977404023576152 -0.21227916317455384
20000000 0.9976356479225272 -0.21284035042900798
