# HZ S RI R 50
1000000 0.9995278904804723 -0.05024937785466439
1047500 0.9998159019831748 -0.05226481736904138
1095000 0.9992651811953542 -0.05502433301828458
1142500 0.9989845962921293 -0.05751538721120472
1190000 0.9986189083284253 -0.059827933461252744
1237500 0.9986538580533914 -0.06201827410340001
1285000 0.9987711009278026 -0.06414821237955005
1332500 0.998938831793977 -0.0663128268029384
1380000 0.9988467351229555 -0.06867505027832718
1427500 0.9985889486193411 -0.07104045635810849
1475000 0.998393145754079 -0.07330630782703201
1522500 0.9983759247216082 -0.07568336419079727
1570000 0.9981156366788224 -0.07820880061458664
1617500 0.9979244724877283 -0.0806602697565768
1665000 0.9976427561581803 -0.08309849497207468
1712500 0.9975529381273773 -0.08530047778604942
1760000 0.997370796549602 -0.087629627075117
1807500 0.9973572836857418 -0.09014070199139738
1855000 0.9970370780665154 -0.0925575062840988
1902500 0.996808139601069 -0.094815941709245
1950000 0.9967463078273415 -0.09712450940632339
1997500 0.9966546105524743 -0.09958945561221948
2045000 0.9964658830965659 -0.10207881595469913
2092500 0.9960957964042686 -0.1043035441684103
2140000 0.9959648772792186 -0.10648930753376795
2187500 0.9959189401931929 -0.10887614236672562
2235000 0.9958072702715826 -0.11126584082304422
2282500 0.9955464844507473 -0.11364855367929427
2330000 0.9951862181842052 -0.11577717719783716
2377500 0.9951927648039594 -0.11804978855683117
2425000 0.995007000875608 -0.12052220769557238
2472500 0.9946557487462535 -0.12292629769106998
2520000 0.9942227616238646 -0.125151052336608
2567500 0.9940274175990051 -0.12733548798221125
2615000 0.9939144224672191 -0.1296233120690835
2662500 0.9936437830317246 -0.13220179471528007
2710000 0.9931091911842811 -0.13438967806675342
2757500 0.9929110357722637 -0.13660116604138306
2805000 0.9928127310854331 -0.1390020334147771
2852500 0.9925655233569417 -0.14149552743878288
2900000 0.9920347659036296 -0.14398125751906202
2947500 0.9917220699371759 -0.146265789481837
2995000 0.9915611969937538 -0.1485468335670324
3042500 0.9912889891297255 -0.1508819559177424
3090000 0.9909607660046539 -0.1533551062022827
3137500 0.9906121931221615 -0.15574372157379962
3185000 0.990312122675802 -0.15795138844211562
3232500 0.9901116146991461 -0.16028982637472466
3280000 0.9899122332284461 -0.16274763994196456
3327500 0.9895498238719008 -0.16519054749173143
3375000 0.9891862606721876 -0.1675646991937268
3422500 0.988847577549471 -0.16972939789313718
3470000 0.9886253172109435 -0.17200171685194982
3517500 0.9883503522575932 -0.17448089078804302
3565000 0.988030414143942 -0.17690739949760376
3612500 0.9875560558465029 -0.179023274176405
3660000 0.9872969611742746 -0.181172466585402
3707500 0.9870952193323257 -0.18364786860646418
3755000 0.9867201626899088 -0.18611440116201852
3802500 0.9861432072104114 -0.18839098553907005
3850000 0.9856497381281967 -0.1905271119707154
3897500 0.985481321096486 -0.19287754494549025
3945000 0.9851858402498258 -0.19536814688038878
3992500 0.9846109419278555 -0.19774463113244395
4040000 0.9840243730686971 -0.19989354238971965
4087500 0.9838407644867041 -0.2021457069177271
4135000 0.9835493676744435 -0.20453182999221028
4182500 0.9831710872413748 -0.20710489239687987
4230000 0.9824360530995754 -0.20947004060167088
4277500 0.9821124110011616 -0.21166059061042475
4325000 0.9818789068480777 -0.21396893245676432
4372500 0.9815520208860627 -0.21641568573128814
4420000 0.9809266723432378 -0.21880270512030306
4467500 0.9804364239084069 -0.22115052603363725
4515000 0.9800853319070594 -0.2233715345089243
4562500 0.9799344066937835 -0.22568916310067474
4610000 0.9793819278093686 -0.22827172893325612
4657500 0.9788292540664965 -0.23060669191079514
4705000 0.9783806626718817 -0.23286245983870582
4752500 0.9779541468965454 -0.23503891574266758
4800000 0.9776629949836242 -0.2374017290872131
4847500 0.9772122746765475 -0.23990899079024294
4895000 0.9766916344566545 -0.242202775528994
4942500 0.9761747722490969 -0.24420890567177186
4990000 0.9757899037387829 -0.2464788468075816
5037500 0.9754446969537643 -0.24891888270285648
5085000 0.9748122332852838 -0.25137824130146313
5132500 0.9741564531285707 -0.2536527699299768
5180000 0.973603242332692 -0.25585845114691214
5227500 0.9732658242866327 -0.2581225691545356
5275000 0.9727922281341712 -0.26070206108714145
5322500 0.9721369691512294 -0.2629858477055364
5370000 0.9715317822242805 -0.26513091856164067
5417500 0.9711054087498976 -0.2673480945160071
5465000 0.9707604756960927 -0.2697656705271419
5512500 0.9701393243295375 -0.27233313461858244
5560000 0.969337439084868 -0.2745729944289481
5607500 0.9686906642167127 -0.2768032594370433
5655000 0.9683884909432667 -0.2791435230248481
5702500 0.9679035530707286 -0.28161506404556175
5750000 0.9672201135706281 -0.2839893543281903
5797500 0.9664968939364893 -0.2862440406089696
5845000 0.9660752985690824 -0.2885321306251209
5892500 0.965716449280499 -0.2909209952900275
5940000 0.9650332771840139 -0.29336971699955267
5987500 0.964375870653674 -0.2957572801609979
6035000 0.9637911660093426 -0.2978795925053709
6082500 0.9633194000609595 -0.30011523356152214
6130000 0.9627882070392968 -0.3025651509241547
6177500 0.9621515289184769 -0.3050077334455212
6225000 0.9614266715970327 -0.3072461305693425
6272500 0.9609885709034284 -0.3093811783269857
6320000 0.9604606316557915 -0.31172127202164507
6367500 0.9600342816486442 -0.31415911666251745
6415000 0.9592153225746705 -0.31656947459756934
6462500 0.9585577730080955 -0.3188216514471612
6510000 0.9579554344099392 -0.3209238422859228
6557500 0.9574596842192027 -0.32331325238012987
6605000 0.9567629160096597 -0.3256194214543434
6652500 0.9559474774245165 -0.3279031874340133
6700000 0.9553052297751237 -0.3300179367130156
6747500 0.9548641711947695 -0.3323058830566002
6795000 0.9543131359662644 -0.3347759895920844
6842500 0.9534902488627457 -0.3371766021083534
6890000 0.9526402195683736 -0.3393512914856793
6937500 0.95198452645666 -0.3416028053206089
6985000 0.9514440481329492 -0.3438843155466534
7032500 0.9507752389120581 -0.34634358083036565
7080000 0.949848836868401 -0.34867929428826216
7127500 0.949175328582781 -0.35093891121431214
7175000 0.9486996140043928 -0.3531106143234429
7222500 0.9480950522493583 -0.3555996526724781
7270000 0.9472580638792186 -0.358017881895745
7317500 0.9464008288693982 -0.36034904300082543
7365000 0.9457259893450616 -0.3625848846134382
7412500 0.9452123511789959 -0.36484836687271543
7460000 0.9444370149406841 -0.36727417758485487
7507500 0.9436501594745503 -0.3695927123991647
7555000 0.9429070485190022 -0.3718669267404536
7602500 0.942173314593787 -0.37403424047633305
7650000 0.9415775923318805 -0.3763437919799925
7697500 0.9408230016189436 -0.3788446166266971
7745000 0.9399378038594434 -0.3810982095892788
7792500 0.9391196098830121 -0.3832631159046578
7840000 0.9384585823989036 -0.38540919951981206
7887500 0.9377703023063036 -0.38786750738331
7935000 0.9369653659645837 -0.3901933299307052
7982500 0.9360555626986917 -0.3924289684964819
8030000 0.9351893310870292 -0.39445754923531
8077500 0.9345880478462716 -0.39680774752731496
8125000 0.9337747907611735 -0.39918408261018656
8172500 0.9327510160985032 -0.4011427599689944
8220000 0.931906334424059 -0.4035872684168668
8267500 0.9311527120298579 -0.40591647107726203
8315000 0.9304689370609164 -0.4083014400712001
8362500 0.929519477677001 -0.4107007159024812
8410000 0.9284421938372833 -0.4129464934642111
8457500 0.9276171456065041 -0.41520736229081723
8505000 0.9268570887189927 -0.4174323811542626
8552500 0.9260869883831161 -0.4199022050175541
8600000 0.9250994632128977 -0.4222895980251333
8647500 0.924259500922684 -0.4246289272875632
8695000 0.9233624788624138 -0.4267929517498998
8742500 0.9226373496580567 -0.42915426492932085
8790000 0.9217107983786221 -0.4315164486024313
8837500 0.920799218927038 -0.43386293156765027
8885000 0.9199016136117913 -0.4360952942421303
8932500 0.9190139853194113 -0.43814753936058176
8980000 0.9183207450159484 -0.44049916008398726
9027500 0.9174981920837337 -0.4428995781608627
9075000 0.9164655117679562 -0.4452298049192251
9122500 0.9154644649185175 -0.44741493019112727
9170000 0.9146035418157951 -0.4496237727940929
9217500 0.9138025614974582 -0.4519931199284489
9265000 0.9128175076089379 -0.4543200952382577
9312500 0.9118229409310391 -0.45648210327606725
9360000 0.910804506503949 -0.4585588605456217
9407500 0.9099185987963772 -0.46080874046009584
9455000 0.9089149236619134 -0.4631573407012545
9502500 0.9079458570030307 -0.4655052583501881
9550000 0.9067873139977047 -0.46774422160839285
9597500 0.9058561494500634 -0.46976842147639675
9645000 0.9049739402668869 -0.47213849449084216
9692500 0.903967499139501 -0.4744161641076104
9740000 0.9027759013495263 -0.47664653331607343
9787500 0.9017585166559224 -0.47887104269045827
9835000 0.9008675685231108 -0.4812166437512401
9882500 0.8998877226602127 -0.4834666107885139
9930000 0.8987979785393038 -0.48577730988566453
9977500 0.8977154581164747 -0.4880507211174054
10025000 0.8967894775581197 -0.4902349155454178
10072500 0.8957977276056545 -0.49258596456337783
10120000 0.8947067613851569 -0.4949991813470077
10167500 0.8935820954896425 -0.49710690291625553
10215000 0.8926337868152457 -0.4992518683558357
10262500 0.8916076267597444 -0.5015049440626075
10310000 0.8904383549370639 -0.5037488728464706
10357500 0.8893669427955259 -0.5060706974145582
10405000 0.8883426295276067 -0.5081721066429157
10452500 0.8873936940742508 -0.5103524531919178
10500000 0.8863940429347651 -0.5126379062755125
10547500 0.8852597849150826 -0.5149172730542404
10595000 0.8842253663475147 -0.5170420536619731
10642500 0.8830500721745242 -0.519042200300946
10690000 0.8819648887575418 -0.5211526319472262
10737500 0.8809206997115488 -0.5235460462057546
10785000 0.8798713323610076 -0.5258456362220232
10832500 0.8786833505118135 -0.52801313653006
10880000 0.8775658483141668 -0.5301254080268083
10927500 0.8765316115550625 -0.5323978569787138
10975000 0.8753866316099107 -0.5346467328098727
11022500 0.8741630781526031 -0.5368894107494426
11070000 0.872951316479126 -0.538912172302216
11117500 0.871879135545251 -0.5411172857086103
11165000 0.870767185801393 -0.5433337343252426
11212500 0.8695560775916803 -0.5455958378625205
11260000 0.86814575312519 -0.5477494922537115
11307500 0.8670354153682097 -0.5499200622352148
11355000 0.8659286503463645 -0.5521819966344624
11402500 0.8648180537773053 -0.5543999469822084
11450000 0.8634925023887996 -0.5565634371318581
11497500 0.8623953108258575 -0.5587883466178107
11545000 0.8612195136703238 -0.5609629910320547
11592500 0.8601303101590717 -0.5630690196810623
11640000 0.8589121160178997 -0.5652483262980235
11687500 0.8576988834556782 -0.5675687953037716
11735000 0.8564767761410691 -0.56977170613441
11782500 0.8552599977392288 -0.5717944067470728
11830000 0.8540353894992053 -0.5740479196860733
11877500 0.8528888880289864 -0.5763523828129666
11925000 0.8516224744879339 -0.5784226227216512
11972500 0.850358083524857 -0.580559364563527
12020000 0.8491339261639824 -0.582607729832747
12067500 0.8480443961083904 -0.5848656544402829
12115000 0.8467164235448557 -0.587071346641116
12162500 0.845448789755098 -0.589119803873008
12210000 0.8441723123579665 -0.5911813125705455
12257500 0.8429784202313988 -0.5934011656908532
12305000 0.8417408823901759 -0.5957015677127042
12352500 0.8404218287735501 -0.5977831724081764
12400000 0.839043682061099 -0.5998324709279164
12447500 0.8378023233095024 -0.6019601074647222
12495000 0.8366077659475277 -0.6042090384385896
12542500 0.8352721925154213 -0.6063365335131404
12590000 0.833997970834694 -0.6084568068078112
12637500 0.8327191817625077 -0.6106083333819534
12685000 0.831427209792634 -0.6128097950387056
12732500 0.8300864076997737 -0.6149280765280586
12780000 0.8286220022450889 -0.6170168751814821
12827500 0.8273071282104528 -0.6192226265369208
12875000 0.8260628219076203 -0.6213849993652205
12922500 0.8247162452720928 -0.623582983111878
12970000 0.8233953175033465 -0.6257324914404057
13017500 0.8220892293710353 -0.6279256885138274
13065000 0.8207593893120658 -0.6300745676614357
13112500 0.8193589106180257 -0.6322263200998535
13160000 0.8180248829966618 -0.634361943990555
13207500 0.8166991114249895 -0.6365958179060692
13255000 0.8153885464537981 -0.6387553375284419
13302500 0.8139661838365179 -0.6409095878042822
13350000 0.8126156595716625 -0.6429955858696458
13397500 0.8112646822857019 -0.6452420885608039
13445000 0.8098767200230554 -0.6473680308249564
13492500 0.8084720948864134 -0.64951181054836
13540000 0.8070283343129897 -0.6515810259995136
13587500 0.8057216560847084 -0.6537834627404786
13635000 0.804294635721488 -0.6559209787550991
13682500 0.8029460284428883 -0.6579996605807005
13730000 0.8014274583379107 -0.6601087492344933
13777500 0.8000635098566488 -0.6622710892170829
13825000 0.7986628854976638 -0.6643086071352433
13872500 0.7971983491003279 -0.6663669600348412
13920000 0.7957934340800583 -0.6684270773734694
13967500 0.7943576323004123 -0.670558513465843
14015000 0.7928441193947767 -0.6727596283663768
14062500 0.7914483044616503 -0.6748547225385952
14110000 0.789850682970343 -0.6769419360593402
14157500 0.78838229395387 -0.6790800819838837
14205000 0.7869239535887673 -0.6811842501832074
14252500 0.7854997543517356 -0.6832529380080139
14300000 0.7840063347834461 -0.6852803210425905
14347500 0.7824852240867766 -0.6874214760086981
14395000 0.7809021391808916 -0.6895632888430829
14442500 0.7793746890341359 -0.6916215740929695
14490000 0.7777811178993964 -0.6937194341703408
14537500 0.7763074877829718 -0.6959296246967727
14585000 0.7747484970069854 -0.6980562630442328
14632500 0.7733094464520206 -0.7002297720364148
14680000 0.7716672745812436 -0.7023024321857728
14727500 0.7701092151751914 -0.704440538477479
14775000 0.7686961725450007 -0.706567890563119
14822500 0.7670675363111832 -0.7086155642743297
14870000 0.7655413722273532 -0.7105839891023091
14917500 0.7639769874897746 -0.7127256583439839
14965000 0.7625021679366931 -0.7148311533917991
15012500 0.7609743382688838 -0.7169297296638646
15060000 0.7593447095127216 -0.7189611723943661
15107500 0.7577904805728827 -0.7210902129224054
15155000 0.7562096348088895 -0.7231308031924205
15202500 0.7547112407940688 -0.7252262242740453
15250000 0.7530568986643981 -0.7272578146586496
15297500 0.7514844425554301 -0.729329566908701
15345000 0.749837515246138 -0.7313817137144214
15392500 0.7481824515760613 -0.7333237186364423
15440000 0.7465890852812255 -0.7352258449000593
15487500 0.7450096619069031 -0.7374334666182851
15535000 0.7432773834761595 -0.7394164062616949
15582500 0.7416350653782948 -0.7413390166189345
15630000 0.7400146009442938 -0.7432754917044195
15677500 0.7384089117687901 -0.745414165999052
15725000 0.7366420926535421 -0.7474594148623079
15772500 0.7349462177922469 -0.749441465154392
15820000 0.7331981906509746 -0.7514343663172933
15867500 0.7316484185504535 -0.7535106536009671
15915000 0.7299086608954205 -0.7556054683994592
15962500 0.7281321055064796 -0.7576409113308649
16010000 0.7264005823572247 -0.7595462291296687
16057500 0.7247550782478682 -0.761637665245112
16105000 0.7230493685073328 -0.7637425781295384
16152500 0.721343873107935 -0.7657771009899269
16200000 0.7195332822313112 -0.7678443675881252
16247500 0.7178630773684116 -0.769780199986102
16295000 0.7162451929559623 -0.7718411087357124
16342500 0.714482140969872 -0.773847331796083
16390000 0.7127430865052895 -0.7757950740663879
16437500 0.710945927417491 -0.7777136349400073
16485000 0.7091831496742794 -0.7796627181742094
16532500 0.7074785724418996 -0.7815744991900206
16580000 0.7056344179420782 -0.783554149299546
16627500 0.7038617507150096 -0.7855443929547475
16675000 0.7021060047562327 -0.7874084447605886
16722500 0.7003838225699199 -0.789338867585919
16770000 0.698564995890472 -0.7912621544608347
16817500 0.6968304880091701 -0.7932609218112854
16865000 0.6948813941857519 -0.7951323372149942
16912500 0.6931706129716406 -0.7970487310168043
16960000 0.6913599643975231 -0.7989333279600885
17007500 0.6895202508715862 -0.8010170971879705
17055000 0.6876381869494447 -0.8029961035787498
17102500 0.6857881736246466 -0.8048512744126378
17150000 0.6840253042591089 -0.8067740070526448
17197500 0.6821540814971934 -0.8087728374176283
17245000 0.680236700968853 -0.8108032058952467
17292500 0.6782944317572804 -0.8125904496950316
17340000 0.6764202884044846 -0.8144246162149559
17387500 0.6746357573945164 -0.8164270035370444
17435000 0.6727925132865072 -0.8184832059489842
17482500 0.6708349459401776 -0.8203899288977723
17530000 0.6689650161599402 -0.8221718933746818
17577500 0.6672085902850466 -0.824194538850928
17625000 0.6652911127744161 -0.8261094606811649
17672500 0.6633636638038818 -0.8281617503816542
17720000 0.6613133273401132 -0.8299086331648216
17767500 0.6595411344975405 -0.8318073738415176
17815000 0.6577438017295433 -0.833755057481431
17862500 0.6558992287402529 -0.8357241926071767
17910000 0.6539574519487134 -0.8376588864930957
17957500 0.6519811571693296 -0.8394389817072581
18005000 0.6500729824697273 -0.8412448382024419
18052500 0.6481755045223547 -0.8431163315222437
18100000 0.6462193973073598 -0.8449402536138094
18147500 0.6441017661146559 -0.846798877261136
18195000 0.6421076222551619 -0.8485485766894959
18242500 0.6401828846851018 -0.8502945477995822
18290000 0.6381776601563811 -0.8521098625967372
18337500 0.6360891828477774 -0.8541131321590213
18385000 0.6340300120075538 -0.8559195424051051
18432500 0.632032113651473 -0.857743039726808
18480000 0.6299725857540662 -0.8596261435785085
18527500 0.6279696141323671 -0.861552168829466
18575000 0.62582378957142 -0.8633756159981183
18622500 0.6238206995436714 -0.8650809765474338
18670000 0.6218668615969695 -0.8668360306373839
18717500 0.6198103141876842 -0.8688635472285402
18765000 0.6176251301658007 -0.8707751867409738
18812500 0.6155237904526563 -0.8725274360447544
18860000 0.6134265244891706 -0.8742883003241273
18907500 0.6115206346028309 -0.8762607287538814
18955000 0.6094282163766908 -0.8782132808355421
19002500 0.6072787441308826 -0.8800432733604928
19050000 0.6052416652141928 -0.88166836824716
19097500 0.603226017034406 -0.8835204615316367
19145000 0.6012073960818911 -0.885412840244123
19192500 0.5991433629981934 -0.8872305563720166
19240000 0.5969023069063268 -0.8888857552234339
19287500 0.59492350449038 -0.8906205811226325
19335000 0.5928979582685497 -0.8923772698070189
19382500 0.5908227681750647 -0.894151988545102
19430000 0.5886149057038169 -0.8957717610767221
19477500 0.5865114765796305 -0.897499221353654
19525000 0.5844964964467725 -0.8992032311681947
19572500 0.5824664244782556 -0.9009898080341979
19620000 0.5803059621285783 -0.9027395943935026
19667500 0.5780360436202842 -0.9045097532546714
19715000 0.575821471381229 -0.9061334603332408
19762500 0.5736438179657907 -0.9078847769014486
19810000 0.5713824350763049 -0.9095598804043855
19857500 0.56912571083041 -0.911441837506823
19905000 0.5668556736393044 -0.9130545972799132
19952500 0.5647484383255569 -0.9146690182391461
20000000 0.5625709828462883 -0.9163322571929704
