# HZ S RI R 50
1000000 0.9996043777869204 -0.0032025954896869515
1047500 1.0002781240662983 -0.0034468018317144046
1095000 0.9996194567359664 -0.0038429257527166265
1142500 0.9993428565473165 -0.0038650022037269314
1190000 0.9992450009991565 -0.003947918462511517
1237500 0.9995285387131059 -0.003958246386783105
1285000 0.9997343336241271 -0.004073107481654656
1332500 0.9997942923122749 -0.0040739061204973495
1380000 0.9998595764724888 -0.004024918519245908
1427500 0.9998901851396799 -0.004097025509798476
1475000 0.9999772632193465 -0.004379845881367909
1522500 0.999874391089003 -0.00473285737031285
1570000 0.9995920986672173 -0.004919140826108995
1617500 0.9996025730977341 -0.004950555117092618
1665000 0.9998034968985879 -0.005111750260145891
1712500 0.9998415289985164 -0.005334646679783295
1760000 0.9996535553784358 -0.005580773691765887
1807500 0.9996951111986633 -0.005729359771026213
1855000 0.9998307558294616 -0.005787987434319698
1902500 0.9999623587097733 -0.005994406357660099
1950000 0.9999496606036399 -0.006293989889983638
1997500 0.9999115921699332 -0.006525420698960263
2045000 0.9998179563544652 -0.006557783900743212
2092500 0.9999629715673424 -0.006615473461089482
2140000 0.9999743676717402 -0.006837772411757214
2187500 1.0000123000700876 -0.0070852419807852195
2235000 0.9999302366489505 -0.007177991127658142
2282500 1.0000156435863428 -0.007105773149983145
2330000 1.0001595562150776 -0.007218176936946406
2377500 1.0002919158672934 -0.007453038409289092
2425000 1.0001051688412066 -0.007687187404812513
2472500 0.9999930695602671 -0.00763410916111171
2520000 0.999998761936383 -0.007651962272652545
2567500 1.0001185177133447 -0.007816325974340064
2615000 1.0000818459149587 -0.008114196435221984
2662500 0.999957369573014 -0.00823716753265621
2710000 0.9997576057219199 -0.008204165078389893
2757500 0.9999250422909399 -0.00839878573733606
2805000 1.000048747415345 -0.008613958829591171
2852500 1.0000276259876864 -0.008992282850566058
2900000 0.9997615833826624 -0.009129536687272932
2947500 0.9998486007523496 -0.009179448464537304
2995000 0.999997281025976 -0.00932825649185391
3042500 0.999990001751845 -0.009662486947980171
3090000 0.9998335430861022 -0.009800736884559173
3137500 0.9998676879593632 -0.009890755856926534
3185000 0.9999787232985269 -0.009954673965915657
3232500 1.00014510102151 -0.010176336943734831
3280000 1.0000854968159545 -0.010532694321446167
3327500 1.0000218791862077 -0.010668117737322149
3375000 1.000044496073752 -0.0107028701272875
3422500 1.000198963982387 -0.010745527805022935
3470000 1.0002513209547454 -0.011015640743276846
3517500 1.0002060761906966 -0.011179298765953635
3565000 1.0001398003995234 -0.01129172322040029
3612500 1.0001212201009935 -0.011192528993644717
3660000 1.000246202628129 -0.011316990081892379
3707500 1.0003699988205166 -0.01171857956871471
3755000 1.0002038128005226 -0.011855044945546954
3802500 1.0001312764286145 -0.01179290997950168
3850000 1.0000705758348238 -0.011892914625416619
3897500 1.0002920831662745 -0.012036247084915417
3945000 1.0002212393651388 -0.012339576750270342
3992500 1.000020202506296 -0.012471642190132665
4040000 0.9999722917104986 -0.012405118877764207
4087500 1.0001616014387622 -0.012565336883785284
4135000 1.0003524568100906 -0.012980239117122103
4182500 1.00007672361354 -0.01328014695967362
4230000 0.9999268468527862 -0.013264379334815122
4277500 1.000084356467007 -0.013337237575953224
4325000 1.0002794108007844 -0.013468273634282003
4372500 1.0002568820376287 -0.013807529241711716
4420000 1.000042510448077 -0.013990688776595662
4467500 1.0001290371433378 -0.014008979167597331
4515000 1.0002281758298914 -0.01417657260090993
4562500 1.0004995942472608 -0.014423559103151564
4610000 1.0003424152479228 -0.014741793550615527
4657500 1.0002371111089956 -0.014856356116422244
4705000 1.0002973447396903 -0.014775790635384152
4752500 1.000394935787382 -0.01488294743205912
4800000 1.000492474831874 -0.015239045833087338
4847500 1.0004028214950227 -0.015323513319071688
4895000 1.0003878822101264 -0.015321100063879387
4942500 1.000502466110423 -0.015324590052689102
4990000 1.0006355971934002 -0.015460216877553936
5037500 1.0006634229755127 -0.01577545625703688
5085000 1.000390763698405 -0.015977929933448005
5132500 1.0002921098302162 -0.015980069596320895
5180000 1.0003951401981002 -0.016071497384529867
5227500 1.000543076864209 -0.01631417398835694
5275000 1.0004084263430022 -0.016572712071411817
5322500 1.000288139251501 -0.016595244964117815
5370000 1.0003842736183532 -0.016645826947136837
5417500 1.0005221367613684 -0.016844503174944653
5465000 1.0005083675549882 -0.01717376850183411
5512500 1.0003679493875894 -0.017363242932487418
5560000 1.0001470587806383 -0.01734735043216954
5607500 1.0003270951573546 -0.01753811981814733
5655000 1.0004415992295397 -0.017850825770006334
5702500 1.0003278070669757 -0.01807701757366433
5750000 1.0001820613186527 -0.018095726825471174
5797500 1.0004534426947893 -0.018203105655326835
5845000 1.0005735543403382 -0.018463035904015757
5892500 1.000603407387768 -0.01886041387102455
5940000 1.0003541079764187 -0.01903371107411845
5987500 1.0004078505656366 -0.018980453924365537
6035000 1.000682053342961 -0.01908182802981125
6082500 1.0007584709943667 -0.019353784256384378
6130000 1.0006204804507215 -0.019527013580743446
6177500 1.0005690551804858 -0.019574366345518325
6225000 1.0007111697128634 -0.019617228658195523
6272500 1.0008313675827285 -0.019756971907691715
6320000 1.000865308306292 -0.020042209054743833
6367500 1.0007235998085522 -0.020231236703265962
6415000 1.0006626228284663 -0.020195548893770666
6462500 1.0007784552646124 -0.020269708171813918
6510000 1.000910400166888 -0.020456106975427917
6557500 1.0008794432863806 -0.02073028297950029
6605000 1.0007724842134262 -0.020829183650644522
6652500 1.0006790478731027 -0.02076277674007102
6700000 1.0008007796307328 -0.02082536292617557
6747500 1.0009280425762117 -0.0212032674763856
6795000 1.0007601576613943 -0.021436867850738006
6842500 1.0006723543753921 -0.02150594917954183
6890000 1.000578618611309 -0.021485215240903553
6937500 1.0008132329746935 -0.021738216631254765
6985000 1.0008077140778509 -0.022066068588313347
7032500 1.0006788225726115 -0.02223931794655014
7080000 1.0005136194148891 -0.022342829464902025
7127500 1.0007433390820495 -0.022331237596366946
7175000 1.0010162396324223 -0.022699608357808404
7222500 1.0008871771286714 -0.022981180749853277
7270000 1.0007093653563042 -0.02319892089362534
7317500 1.0007303444739515 -0.02316163446140146
7365000 1.001026041410867 -0.023287795668286215
7412500 1.0009970856824773 -0.023573954084915374
7460000 1.0007796222398613 -0.023820070937537373
7507500 1.0008410218470587 -0.02390273670532638
7555000 1.001062478432955 -0.02394823369565088
7602500 1.0011954464562383 -0.024066815948382513
7650000 1.0011551884544962 -0.024430732720941786
7697500 1.0010690999448408 -0.02455298522553445
7745000 1.0010347143336396 -0.024568987458315258
7792500 1.0011766306254197 -0.024603013779771112
7840000 1.0010714060201815 -0.024920259915532234
7887500 1.0009935726977532 -0.025010114005440613
7935000 1.0009333590877212 -0.025094215527073672
7982500 1.0011297207935725 -0.025012703150137185
8030000 1.0011594922271645 -0.025211089859713078
8077500 1.0012221230177272 -0.025588497074159843
8125000 1.0010398216702625 -0.025769797743867277
8172500 1.0013158216031441 -0.02578434659921865
8220000 1.0012113527581905 -0.02590769534286888
8267500 1.0011592915411973 -0.026224401428108036
8315000 1.0009861570050929 -0.026381097093076313
8362500 1.0008946393237912 -0.026406856797012854
8410000 1.0009214501080552 -0.026511084580235714
8457500 1.0011233634918282 -0.026872628775457846
8505000 1.0011555525360318 -0.027146126843713272
8552500 1.001005231849288 -0.027181180506742685
8600000 1.0010134327326339 -0.027263755887528666
8647500 1.0012420195824512 -0.027383743118348645
8695000 1.001337256351735 -0.027759105253438263
8742500 1.0013149874079745 -0.028005877442427385
8790000 1.0011627751460201 -0.028065986196548553
8837500 1.001306444094637 -0.028038690021980835
8885000 1.00149731321589 -0.028290574997721942
8932500 1.0015730016065374 -0.0285168135783151
8980000 1.0014191247847368 -0.02865775985321564
9027500 1.0014488231126135 -0.028533198179753052
9075000 1.0016642342861601 -0.02871100389881919
9122500 1.0017042851768463 -0.029030593992678648
9170000 1.0014617825195578 -0.029346551550052884
9217500 1.0014588279065129 -0.02934100528890893
9265000 1.0016538979534682 -0.02929320702777761
9312500 1.0016814933462357 -0.02950726588670386
9360000 1.0015807453322805 -0.02975588888214941
9407500 1.0013943512338748 -0.02990195216461174
9455000 1.0016792221653597 -0.029905672023293615
9502500 1.0016854150541257 -0.02994553284942575
9550000 1.0017567366229718 -0.030311175622431186
9597500 1.0015723732601298 -0.030543873573465847
9645000 1.001448033254573 -0.03066122275303319
9692500 1.0014230671413569 -0.030731963695261225
9740000 1.0014457821697984 -0.030916175168054606
9787500 1.0014923639170816 -0.031272128672900495
9835000 1.0014818968216828 -0.0314240888426231
9882500 1.0013606086723306 -0.031437268745459025
9930000 1.0015076438830672 -0.031505280827660145
9977500 1.0017304849419386 -0.031933994168553595
10025000 1.0016130685005722 -0.03217297182248316
10072500 1.001521957855724 -0.03233869611795123
10120000 1.0015048906081623 -0.03242040383772748
10167500 1.0017285755898002 -0.032531132922900864
10215000 1.0017296334633714 -0.03278599250055241
10262500 1.0016897780649088 -0.03296944204447877
10310000 1.0015437636843738 -0.03304038803648667
10357500 1.0017469565036197 -0.03310305106891842
10405000 1.0020545565813748 -0.033387795412801693
10452500 1.0019872506159164 -0.03361952569567767
10500000 1.0017813133187277 -0.0337214424980824
10547500 1.0019239562920828 -0.033720929363286044
10595000 1.0019635458200435 -0.0337490309919753
10642500 1.0020725819718053 -0.03399134536869238
10690000 1.00185924014449 -0.03424594374786111
10737500 1.0019869526679857 -0.03415729788160832
10785000 1.001944919944127 -0.03424124479556617
10832500 1.0021573200531124 -0.034561773128670426
10880000 1.0020611038681828 -0.03487901377778597
10927500 1.0019714663201946 -0.034944335389978105
10975000 1.0019109374325876 -0.03495927905520679
11022500 1.0019202460565702 -0.03498177390642066
11070000 1.0020596034967701 -0.035320412964807084
11117500 1.001965623659987 -0.03550758315098192
11165000 1.001837594691956 -0.03568056389104494
11212500 1.0018972219476665 -0.03564769460203258
11260000 1.0020580664738126 -0.036038161511080316
11307500 1.0020310343946723 -0.03630888671373773
11355000 1.0019890924004553 -0.03656038401152006
11402500 1.0018976602420324 -0.03662024728294459
11450000 1.0019047984249465 -0.03660575732862956
11497500 1.002095456143164 -0.03687567539834477
11545000 1.0021465650697632 -0.037230148998884924
11592500 1.0019755026775754 -0.037398102694268874
11640000 1.0020044828514212 -0.03742330231427266
11687500 1.0022992052557536 -0.03753209980999982
11735000 1.0024672626038968 -0.037822720931170915
11782500 1.0023585619758104 -0.0381106758507092
11830000 1.0021712185778282 -0.038248696856402906
11877500 1.002390246343601 -0.03824724299632057
11925000 1.0025408739486874 -0.0383971542005664
11972500 1.0024641795136808 -0.03871887862987885
12020000 1.0023701391168962 -0.038793708664422506
12067500 1.0024159646135562 -0.0387947391659806
12115000 1.0024776802384143 -0.03888781740758686
12162500 1.0025037153421914 -0.039090903513375706
12210000 1.0024691628851807 -0.03935737316456029
12257500 1.0023542285977483 -0.039440163139622016
12305000 1.0024012926022714 -0.03942732408468659
12352500 1.002429605352291 -0.03956234187259138
12400000 1.0024819173923518 -0.039888272927995266
12447500 1.0024789630231108 -0.039963580842216295
12495000 1.002464437113577 -0.040115958465652544
12542500 1.0025223925897404 -0.04009979495356153
12590000 1.002533211431066 -0.04029721499992221
12637500 1.0025396272852962 -0.040582998363231336
12685000 1.0023925172574435 -0.04084371056820245
12732500 1.0023338839845177 -0.040909342639276904
12780000 1.002445642870867 -0.040978583393805765
12827500 1.0025332251654133 -0.041377098062290445
12875000 1.0024560356365435 -0.0415824315198119
12922500 1.0023870594342845 -0.0417330594988136
12970000 1.0023459114337836 -0.04177474304185897
13017500 1.0026261165916304 -0.04205752969741843
13065000 1.0027388947240663 -0.0423381332582137
13112500 1.002644287092089 -0.042651646170868744
13160000 1.0024564369101647 -0.04268047612747647
13207500 1.0026185651412662 -0.042828874168270484
13255000 1.002855246830068 -0.04300050625276261
13302500 1.0028088945735982 -0.04337257909594261
13350000 1.002714685638871 -0.04348501985076013
13397500 1.0028073987972361 -0.04350404823289027
13445000 1.0029343384954799 -0.043536984165190605
13492500 1.0029514160120236 -0.0439326838002489
13540000 1.0029326080421395 -0.04413928588369484
13587500 1.0028449962428272 -0.04429476600205299
13635000 1.0029717416035193 -0.04430770276840634
13682500 1.0030776479539214 -0.044518518122373285
13730000 1.002977127856737 -0.04477791311648516
13777500 1.0029046563261712 -0.044971292234041955
13825000 1.0029150631336743 -0.04493938592553278
13872500 1.0030362701118025 -0.04491086459110759
13920000 1.003040856733606 -0.04518332469957928
13967500 1.0030088934972339 -0.04542182219455385
14015000 1.003031833309171 -0.045584010133159145
14062500 1.0029179808246345 -0.045645591976376784
14110000 1.0030052949008081 -0.04569821750234619
14157500 1.003010823307783 -0.046084233517102155
14205000 1.0029647990110329 -0.046205711535159316
14252500 1.0029191721843402 -0.04633748817856804
14300000 1.0029598888303595 -0.04636911447507689
14347500 1.003158795417534 -0.046721097576200125
14395000 1.003018969744608 -0.04690432009051201
14442500 1.002915519100378 -0.04715381286631554
14490000 1.0029174640371918 -0.04716620598072538
14537500 1.003163021975465 -0.047393913430685546
14585000 1.0032257571333145 -0.047635855550378525
14632500 1.0032489493839516 -0.0478179261671599
14680000 1.0032456366442524 -0.047877649013369515
14727500 1.0034009580786623 -0.04801313185312463
14775000 1.0035357955218622 -0.04813105883120993
14822500 1.0036543218248304 -0.04844482333788612
14870000 1.0033649557974944 -0.04859262848674913
14917500 1.0034731872938087 -0.04863528858951526
14965000 1.0035759050615598 -0.048721875709544234
15012500 1.0036812082903854 -0.04891227532373463
15060000 1.0035840914333631 -0.0490259104183362
15107500 1.0036119965201193 -0.04919216660606911
15155000 1.0035782752057023 -0.04925949638548844
15202500 1.0037778512224862 -0.04939461457404203
15250000 1.0037389540867632 -0.04964981712303715
15297500 1.0036399470361106 -0.04988928065746184
15345000 1.0036187055054833 -0.04995438085945742
15392500 1.0035475989650242 -0.05010826909297248
15440000 1.0035418972763719 -0.050250199914804235
15487500 1.0036651607531861 -0.050600860129789316
15535000 1.0035947269915504 -0.05068284027674313
15582500 1.0035353027121263 -0.05080247771128414
15630000 1.003557954400845 -0.051057287120587706
15677500 1.0036888664166672 -0.05126472780358119
15725000 1.003672377603514 -0.05162331482516594
15772500 1.0035932478409324 -0.0517619743523924
15820000 1.0034731034052689 -0.05190950846428797
15867500 1.0036712131291166 -0.0521199836688515
15915000 1.0036432558862314 -0.05239949752378939
15962500 1.0037135965422608 -0.052694280168389174
16010000 1.0036595079483004 -0.05277523694118978
16057500 1.0038109926763745 -0.05295665290086412
16105000 1.0039465922777921 -0.05313982497123791
16152500 1.0039944608552436 -0.05344314782359473
16200000 1.0038701975629774 -0.05359406858924973
16247500 1.0039048832023914 -0.053633867062471204
16295000 1.0040923048694235 -0.05375717067614225
16342500 1.0040383352046207 -0.05395456038885761
16390000 1.0040113171630511 -0.05413274991535355
16437500 1.0039706259596517 -0.054252901720776465
16485000 1.0041462563975023 -0.054420014213958694
16532500 1.0041375554254897 -0.05450011613941143
16580000 1.0041081134659668 -0.05472849410337651
16627500 1.0040923695747255 -0.05485494810438724
16675000 1.004063130075912 -0.054974097401634295
16722500 1.0041279215413828 -0.05504636912312066
16770000 1.0041593834378773 -0.055193102081616735
16817500 1.0040569751614612 -0.055394915958954606
16865000 1.0040807299947376 -0.055528012856192056
16912500 1.0040428528629517 -0.055624110948887966
16960000 1.0041369042161694 -0.0558551851878447
17007500 1.0041137803859912 -0.05593457005790905
17055000 1.0041741059021032 -0.056173933622011785
17102500 1.004115320909779 -0.05629492481294106
17150000 1.0041738559094326 -0.0564981541689849
17197500 1.0042703924628553 -0.05668347404946214
17245000 1.0043436597349016 -0.05682426648385226
17292500 1.0042998341913831 -0.05699421537276593
17340000 1.0042980969118067 -0.057064446231405434
17387500 1.0044502485731062 -0.05723712112153627
17435000 1.004502623039002 -0.057446342158765366
17482500 1.0045400555737594 -0.05761325956161726
17530000 1.0045161248704537 -0.05775257371718685
17577500 1.0047015204896066 -0.05780657784710227
17625000 1.0047766337879531 -0.057982117705080695
17672500 1.00474536533508 -0.05821573388268291
17720000 1.0047367560907055 -0.058308119726909004
17767500 1.004819875882457 -0.05839842951530245
17815000 1.00500573494627 -0.0585553493768519
17862500 1.004992417514102 -0.05866153574747681
17910000 1.005021717582396 -0.05883506716213241
17957500 1.0051039846559986 -0.05900369666150169
18005000 1.00508822819038 -0.05911018744144567
18052500 1.0050450898936207 -0.05925340736570461
18100000 1.004847037963953 -0.059333173743700666
18147500 1.004901412516678 -0.0596011301885966
18195000 1.0050533144708085 -0.0597157041018094
18242500 1.005009391444498 -0.059812426688369565
18290000 1.0049343199460803 -0.059975394589799884
18337500 1.0051434042764078 -0.06022764793795319
18385000 1.0050421821135773 -0.060393702266735245
18432500 1.00497665899957 -0.06059182420366888
18480000 1.0050012827672488 -0.06083521868709202
18527500 1.005020243243075 -0.06102208766603567
18575000 1.0050398218376835 -0.06129508756039876
18622500 1.0050882548893278 -0.06146704850224421
18670000 1.0049863141334183 -0.061686573241334856
18717500 1.0051722987286809 -0.06194650536064682
18765000 1.005257447563784 -0.062131881227878036
18812500 1.0052879417514162 -0.062377406247467036
18860000 1.0051715531427357 -0.06262039969055738
18907500 1.0054066455355626 -0.06270017166289725
18955000 1.005445528716848 -0.06302338444651231
19002500 1.0054323548445294 -0.06318201503029373
19050000 1.0053806521577033 -0.0632919643507224
19097500 1.0054981424655616 -0.06348260278941475
19145000 1.0055676427620015 -0.06369497445445758
19192500 1.0055737914712637 -0.06388614208202378
19240000 1.0056077844028417 -0.0641347899610604
19287500 1.0055489118447558 -0.06429870674302497
19335000 1.005672620563997 -0.06445335657756877
19382500 1.0057021375092476 -0.0646866492468359
19430000 1.0056084766636553 -0.06486367739180564
19477500 1.0056484454087151 -0.0650083296706282
19525000 1.0056465306055817 -0.06513016629645106
19572500 1.0057450073925884 -0.06530588868801267
19620000 1.0055990464946047 -0.06549556554461466
19667500 1.0056755540911475 -0.06572628681641841
19715000 1.0057130725341057 -0.06588612370011893
19762500 1.005610256951267 -0.0661490151979727
19810000 1.0055543645705112 -0.06634702391555769
19857500 1.0056566745619706 -0.06655210097354704
19905000 1.0057785113164754 -0.06672234018768614
19952500 1.0057083957579087 -0.06703937180148209
20000000 1.0056830675908717 -0.06732305122258217
