# HZ S RI R 50
1000000 0.9999619219148637 -0.034832338447104656
1047500 1.0000487681976653 -0.03662622866543835
1095000 0.9997003917332662 -0.03833817219202805
1142500 0.9993999877124925 -0.039875659348775426
1190000 0.9992810381474817 -0.041460386640007806
1237500 0.9995266782495945 -0.04302328471716838
1285000 0.999658541639612 -0.04459327768991776
1332500 0.9996634141972833 -0.04613762661411455
1380000 0.9996359756625187 -0.04742846196540456
1427500 0.9995674920877888 -0.04900958180859085
1475000 0.9995723936841997 -0.050854332011580405
1522500 0.9994763854346665 -0.05261824332159609
1570000 0.999062800091109 -0.05418833422649099
1617500 0.9991688787202265 -0.055748160302626006
1665000 0.9992690245230281 -0.057397033016396884
1712500 0.9992115136897763 -0.059203384969277545
1760000 0.9990103351672316 -0.060916453317309
1807500 0.9989589424401136 -0.06253061503476026
1855000 0.9989040883813385 -0.06401848175889882
1902500 0.9989302430852587 -0.06570045156805576
1950000 0.9987972408065802 -0.06752037286291479
1997500 0.9985822101890347 -0.06910132591213838
2045000 0.9985297235677826 -0.07057355324486787
2092500 0.9986653854883796 -0.0721427200495756
2140000 0.9985846115232108 -0.07385123445087102
2187500 0.9985498523073681 -0.07563524177248564
2235000 0.9983668583649069 -0.07718925564631841
2282500 0.9983043429507935 -0.07857701326177398
2330000 0.9982676837991633 -0.08016297484590423
2377500 0.9983018006090564 -0.08189305795362457
2425000 0.9980872569720092 -0.08358779902841129
2472500 0.9979264059347734 -0.08498214647062637
2520000 0.9977567388291337 -0.08649981015038698
2567500 0.9978684251355681 -0.08817093889761002
2615000 0.9977161847146306 -0.08993137090230827
2662500 0.9973382181210559 -0.09153473543309436
2710000 0.9971173046391834 -0.0930118761413994
2757500 0.9971722042062171 -0.09462770879441097
2805000 0.9971893861152445 -0.09641350535366869
2852500 0.9969890044278484 -0.09817120826891544
2900000 0.9966005835042897 -0.099672411268179
2947500 0.9966415784731852 -0.1011988555296722
2995000 0.9966048752629038 -0.10288676561361337
3042500 0.9964777747065805 -0.10465955303518609
3090000 0.9961306584859698 -0.10641089742220795
3137500 0.9959936562527164 -0.10799797947739992
3185000 0.9960178357905582 -0.1094612653747847
3232500 0.9960026106720438 -0.11128724441742407
3280000 0.9957123984769446 -0.11294325781468981
3327500 0.9955512401720108 -0.11448136661467982
3375000 0.9955779164973931 -0.11598065062200391
3422500 0.9955870379806603 -0.11763623990366191
3470000 0.9953848719485866 -0.11941578109341466
3517500 0.995192355234631 -0.12108098818231752
3565000 0.9950553779286818 -0.122532266754262
3612500 0.9949262058282963 -0.12403925449881138
3660000 0.9948328658830973 -0.1256528290823121
3707500 0.9947141285442563 -0.12744833072239245
3755000 0.9944323699599429 -0.129058915128008
3802500 0.9942277572233135 -0.1304039252132934
3850000 0.9941218772322287 -0.13199480450149162
3897500 0.9942109756512535 -0.13382534785662967
3945000 0.9938412742077453 -0.13552927736394554
3992500 0.9934926487437246 -0.1370060152198336
4040000 0.9933415452525465 -0.1384644417152834
4087500 0.9933123307784982 -0.14011002040713816
4135000 0.993130724144888 -0.14198427765874364
4182500 0.992818606317657 -0.14371408127154062
4230000 0.9924537936139289 -0.1451497105634579
4277500 0.9925242243102127 -0.1466834322226807
4325000 0.9924782323054256 -0.14841938360110896
4372500 0.9922416294073452 -0.15026886280931576
4420000 0.9918419819661025 -0.15186674640782544
4467500 0.9916786585060178 -0.15340180215161953
4515000 0.9916648273579713 -0.154922950062236
4562500 0.9916095109352371 -0.15672524811240138
4610000 0.991251415319159 -0.1584872154407272
4657500 0.9909888081806644 -0.15997007867564692
4705000 0.9909414498797607 -0.16148582930699978
4752500 0.9909009054206482 -0.16308867155959514
4800000 0.9907238237849274 -0.16487944601453855
4847500 0.9903703762838667 -0.16649638001205966
4895000 0.9902071783980086 -0.16795628333575394
4942500 0.9900901806942958 -0.16944941303958932
4990000 0.989925167808936 -0.17111318672754033
5037500 0.9896859827682694 -0.17293381739740307
5085000 0.9893862691965987 -0.174468054022761
5132500 0.9891581425598779 -0.17599726667970655
5180000 0.9888751697375012 -0.1775537758322273
5227500 0.9888910998181609 -0.17928348132329583
5275000 0.9885188810256539 -0.18109417549858733
5322500 0.9881683648242975 -0.18261328543247723
5370000 0.9879559174111414 -0.18411557817984925
5417500 0.9879076914874795 -0.18571099118828108
5465000 0.9876055988972504 -0.18755283225180835
5512500 0.9872100799089886 -0.18909020944300478
5560000 0.9868109337246777 -0.19067616873351714
5607500 0.9867431421672218 -0.19227295692901317
5655000 0.986675170055752 -0.19397986458443958
5702500 0.9863825913122023 -0.1958148345806087
5750000 0.9858240412121585 -0.19747493375385838
5797500 0.9856640046417257 -0.19901522780624245
5845000 0.9855938075761134 -0.20057295865884422
5892500 0.9854084612064435 -0.20238863488809491
5940000 0.9849792791889767 -0.20412163059654628
5987500 0.9847357636100513 -0.20559501309803574
6035000 0.9846778306105886 -0.20709036681934323
6082500 0.9844831294012291 -0.20873813146967557
6130000 0.9841725011991946 -0.21050279738134398
6177500 0.9838787979941042 -0.21219554118359102
6225000 0.9835177760358823 -0.21355282145170287
6272500 0.9834497385242595 -0.21527148017562828
6320000 0.9832101925594803 -0.21686518680470596
6367500 0.9827989920621644 -0.21855396477291247
6415000 0.9825356008857494 -0.22006009907572252
6462500 0.9824907928347368 -0.22160255054933237
6510000 0.9822307149598095 -0.22320662122827267
6557500 0.9819430512502515 -0.22504028396318534
6605000 0.9815105617269779 -0.226581787731942
6652500 0.9812230105585746 -0.2280235388464747
6700000 0.9810744525698368 -0.22957506473277464
6747500 0.9808224981880261 -0.23138377341378993
6795000 0.9804138994848306 -0.23310337533412434
6842500 0.980003598996708 -0.23455414360234736
6890000 0.9797031965593496 -0.23605801595030254
6937500 0.9796770050186399 -0.23780039835390515
6985000 0.9793055246928793 -0.23966774351342057
7032500 0.9788154794099956 -0.2413181079768655
7080000 0.9784623837184504 -0.24287714657642454
7127500 0.9782481227508216 -0.24446730154540686
7175000 0.9781037878612295 -0.24617844656062104
7222500 0.9777089478258366 -0.2479515671922544
7270000 0.9772997983829924 -0.24953964460621925
7317500 0.9770600816707405 -0.25102374978439906
7365000 0.9768519952631994 -0.2527024842382406
7412500 0.9765843103753784 -0.2544950990027467
7460000 0.9761147295245652 -0.25613072614889787
7507500 0.975808078396683 -0.2576833766796084
7555000 0.9756008088858305 -0.2592656582206375
7602500 0.975408990497864 -0.2609603306914226
7650000 0.9749992381606588 -0.2627066571453606
7697500 0.9745917143650071 -0.2642057113487116
7745000 0.9742481389886706 -0.26572689040889574
7792500 0.9741798395197319 -0.2673339439908782
7840000 0.9738008357621791 -0.26905603098801817
7887500 0.9734774845545585 -0.27075978003956275
7935000 0.9730442642200192 -0.27224335488795853
7982500 0.9726343034699941 -0.27375315676825734
8030000 0.9723675644255763 -0.275368248944551
8077500 0.9720883370273896 -0.2771063775937832
8125000 0.9716276708471547 -0.27873470398073846
8172500 0.9715092622209992 -0.2800614060094606
8220000 0.970919466284288 -0.28177660694839396
8267500 0.9705610141837466 -0.28361239959606455
8315000 0.9700138728799906 -0.28522738130689224
8362500 0.96956151063363 -0.2868093268754632
8410000 0.9692049699199792 -0.2883085714413145
8457500 0.969074588572429 -0.2900071415308637
8505000 0.9687212426350302 -0.2918491308310254
8552500 0.9681455660476431 -0.29344050622718043
8600000 0.9677084446456768 -0.29497194811187155
8647500 0.9675782057581984 -0.29653655837580617
8695000 0.9673099090115629 -0.29834765286361886
8742500 0.9668391942109645 -0.30018531097186896
8790000 0.9662326856996467 -0.30175394419777224
8837500 0.9660072521239682 -0.3032173164663673
8885000 0.9657908201117332 -0.3048794550757568
8932500 0.9655239819680713 -0.30661641158939396
8980000 0.9650025173607775 -0.30825356269197624
9027500 0.9646830271054774 -0.3098610941438777
9075000 0.9643247007918998 -0.31139389262394546
9122500 0.9640633591387818 -0.3131495540918645
9170000 0.9635071184023681 -0.3148006820673881
9217500 0.9630458736979468 -0.3164336457714955
9265000 0.9627107556639534 -0.31795200601166324
9312500 0.962392961937227 -0.319371528787982
9360000 0.9619764864396655 -0.32117707162621995
9407500 0.9615618832728577 -0.32289180939558254
9455000 0.9610357661446541 -0.32449395671297016
9502500 0.9605059051242385 -0.3260381642914503
9550000 0.9600483579862802 -0.3277599938702227
9597500 0.959676035019614 -0.3294613876758597
9645000 0.9590547972690786 -0.33108097056131225
9692500 0.9586681325856807 -0.33249995956351414
9740000 0.9581553580335904 -0.33408200939818467
9787500 0.9579031279333384 -0.3358562932960698
9835000 0.9574131119497609 -0.3376813546993065
9882500 0.95687018283412 -0.3393208156615271
9930000 0.9564381904791648 -0.3409130670463176
9977500 0.9560927761724284 -0.34262053309686896
10025000 0.9557174573097126 -0.34434331260166184
10072500 0.9551587611626409 -0.34601749106077645
10120000 0.9546163523629537 -0.34759126837708093
10167500 0.9543330883804145 -0.34918057016071424
10215000 0.9539621741139458 -0.35088694382330876
10262500 0.9534478638769277 -0.3526242878586507
10310000 0.9527021055346147 -0.35424913469959013
10357500 0.9524979418455571 -0.35575211358861103
10405000 0.9521995972821288 -0.35747582883146933
10452500 0.9516764031562381 -0.3592229233634631
10500000 0.9510933853825551 -0.36077074120697955
10547500 0.9506055673649609 -0.36230796218663447
10595000 0.9502588838049512 -0.3638134210095916
10642500 0.949899878653583 -0.36539844691068174
10690000 0.9493100623119672 -0.36715476501586425
10737500 0.9487528230413969 -0.36878316059735333
10785000 0.9481577266296757 -0.3703085441511345
10832500 0.947720850058891 -0.3720069455158652
10880000 0.9473452675248241 -0.3737253128882402
10927500 0.9466855066468758 -0.3753546489820003
10975000 0.9460402721009352 -0.3769110531586085
11022500 0.9456526686290229 -0.3785315739981636
11070000 0.9452116160379197 -0.380148428683621
11117500 0.9446112226476209 -0.3819448493076071
11165000 0.9439909156806384 -0.3835358027101741
11212500 0.9435053349399141 -0.3851046512067011
11260000 0.9428769892184258 -0.3867123279322217
11307500 0.9423270749072189 -0.388531483935206
11355000 0.9417910428631329 -0.39016887100537395
11402500 0.9411355669059934 -0.3918439830187051
11450000 0.9406346601572245 -0.39340789953288785
11497500 0.9401760567529951 -0.39501378321039177
11545000 0.9397357370600256 -0.39681429714196476
11592500 0.939113973699225 -0.39841730710670337
11640000 0.9384010586204554 -0.3999949054843628
11687500 0.9379538794354504 -0.40167865544511183
11735000 0.9375559246278643 -0.40332414777416387
11782500 0.9368043528446737 -0.40502013107383317
11830000 0.9362385677358963 -0.40666461892572936
11877500 0.935653320464273 -0.408183386671871
11925000 0.9352619686637401 -0.4097866177759065
11972500 0.9347535077905332 -0.411465941566542
12020000 0.9339039977083886 -0.41316118186229284
12067500 0.9334294225725487 -0.41470060996070757
12115000 0.9328411245772267 -0.4162195313313261
12162500 0.9323291587794533 -0.4178426176832443
12210000 0.9316494764183322 -0.4194125087777362
12257500 0.9310782248585894 -0.42111796106114613
12305000 0.9305329525783833 -0.4226792451629098
12352500 0.9300247211339725 -0.4242215781664328
12400000 0.9293267007032341 -0.42580966017964605
12447500 0.9287219293613548 -0.42760909250288276
12495000 0.92811398473828 -0.42907248275346555
12542500 0.9275401984667145 -0.43063307902948544
12590000 0.926958439741012 -0.43223859658765246
12637500 0.9263116715419638 -0.43392354186116827
12685000 0.9256641963526997 -0.4354715819748653
12732500 0.9250323285828916 -0.437028564074664
12780000 0.9244812889163098 -0.43859296823705424
12827500 0.9239405678862267 -0.4402836960201595
12875000 0.923369250615068 -0.4419839854480178
12922500 0.9227069023480258 -0.4436551617539757
12970000 0.922123924330293 -0.4452523130500584
13017500 0.9215055796545137 -0.4469772336788178
13065000 0.9209434144746816 -0.4485496357542241
13112500 0.9202229761864296 -0.4501453027993055
13160000 0.9196519637816617 -0.45160451938647633
13207500 0.9192653383035542 -0.453273239948618
13255000 0.9187037706655355 -0.45498678370210754
13302500 0.9180620685910335 -0.45663589950326616
13350000 0.917398203625807 -0.4582173070892809
13397500 0.9168749168691868 -0.45977950762309705
13445000 0.9163012963260171 -0.4614672235211934
13492500 0.915676365454886 -0.46313823672609294
13540000 0.9150501551335813 -0.46473324615861195
13587500 0.9144380390045509 -0.4663214515049386
13635000 0.9138869168629099 -0.4678936995649573
13682500 0.9133607912851254 -0.46959282829467364
13730000 0.9126966182069477 -0.4711705880215249
13777500 0.9119884106545517 -0.4727812714734624
13825000 0.9114753320299114 -0.4743508357668448
13872500 0.910819078560037 -0.4758718527584418
13920000 0.9101713256688634 -0.4774825489150919
13967500 0.9095112331403211 -0.47909964165736296
14015000 0.9088759761598643 -0.4807093936557845
14062500 0.9082216569930119 -0.48231830905382433
14110000 0.9075697287431357 -0.4839691939892053
14157500 0.9069116167072421 -0.4856115890311269
14205000 0.9063309436119327 -0.4871642985800545
14252500 0.9055602949909366 -0.48878747974884895
14300000 0.9049455129171609 -0.4904079119164347
14347500 0.9042603415677477 -0.49207395542492904
14395000 0.9035442550620301 -0.4937000712360751
14442500 0.902789668410982 -0.49532897627166367
14490000 0.9021040844149254 -0.4969493798775249
14537500 0.9014569351285846 -0.49869053999388097
14585000 0.9008410460477791 -0.5004037248514154
14632500 0.9001808030382461 -0.5020303494428202
14680000 0.8995100164943454 -0.5036963832969819
14727500 0.8988448459084016 -0.5052767812349006
14775000 0.8981733377874666 -0.5070645224978645
14822500 0.8975195067281614 -0.5086270683987989
14870000 0.8968334967324568 -0.5102424720763509
14917500 0.8962276560220761 -0.511864005054028
14965000 0.8955943458460179 -0.5134512357114109
15012500 0.8949079626079959 -0.515132615180769
15060000 0.8941495409206259 -0.5167271240585258
15107500 0.8934645011973378 -0.5184265198379691
15155000 0.8928872473252224 -0.5200202667528728
15202500 0.8920921396211353 -0.5216739317372941
15250000 0.8914311831787193 -0.5232734497506103
15297500 0.8906928221547308 -0.5248812407675323
15345000 0.8899774417063886 -0.5264393478666827
15392500 0.889257102120451 -0.5280966481120556
15440000 0.8884672793044921 -0.5295931327957981
15487500 0.8878437252313346 -0.531271728632141
15535000 0.887135127368382 -0.5329236645668821
15582500 0.8863260452553503 -0.5345509381229312
15630000 0.8855132298046657 -0.5361682011179899
15677500 0.8848619246714176 -0.5377748631416276
15725000 0.8840212439939861 -0.5393683397771802
15772500 0.8832707592795402 -0.5410556439160737
15820000 0.8824987040101042 -0.54273856142988
15867500 0.8817948542134496 -0.5444333734172235
15915000 0.8810269928615023 -0.5460592931353976
15962500 0.8803303725788537 -0.5477033559546199
16010000 0.8794802401843292 -0.5493390666694926
16057500 0.8787125412277285 -0.5511457274126825
16105000 0.8779697186723284 -0.5527781175666087
16152500 0.8772086743768895 -0.5543970376316689
16200000 0.8764205391145298 -0.5560548067618659
16247500 0.8757763405970311 -0.5576615502677948
16295000 0.8750332583634448 -0.5592830075690115
16342500 0.8742892133993309 -0.5609502155100936
16390000 0.873488619078008 -0.5625568756595565
16437500 0.8727053315555359 -0.5642283756746945
16485000 0.8718572539438192 -0.5658302425467171
16532500 0.8710810540991413 -0.5673402616104737
16580000 0.8702494433779516 -0.5689428749429001
16627500 0.8694589213054124 -0.5706192604476229
16675000 0.868671063641902 -0.5721734953261284
16722500 0.8677631779214071 -0.5737707146771108
16770000 0.8670151568092901 -0.575322582399237
16817500 0.8662282699184953 -0.5769836709791444
16865000 0.8653192395072823 -0.5786650345161409
16912500 0.864510212165665 -0.5802390276207814
16960000 0.8636269083330108 -0.581807724855898
17007500 0.862844806317265 -0.5834829041643511
17055000 0.8620831807077454 -0.585147515250996
17102500 0.8611920814879496 -0.5867914929980614
17150000 0.8603285909795398 -0.5883937038979445
17197500 0.8594947321326598 -0.5900779606566938
17245000 0.8586549639362363 -0.5917117426412156
17292500 0.8577659255751385 -0.5934157569592984
17340000 0.8567913807838972 -0.5950101102366104
17387500 0.8560227364253594 -0.5966363868013675
17435000 0.8552748300618496 -0.5983167668066096
17482500 0.8544116689021922 -0.5999691796486564
17530000 0.8534646855825655 -0.6016061685474657
17577500 0.852604096305556 -0.6032402212533692
17625000 0.8517819970903541 -0.6048757835346522
17672500 0.8509439213000838 -0.6065194351231826
17720000 0.8501166472347098 -0.6081090786506851
17767500 0.8492707133091995 -0.609875862809794
17815000 0.8484985023578423 -0.6114391912216655
17862500 0.8476700427618976 -0.6130375939143354
17910000 0.8468701590145918 -0.6146565123591761
17957500 0.8459291011545587 -0.6163327601463884
18005000 0.8449889490347537 -0.6178625118910107
18052500 0.8440587300971255 -0.6194233084997395
18100000 0.8431372434377238 -0.621010888066848
18147500 0.842265109186368 -0.6226475026420095
18195000 0.8412655746072062 -0.6242546938969571
18242500 0.8402925019870822 -0.6258143572571517
18290000 0.8393168360645807 -0.6273206228655336
18337500 0.8384885877297817 -0.6290174079505253
18385000 0.8374876305562928 -0.6306989204589509
18432500 0.8364972412011179 -0.6323555983768624
18480000 0.8354764214133261 -0.633916511430644
18527500 0.8346888182312957 -0.6355206301239267
18575000 0.8336849394893937 -0.6372508048141331
18622500 0.8327264770211871 -0.6389220537331243
18670000 0.831631465708375 -0.6405168193414522
18717500 0.830773030355033 -0.6420981885049638
18765000 0.8298444616645978 -0.6438282180612592
18812500 0.8288734815719583 -0.6455292628688488
18860000 0.8277822248995635 -0.6471587864411299
18907500 0.8268719250617987 -0.6487567369309577
18955000 0.8260492778297082 -0.6503854222521188
19002500 0.8251786021405815 -0.6520845758559529
19050000 0.8241047014558278 -0.6537221483892475
19097500 0.8230992403959911 -0.6553997041014681
19145000 0.8221604004593804 -0.6569800612470464
19192500 0.8211774838620495 -0.65854490011265
19240000 0.8201933852589682 -0.6601341781906181
19287500 0.8192226382534673 -0.6617759331062707
19335000 0.8181787398046431 -0.6633228260278158
19382500 0.8172342448005689 -0.6647985315487015
19430000 0.8162797033860593 -0.6663684749231973
19477500 0.8152899865380092 -0.6681432684332025
19525000 0.814254465420479 -0.6697048821380613
19572500 0.8132720497462232 -0.6712023462607843
19620000 0.8122361109157109 -0.6726921312507436
19667500 0.8112676687509657 -0.6744008599570794
19715000 0.81008936917751 -0.6761005602557879
19762500 0.8089406779165481 -0.6776730327213114
19810000 0.8078006507122708 -0.6791724221061987
19857500 0.8068423843316488 -0.680848245801786
19905000 0.8058353917130584 -0.682522049086725
19952500 0.8046448622738577 -0.6842067428978912
20000000 0.8035075905865567 -0.6857339065155228
