# HZ S RI R 50
1000000 0.959624916148306 -0.28520437031866314
1047500 0.9561642272348226 -0.2984277279302007
1095000 0.9516658971334139 -0.3112837614875824
1142500 0.9472546643147645 -0.32396370025646376
1190000 0.942783037730997 -0.33654119546088473
1237500 0.9386812549673019 -0.34919700862072833
1285000 0.9343411833988411 -0.36187541768172626
1332500 0.9297127099298391 -0.37445613294057795
1380000 0.9248221521403711 -0.3866935546234946
1427500 0.9196789265937286 -0.3988867455909082
1475000 0.9145189505433536 -0.4113106956098189
1522500 0.9090084632094768 -0.42352228107439255
1570000 0.9032138569236805 -0.43558980238451334
1617500 0.89753820779002 -0.4474511360235694
1665000 0.8918018460762838 -0.4593443578083397
1712500 0.885965813742971 -0.4712375237526744
1760000 0.8797646918288082 -0.48304917284577165
1807500 0.8734135361584929 -0.4946585853241324
1855000 0.8670621033298241 -0.5059596832655895
1902500 0.8606721918193692 -0.5172898910500672
1950000 0.8540470842943897 -0.52861846548848
1997500 0.8473308374846759 -0.5398715925687042
2045000 0.8403009042400521 -0.5506840664228358
2092500 0.8335317334249822 -0.5615342542960214
2140000 0.8266098972743968 -0.5722859197243159
2187500 0.8194142632565209 -0.5831814904809859
2235000 0.811966593122308 -0.5937651434101827
2282500 0.8045522950114341 -0.6039941594491824
2330000 0.7971479496047962 -0.6141437452732996
2377500 0.7897436156974922 -0.6243819182864209
2425000 0.7819013672742763 -0.6345420690276625
2472500 0.7739437534834428 -0.6442602278186017
2520000 0.7659871497248187 -0.6538571300124121
2567500 0.7581631856744618 -0.6634595739469047
2615000 0.7502712280857399 -0.6732116558284877
2662500 0.7417589888755096 -0.6826152340689173
2710000 0.7334417372244184 -0.6916311703679079
2757500 0.7251663220426879 -0.7006795025062438
2805000 0.7168805614126512 -0.7097827294747455
2852500 0.708259802550451 -0.7187074896368183
2900000 0.6994138199695917 -0.727313610693228
2947500 0.6908069306709753 -0.7358166641355327
2995000 0.6822437421156262 -0.7442493250068329
3042500 0.6735014723729581 -0.7526194656183866
3090000 0.6645041975106833 -0.7609552310507056
3137500 0.6553893330777554 -0.7689224081702767
3185000 0.6464929158604755 -0.7767899659014639
3232500 0.6374770362457121 -0.7846294404448392
3280000 0.6283750363206766 -0.7924054947604682
3327500 0.6192213003893395 -0.7999444730918603
3375000 0.6100081571975605 -0.8072165413394086
3422500 0.6008839141333144 -0.814232165258445
3470000 0.5918193722254902 -0.8213905520131716
3517500 0.5824579313287467 -0.8285420979130788
3565000 0.5729932806477537 -0.8354483711095476
3612500 0.5636144410987585 -0.8420286316578351
3660000 0.5542795942616286 -0.8484663138538533
3707500 0.5448554627881146 -0.854939094298631
3755000 0.5353810857240366 -0.8613692194710372
3802500 0.5256986259656868 -0.8674857522871683
3850000 0.5161775074213506 -0.8732140144338943
3897500 0.5067111074527673 -0.8792441687959389
3945000 0.49720641221037487 -0.885079309068417
3992500 0.48746500200167087 -0.8908508011320129
4040000 0.47778976560827235 -0.8962125888689616
4087500 0.46814030165029114 -0.9015088124227661
4135000 0.45861349265865553 -0.9068209605609333
4182500 0.448876323510131 -0.9119892098474977
4230000 0.4390235397730345 -0.9169312086590842
4277500 0.4294400254418633 -0.9216934213061682
4325000 0.4196997465161649 -0.9264378222919482
4372500 0.4100481329642428 -0.9311733070022875
4420000 0.4002487598266813 -0.9357278204310269
4467500 0.39045358196867974 -0.9401710590403185
4515000 0.38076230744014494 -0.9443975746439058
4562500 0.37108939571120203 -0.9483956079719894
4610000 0.36141026347988675 -0.9524774086360955
4657500 0.351689363852626 -0.9565418878431281
4705000 0.3419611457219338 -0.9601718524776695
4752500 0.3323851882104233 -0.9638460888254283
4800000 0.3228279724831832 -0.9673269150186603
4847500 0.3131696491404854 -0.9709415591321822
4895000 0.3035550406304644 -0.9742827941572539
4942500 0.293916658755168 -0.9774841097851269
4990000 0.28430010870771544 -0.9804641780193781
5037500 0.27478824288292125 -0.9835436369959258
5085000 0.2650940144422031 -0.9863918080235173
5132500 0.2554871708603535 -0.9890569969063522
5180000 0.24596055424333077 -0.9915573273296087
5227500 0.23655348492503211 -0.9941119743556275
5275000 0.22710495785387486 -0.9967838096944733
5322500 0.2175663693034802 -0.9991736268395979
5370000 0.20806485452072687 -1.0013668576127999
5417500 0.19864311626176262 -1.0034736045921386
5465000 0.18922399187182548 -1.0055955098884888
5512500 0.17984867725272838 -1.0075375253940482
5560000 0.1704592658214738 -1.0092462113150509
5607500 0.1611651434608045 -1.0110304211101655
5655000 0.15187310088071998 -1.0126424364560023
5702500 0.14274268543714283 -1.014285053129808
5750000 0.1335008387762905 -1.0156161983398317
5797500 0.12425588502608399 -1.0171192423036102
5845000 0.1149977941421131 -1.0184163260702133
5892500 0.10594866695413631 -1.0195054445654936
5940000 0.0967848458049365 -1.020635473994985
5987500 0.08780626634547252 -1.0217029782161897
6035000 0.07889316199152722 -1.0226657284533167
6082500 0.06998772302775834 -1.0235934110485576
6130000 0.06112323056727811 -1.0242433484898898
6177500 0.052224414035504665 -1.025039877564154
6225000 0.043377650208790405 -1.0256663950816485
6272500 0.03450721497854459 -1.0261875646457546
6320000 0.025730838190659442 -1.026553304902812
6367500 0.017032480326007463 -1.0270529643898407
6415000 0.008345338868992249 -1.0273876467528353
6462500 -0.00031784993040754987 -1.0275382337416739
6510000 -0.008881354178749223 -1.0277056488381828
6557500 -0.017373357123399102 -1.0279298201301021
6605000 -0.025773787553965758 -1.0280799569026244
6652500 -0.034167922319550764 -1.0280041239700086
6700000 -0.042530776632138334 -1.0278675829933437
6747500 -0.05097274161799785 -1.0276867549597828
6795000 -0.05930583431226808 -1.0274094262473181
6842500 -0.06748320350991223 -1.0271543276086246
6890000 -0.07581959347208973 -1.0266982543740453
6937500 -0.08399666061064061 -1.0264326408738482
6985000 -0.09209310789380261 -1.0259469815060738
7032500 -0.10015676328667412 -1.0253289782406085
7080000 -0.10813421225576676 -1.0247091558159143
7127500 -0.11611719723715748 -1.0241097474618928
7175000 -0.12402717115821649 -1.0234071409311374
7222500 -0.13184979520415896 -1.0224822059972682
7270000 -0.13964225090281476 -1.0216334978774544
7317500 -0.14744956973480758 -1.0207715442389504
7365000 -0.15529135590179888 -1.0198346387045838
7412500 -0.16293910805282677 -1.0188074567459813
7460000 -0.1705392169993469 -1.0176299120319348
7507500 -0.17811462243586773 -1.0165892503682845
7555000 -0.1857051559980529 -1.015412932629431
7602500 -0.19325457719097835 -1.014201340344193
7650000 -0.2006162140925156 -1.0127365637102521
7697500 -0.20796569349537047 -1.0114991347874664
7745000 -0.21534127436808162 -1.010187090151883
7792500 -0.22270743561544468 -1.0087661564165962
7840000 -0.22994814361650667 -1.0073005635817438
7887500 -0.23714728251098494 -1.0057905752635397
7935000 -0.2442339210731706 -1.0043195172079975
7982500 -0.2513312993359644 -1.002726196874268
8030000 -0.258386432838395 -1.0010173020216457
8077500 -0.26546099984981714 -0.9994035620224972
8125000 -0.2723543811932407 -0.9976404763883261
8172500 -0.2791068662299415 -0.9961397685996314
8220000 -0.2860912580851412 -0.9942399840897943
8267500 -0.2928974582784528 -0.9923321517886936
8315000 -0.29962960638128533 -0.9904075479378287
8362500 -0.30619750590181055 -0.9884970085221357
8410000 -0.3128051858455703 -0.9864987446482146
8457500 -0.31955308210382877 -0.9846611137982471
8505000 -0.3262274649989276 -0.9825754495114509
8552500 -0.3328010785049087 -0.98048047549879
8600000 -0.3391607725544875 -0.9783904764589898
8647500 -0.3456812962736952 -0.976402363670079
8695000 -0.35219605733375303 -0.974319245380944
8742500 -0.3585511562513507 -0.9720202688942183
8790000 -0.3647353430747673 -0.9697678880087398
8837500 -0.37083121921822915 -0.9676354789436372
8885000 -0.3770670004512198 -0.9654946390409387
8932500 -0.38326876443590396 -0.9632281313471256
8980000 -0.38922171442839315 -0.9607988671979367
9027500 -0.39514787455981637 -0.9585241547484554
9075000 -0.40115475077365825 -0.9562419066610233
9122500 -0.40724857181608615 -0.9538329130929913
9170000 -0.41331435118576576 -0.9512036741751682
9217500 -0.4191200298000724 -0.9487211160100957
9265000 -0.42478522468514707 -0.9462973897145549
9312500 -0.4305571273892682 -0.9438771041576027
9360000 -0.43626458505000615 -0.941297261764784
9407500 -0.4420823269997443 -0.9386252253079713
9455000 -0.44753484238694363 -0.9358822278705559
9502500 -0.45307999974478375 -0.9334611209159822
9550000 -0.45867875635676053 -0.9307493518450555
9597500 -0.4643193146603201 -0.9281116129923997
9645000 -0.4695984798684183 -0.9253100183419039
9692500 -0.47488034572182686 -0.9226850968956841
9740000 -0.4802215305159503 -0.9200291816422502
9787500 -0.4857406290036939 -0.91738280373359
9835000 -0.4911718032244928 -0.9145262857591219
9882500 -0.4963631209402496 -0.9117504480346907
9930000 -0.5015402442369912 -0.909005129214173
9977500 -0.5068026860958437 -0.9063848115856216
10025000 -0.5121319318184092 -0.9035506362233326
10072500 -0.5172074468868855 -0.9005528095099826
10120000 -0.522093741612241 -0.8976053988082756
10167500 -0.5270051989900503 -0.8949582628339163
10215000 -0.5319613006230896 -0.8922040795889571
10262500 -0.5369427714375945 -0.8892590179687335
10310000 -0.5416584730904341 -0.8862267675348902
10357500 -0.5464373447284039 -0.8834224695666232
10405000 -0.5512551927000593 -0.8806451239786958
10452500 -0.5561580208463469 -0.877689106053189
10500000 -0.560824717587483 -0.8745726286506
10547500 -0.5653677333965373 -0.8716025657321038
10595000 -0.569844212407584 -0.8687512863335225
10642500 -0.5745785120595333 -0.8658886855347315
10690000 -0.5791341120295488 -0.8627352702802491
10737500 -0.5838109670706407 -0.8595853297524333
10785000 -0.5881827418794272 -0.8566208840873076
10832500 -0.5926436884118158 -0.8536704667029066
10880000 -0.5971405237026618 -0.8506344610298164
10927500 -0.6016968817609578 -0.8475109197479799
10975000 -0.6059076242485004 -0.8443552696693806
11022500 -0.6100467899912486 -0.8413874964012726
11070000 -0.6143424141929752 -0.8383202181270089
11117500 -0.6187168240592139 -0.8352689149014068
11165000 -0.6229982510360454 -0.832042842005223
11212500 -0.6270690897926376 -0.8288617182893981
11260000 -0.6310408850245058 -0.8258631247752358
11307500 -0.6352922134133674 -0.8228049752857342
11355000 -0.6394908069531701 -0.8197326386252921
11402500 -0.6435131100547434 -0.8164797592066309
11450000 -0.6473096532271595 -0.8132893853367126
11497500 -0.6511867148898287 -0.8103978471954325
11545000 -0.6552112587500447 -0.8073838896356408
11592500 -0.6590627347399219 -0.8041302815590453
11640000 -0.6627130978114805 -0.8009162158671552
11687500 -0.6664772883861 -0.7977958398051092
11735000 -0.6702951850185638 -0.7947623772064426
11782500 -0.6741699461303565 -0.7915274978237926
11830000 -0.6778526757570749 -0.7881797735607728
11877500 -0.6813943919119977 -0.7849939455774655
11925000 -0.6849263671519015 -0.7818397143915086
11972500 -0.6885567074856541 -0.7787286324999025
12020000 -0.6922195765973576 -0.7753909138121603
12067500 -0.6956770035356677 -0.7722255346419691
12115000 -0.6991280782114826 -0.7691158716759862
12162500 -0.7026181930028743 -0.7660135855260187
12210000 -0.7061592895817115 -0.7628068587469834
12257500 -0.7096914600804622 -0.7594871856684526
12305000 -0.7129238061490973 -0.7561744260795811
12352500 -0.7161848641913768 -0.7529614193686609
12400000 -0.7195460549561257 -0.749717453927736
12447500 -0.7230233984497623 -0.7465116016173532
12495000 -0.7263449495509876 -0.7431945440139075
12542500 -0.7295267049995969 -0.7400195265554869
12590000 -0.7328186419183459 -0.7368078251331993
12637500 -0.7360828646222991 -0.7337226503590994
12685000 -0.7392811314147628 -0.7304802140821597
12732500 -0.7422371933592488 -0.7271945193405038
12780000 -0.7452283722072534 -0.7240651000654497
12827500 -0.7484450543201925 -0.7209727569441061
12875000 -0.7515803411776141 -0.7177763368526804
12922500 -0.7546310251141705 -0.7146141494097602
12970000 -0.7574371136338095 -0.7113896952791738
13017500 -0.7604520343041352 -0.7083124683396747
13065000 -0.7635091615552229 -0.7051368688739403
13112500 -0.7663950441996736 -0.7017878236597049
13160000 -0.7690556033226841 -0.6985215295053273
13207500 -0.771901263040659 -0.6953130018955243
13255000 -0.7746687950231294 -0.6922584613113554
13302500 -0.77763913097656 -0.6889600472463991
13350000 -0.7802921274270138 -0.6856279692120745
13397500 -0.7829818565735617 -0.6824782010776348
13445000 -0.7856986367642824 -0.6792676778854377
13492500 -0.7884733288435678 -0.67613054393256
13540000 -0.7911489677087482 -0.6728119498782722
13587500 -0.7937871808100804 -0.6695286630969937
13635000 -0.7964333434377624 -0.6663398682740783
13682500 -0.7989516648273652 -0.6631497682504615
13730000 -0.8016219795362612 -0.6599784615346355
13777500 -0.8042303466369471 -0.656711192496809
13825000 -0.8067651125077818 -0.6535799879742473
13872500 -0.8092630355127787 -0.6504402559067058
13920000 -0.8118156855306724 -0.647239743421099
13967500 -0.8143905443136875 -0.6439698298309608
14015000 -0.8169081272587545 -0.6408255631042309
14062500 -0.8192610570446968 -0.637572462225634
14110000 -0.8216086042054058 -0.6344590441602613
14157500 -0.8241965003684546 -0.6313153139720833
14205000 -0.8264591965619013 -0.6281710825600274
14252500 -0.8286187381913296 -0.6251217805127475
14300000 -0.8308100165025423 -0.6220267491029849
14347500 -0.8333647382596396 -0.618843191649761
14395000 -0.8355764124925799 -0.6157388336000145
14442500 -0.8377417676975055 -0.6125581387365412
14490000 -0.8397795004138514 -0.6093980936770839
14537500 -0.8420739504899757 -0.6062527685060717
14585000 -0.8443318657742862 -0.603141172391207
14632500 -0.8463892972908569 -0.5999220360983253
14680000 -0.8483483626534317 -0.5967773023531475
14727500 -0.8504320604019007 -0.5936271663104533
14775000 -0.8527077106358596 -0.5904894019529192
14822500 -0.8547760523336633 -0.5873271927531232
14870000 -0.8566939459832539 -0.584091523930262
14917500 -0.858769049337121 -0.5809124964547653
14965000 -0.8608231591625152 -0.5779231663048895
15012500 -0.8628652255858196 -0.5748090437298404
15060000 -0.8648443800342978 -0.5715342597022386
15107500 -0.8669187372030278 -0.568353396748493
15155000 -0.8688240597739465 -0.5652910586362319
15202500 -0.8707932597148446 -0.5621674119734604
15250000 -0.872797976272497 -0.5590285664639106
15297500 -0.8747687980425963 -0.5558543500443082
15345000 -0.8766972563448666 -0.5528527469321789
15392500 -0.8784902199974914 -0.5498284283388248
15440000 -0.8803216875052724 -0.5466462965277995
15487500 -0.8821993454899986 -0.5436545713005306
15535000 -0.8839674581371645 -0.5406655451266718
15582500 -0.8856793881358114 -0.5375664424313756
15630000 -0.8874038534394578 -0.5345526758442569
15677500 -0.8892220722044696 -0.5314659670373679
15725000 -0.890963022246482 -0.5284772647210664
15772500 -0.8926142702096211 -0.5254319495557713
15820000 -0.8942178276571936 -0.5222914156289036
15867500 -0.895898969595212 -0.5193169015035328
15915000 -0.8976259427165958 -0.5162947414149552
15962500 -0.8991602362885805 -0.5131687626759062
16010000 -0.9006676757958074 -0.51019098426478
16057500 -0.9023173514034812 -0.5072003155231423
16105000 -0.9040653887792129 -0.5041660621854622
16152500 -0.9055312451882583 -0.5010103074360934
16200000 -0.9070554415386969 -0.4979691950345895
16247500 -0.9087074578146646 -0.49485514797555713
16295000 -0.9101046774353392 -0.49182080133725187
16342500 -0.9116084843659474 -0.4887240609963172
16390000 -0.9129248976672505 -0.4857087464917796
16437500 -0.9145172695161599 -0.48267543145548214
16485000 -0.9160169590429289 -0.4797028159312354
16532500 -0.9174496225134043 -0.4766619305233426
16580000 -0.9188926355500447 -0.4735933235014562
16627500 -0.9203809402818766 -0.4706195418316443
16675000 -0.9218127837209827 -0.4676002888229343
16722500 -0.9231795994709429 -0.46469805222835187
16770000 -0.9244783997820262 -0.4615965940531613
16817500 -0.9259738008911358 -0.4586575222225928
16865000 -0.9273814918170712 -0.45571207332082425
16912500 -0.9287273679413808 -0.45286313586035276
16960000 -0.9300576637738 -0.4498176722248565
17007500 -0.9313711671836246 -0.4469275099724537
17055000 -0.9326188784442039 -0.44399132467031455
17102500 -0.9338966110891845 -0.4410761670707309
17150000 -0.9352393483300555 -0.4381583531230891
17197500 -0.9364192416782283 -0.435266430290379
17245000 -0.9375901371996997 -0.43239012325764287
17292500 -0.9386542454738411 -0.4295348090871446
17340000 -0.9398305714713965 -0.42663725113610634
17387500 -0.9410466832819699 -0.4236716608888378
17435000 -0.9422569380580457 -0.4208035391899616
17482500 -0.9434146656286372 -0.4178697975174456
17530000 -0.9443885339107158 -0.41495208876467554
17577500 -0.945599165369404 -0.41209370385187793
17625000 -0.9467970080716269 -0.4090281110359223
17672500 -0.9477335365470856 -0.40608282734918894
17720000 -0.9487055857222558 -0.4032184031205582
17767500 -0.9499876998580267 -0.4003983195946247
17815000 -0.9512589440830287 -0.39738928338820567
17862500 -0.9522992162193653 -0.39441312900209957
17910000 -0.9533088164468915 -0.39152175229253994
17957500 -0.9545097427165693 -0.38880048045531557
18005000 -0.9555553525337865 -0.3859456109203043
18052500 -0.9565120392485287 -0.383012512178577
18100000 -0.9572621765327275 -0.3801458488874465
18147500 -0.9582643989161452 -0.3774334974999821
18195000 -0.9592828481507288 -0.3745787994091062
18242500 -0.960177854965838 -0.3716534633514535
18290000 -0.9609589861531785 -0.3687282367580397
18337500 -0.9619111010561652 -0.3659185889181339
18385000 -0.9628269277955205 -0.36311515107866466
18432500 -0.9637242786705412 -0.3602221467485818
18480000 -0.9645813043795985 -0.35726186246284036
18527500 -0.9654326571211485 -0.3543044171900426
18575000 -0.9662188045609925 -0.35154554639531693
18622500 -0.9670262281873313 -0.3487516617157885
18670000 -0.9678003893508045 -0.3459480354810534
18717500 -0.9687955831976665 -0.34291575787829326
18765000 -0.9696055996880854 -0.34003730080838884
18812500 -0.9704198563912056 -0.3372946329347721
18860000 -0.971113482909717 -0.33449081935407826
18907500 -0.9721344383046436 -0.3315464596262691
18955000 -0.9729505381714394 -0.32869534779372367
19002500 -0.9736334128230844 -0.3258857515819012
19050000 -0.9743255946916215 -0.3232057286759731
19097500 -0.9752288577229667 -0.32045747009677755
19145000 -0.9759957125679514 -0.31757012194585726
19192500 -0.976608796166577 -0.314771557018709
19240000 -0.9772081658385409 -0.3121311064252623
19287500 -0.9780228920458934 -0.30946615901668484
19335000 -0.9787893775731775 -0.3067058488245632
19382500 -0.9793297248725832 -0.3038347334397325
19430000 -0.9797411123741137 -0.3011280978589044
19477500 -0.9804482363463619 -0.29852435526341325
19525000 -0.9812024227224828 -0.29583892630539976
19572500 -0.9818049440835326 -0.29301821039416487
19620000 -0.9822415275887743 -0.2901300491361347
19667500 -0.982781789765083 -0.28745170405377507
19715000 -0.9834226417271726 -0.2847124749530441
19762500 -0.984122522496846 -0.28194609980127994
19810000 -0.9844487655079404 -0.27901466304204775
19857500 -0.9850277715325794 -0.276184131645485
19905000 -0.9855140195818998 -0.27364634138591315
19952500 -0.9859784053667691 -0.2709265565281122
20000000 -0.9864630582608884 -0.2681013177076463
