# HZ S RI R 50
1000000 1.0021506338790547 -0.01506891153139932
1047500 1.002400655568369 -0.015401701562855578
1095000 1.001905851920963 -0.016433741520794402
1142500 1.0016598128518694 -0.01726001352942537
1190000 1.0013973282284148 -0.01784629363709076
1237500 1.0017716705138553 -0.01836056851403326
1285000 1.0019841301160326 -0.019027531495703055
1332500 1.0019556618783148 -0.019379278104599898
1380000 1.002203494230676 -0.01985900207306501
1427500 1.0021661175033407 -0.020729006032705173
1475000 1.00188183441662 -0.021380198568147768
1522500 1.0019742792828894 -0.021972358641547493
1570000 1.00185209934767 -0.022922111407515953
1617500 1.001760419409926 -0.02351473188073698
1665000 1.0019047566831547 -0.024136199014706032
1712500 1.0018795807110612 -0.024984140542573096
1760000 1.001711133281607 -0.0255764219336234
1807500 1.0019763357918035 -0.02624138433487243
1855000 1.0019456407860536 -0.027102615199369046
1902500 1.0018098004440004 -0.027725723164329006
1950000 1.0019245026253678 -0.02829169401740258
1997500 1.0020041596340743 -0.02911405739102613
2045000 1.0018662720463376 -0.029729421423475934
2092500 1.0020197553538222 -0.030306281955664108
2140000 1.0019966262425364 -0.03115660681415563
2187500 1.0019104295909855 -0.031693894164210666
2235000 1.0020315541314204 -0.03221239608527586
2282500 1.0020689153378355 -0.03301254706131775
2330000 1.0018446378890493 -0.03355040559932406
2377500 1.0021025503546228 -0.03409922872325668
2425000 1.0021169345332204 -0.03490794411520154
2472500 1.001841657536064 -0.035440185394200324
2520000 1.001994263361063 -0.03600534388941629
2567500 1.001950768190531 -0.03687301673048998
2615000 1.0018090969619053 -0.037397767399744423
2662500 1.001862093457412 -0.03793487087449832
2710000 1.0017559502937154 -0.03879891225764529
2757500 1.0016499529854508 -0.03932551543592831
2805000 1.001761926747817 -0.04002304072897377
2852500 1.0017750585394776 -0.04090609247865176
2900000 1.00153177863447 -0.04149161802050474
2947500 1.0017445655990458 -0.042111284613019474
2995000 1.0017286109690269 -0.04298741969503441
3042500 1.0015100382936384 -0.043583402803676015
3090000 1.0016156678097068 -0.0441554582781636
3137500 1.0016663555997625 -0.04507316101738589
3185000 1.0015842609900403 -0.04568485075409586
3232500 1.0016931457653189 -0.04627006724141374
3280000 1.001640680141061 -0.04711471930659209
3327500 1.0015820083736628 -0.047639702755824166
3375000 1.0018316911701475 -0.048319540647161645
3422500 1.001776191213143 -0.04912483179485868
3470000 1.0015630263972586 -0.049627612507439446
3517500 1.0018519919239253 -0.05026256872762937
3565000 1.0017987645946327 -0.0511339538734334
3612500 1.0016113465605099 -0.05164499476131024
3660000 1.0017923997409575 -0.05214013095880968
3707500 1.0017485475911834 -0.05297064375293687
3755000 1.0015768131058247 -0.05352325313934006
3802500 1.0017486083311729 -0.0540425920870941
3850000 1.0016663057885464 -0.05498722865469496
3897500 1.0015564041933191 -0.055480684782878834
3945000 1.0016815854319958 -0.05602343246296236
3992500 1.0015987379211142 -0.056967191058663824
4040000 1.0012881588265028 -0.05738642272926578
4087500 1.001629075994862 -0.058080486188291994
4135000 1.0013123095535443 -0.05902848393343833
4182500 1.0012812869955836 -0.05946436194077423
4230000 1.0013978871632978 -0.06012427478660326
4277500 1.0013203167592253 -0.060942313127856466
4325000 1.0012982105393629 -0.061487565323638395
4372500 1.00150113931607 -0.062165478356129164
4420000 1.0013322521766697 -0.06307529086312746
4467500 1.0012484367557377 -0.06364237050171839
4515000 1.001474145559215 -0.06429872676866763
4562500 1.0014295234079837 -0.06515258750174978
4610000 1.0012822939917163 -0.06562849999862565
4657500 1.0015088127155418 -0.0662752331280072
4705000 1.0014284666343574 -0.06714612209156035
4752500 1.001282639501939 -0.06760447781301421
4800000 1.001465108462808 -0.0682844019710093
4847500 1.001418211854064 -0.06915515931498316
4895000 1.0013062267441364 -0.0695228492034483
4942500 1.0015058510049408 -0.07017310057760172
4990000 1.0014811540288378 -0.07093552369375568
5037500 1.0012777157224912 -0.07143269081510914
5085000 1.0014547760729715 -0.0721244446573097
5132500 1.0012279158680688 -0.07302685681048274
5180000 1.0010684105810377 -0.07343744513815749
5227500 1.00140467476413 -0.07408370736574624
5275000 1.0011495809564894 -0.07498429885547261
5322500 1.0011182136682222 -0.075499851178146
5370000 1.001242557775311 -0.0761418640931023
5417500 1.0010178768662432 -0.07696598863396763
5465000 1.0009971952501826 -0.07739709036159888
5512500 1.0011491655745413 -0.07814230621065298
5560000 1.0008918967598863 -0.07907909522346257
5607500 1.000823796532082 -0.07952251107620084
5655000 1.0010997330696503 -0.08025081532803154
5702500 1.0008192424870268 -0.08118574084342645
5750000 1.0006410636934813 -0.0816464951191657
5797500 1.000950551153841 -0.08245197755440192
5845000 1.0008385195965828 -0.08320257605394767
5892500 1.0006315635802892 -0.08367826447781875
5940000 1.0009018061697892 -0.08439355317478693
5987500 1.000808535778566 -0.08523800862463599
6035000 1.0008131386961605 -0.08570875657001946
6082500 1.0010276499956519 -0.08642747616817333
6130000 1.0007894020118069 -0.08723544961630834
6177500 1.0008447219989995 -0.08762768596072236
6225000 1.0010144044255938 -0.08837676081853699
6272500 1.0008798878624658 -0.08912073589299589
6320000 1.0008205738363432 -0.08958973501951517
6367500 1.0009580241538982 -0.09035017419139842
6415000 1.0008417716646574 -0.09117027595571227
6462500 1.0007721578971875 -0.09153387986697663
6510000 1.0009051796234305 -0.09230787086171373
6557500 1.000721143034013 -0.09300128346212658
6605000 1.0007233508814775 -0.09344784995965927
6652500 1.0009075849356588 -0.09421857725039884
6700000 1.0005439553729545 -0.0949727230559001
6747500 1.0005346058135447 -0.09542055471139782
6795000 1.0007226155302713 -0.09626062237023271
6842500 1.0004266919292832 -0.09707531216829628
6890000 1.000347996055792 -0.09743035271257237
6937500 1.0005477789589508 -0.09830037481973285
6985000 1.0003763808834243 -0.09912639708134362
7032500 1.0002617219969547 -0.09967616896695945
7080000 1.0004301810995264 -0.1004053512161758
7127500 1.0002090048375711 -0.10112233094621213
7175000 1.0003106160822592 -0.10160771427396625
7222500 1.0004377980588988 -0.10254244175080789
7270000 1.0001875076461746 -0.10330138828415188
7317500 1.000262436609586 -0.10378217895021005
7365000 1.000438507413512 -0.10458517354506867
7412500 1.0002163116388736 -0.10525763294961299
7460000 1.0002199631190025 -0.105807176892969
7507500 1.0004051734014834 -0.10661948515766007
7555000 1.0003214346007796 -0.1073435700157442
7602500 1.0002330467365192 -0.107799131214416
7650000 1.000376919276754 -0.10859871143126776
7697500 1.00030043152588 -0.10933212210590418
7745000 1.000247244167184 -0.10969800746147029
7792500 1.0003879056181753 -0.11052370233034106
7840000 1.000093259337782 -0.1111783513038715
7887500 1.0001340050064043 -0.11162234749629789
7935000 1.0002547120387146 -0.11249525167760496
7982500 0.9999844566160049 -0.1130761796519459
8030000 0.9999224942460254 -0.11356858204548535
8077500 1.000107716771692 -0.11437553545179313
8125000 0.9998829905948742 -0.11520288234166523
8172500 1.0002342783973137 -0.11574998891026711
8220000 0.9998196295148596 -0.11653672019237912
8267500 0.9996642428998066 -0.11717531895988363
8315000 0.9997553676324721 -0.11764388462117278
8362500 0.999750899677107 -0.11849173579050123
8410000 0.9993413980132341 -0.11918436911030715
8457500 0.9995643725794355 -0.11971357514826766
8505000 0.9996573586645474 -0.12065414592310922
8552500 0.9993197948300359 -0.12135471983909214
8600000 0.9995081118240414 -0.1218401034912694
8647500 0.9995526839871739 -0.12271041379668979
8695000 0.9994106794436948 -0.12342596294985882
8742500 0.9995534681880697 -0.12388827455000845
8790000 0.9995246267130975 -0.1248321528280165
8837500 0.9994396160961957 -0.1255010009809381
8885000 0.9995292930969837 -0.12595274300117934
8932500 0.9996860433045758 -0.12681019155901532
8980000 0.9995027360194846 -0.12737187466277305
9027500 0.999586538168411 -0.1278030031116948
9075000 0.9996886194586094 -0.12873671681743803
9122500 0.9995082861052733 -0.12934827868040308
9170000 0.999450568048786 -0.1299592309444347
9217500 0.999632679053391 -0.1307332582589577
9265000 0.9993858192423852 -0.13142446742416536
9312500 0.9995045678274086 -0.1318665197793515
9360000 0.9994738679895504 -0.1326771251043818
9407500 0.9993208352908599 -0.13343991585628395
9455000 0.9993485728710219 -0.13394977411258227
9502500 0.9993941139321865 -0.13479241137271128
9550000 0.9991302404388361 -0.13550097268770295
9597500 0.9990790479728993 -0.13590098092088287
9645000 0.9988863764441887 -0.13693209950139895
9692500 0.9985324809885964 -0.13733628899545952
9740000 0.9984011168774078 -0.1376223204511151
9787500 0.9985399231426165 -0.1384338771958185
9835000 0.9984344246606301 -0.13913466537641503
9882500 0.9985484654720269 -0.13966595572070076
9930000 0.9985483997421394 -0.1405827509521717
9977500 0.9985011355574599 -0.14132426698470488
10025000 0.9986597603287609 -0.141915877827321
10072500 0.9985634123256174 -0.1428212073449171
10120000 0.9983839737299026 -0.1434996389471871
10167500 0.9985967629061012 -0.1440169575336867
10215000 0.998710128802674 -0.14486894489026286
10262500 0.998550536966666 -0.14552436743983008
10310000 0.998487151954828 -0.14616438796682882
10357500 0.9986151397029566 -0.1468745964970762
10405000 0.9985395999357042 -0.14757692795047062
10452500 0.9985966754604091 -0.14808796525952125
10500000 0.9986169074737221 -0.14896885078465502
10547500 0.998392085705008 -0.14949088082388184
10595000 0.9984166028824514 -0.15000633694374702
10642500 0.9984521948603241 -0.15084098640484475
10690000 0.9980910867382325 -0.15139635046725694
10737500 0.9981901360419939 -0.1520506926230009
10785000 0.9983130704401154 -0.15282415627749266
10832500 0.9980971456253291 -0.15357583934252175
10880000 0.9981036891240577 -0.15410219571002853
10927500 0.9981087901791018 -0.15496456244457443
10975000 0.9979779339102202 -0.15547464456920032
11022500 0.9979583717371561 -0.15600654582937448
11070000 0.9978909358319228 -0.15689142131680592
11117500 0.9978190602995808 -0.15759685264573473
11165000 0.9977690618177459 -0.15814718785680493
11212500 0.9977182882419918 -0.15898632251650602
11260000 0.9973780755980514 -0.15960493692630082
11307500 0.997509748791487 -0.16016099230950534
11355000 0.9975247052954723 -0.16108968162195936
11402500 0.9973175081938017 -0.1617637940598915
11450000 0.9972740656575892 -0.16227586584232845
11497500 0.9973723198472427 -0.1632161783900286
11545000 0.9971489909391656 -0.16370744286034217
11592500 0.9972638770721702 -0.16425735963816473
11640000 0.9971983031260674 -0.1651909890933256
11687500 0.9971465052500889 -0.16588480883880988
11735000 0.9972194817680805 -0.1664223311479151
11782500 0.9971509986608847 -0.16727171705505853
11830000 0.9969514340563511 -0.16795359089574657
11877500 0.9971193829658569 -0.16842811613331812
11925000 0.9971980783588696 -0.1693252337756132
11972500 0.9969584187117061 -0.16988644389885602
12020000 0.9969129381746885 -0.17044291437016676
12067500 0.996876558694074 -0.17123455401686008
12115000 0.996702934339566 -0.17176972291589582
12162500 0.9967283691982518 -0.1724069027795451
12210000 0.9967532564081386 -0.17320747428122463
12257500 0.9965978170522234 -0.17383856337692866
12305000 0.996637376271279 -0.1744325539851346
12352500 0.9966102649466366 -0.17517900241231837
12400000 0.9962309231175833 -0.17575535214659138
12447500 0.9963357314601535 -0.17639805137396367
12495000 0.9964083178769447 -0.1772422943287609
12542500 0.996198244601297 -0.1779225081678499
12590000 0.9961856699783005 -0.178472270171323
12637500 0.9962240976655448 -0.17933233278145178
12685000 0.995911474337206 -0.17994491068940124
12732500 0.9959023622360103 -0.18046538299137868
12780000 0.9958315667584324 -0.1813462090402207
12827500 0.9957385704528676 -0.1820880731830491
12875000 0.9957946555561767 -0.18266670547772784
12922500 0.9958149286656952 -0.18357453747183386
12970000 0.9955102923105454 -0.18416278524528476
13017500 0.9955908415106853 -0.1848008288077792
13065000 0.9957632854041137 -0.18568064451552868
13112500 0.9954949845202465 -0.18643055801731714
13160000 0.9954643811827212 -0.1869796644989738
13207500 0.9956411647288549 -0.18786443894934896
13255000 0.9955636132153569 -0.1885665310944732
13302500 0.9956150243938027 -0.18914738083024846
13350000 0.9955193193287138 -0.18987126413965946
13397500 0.995479564173691 -0.19064491704786152
13445000 0.9953413639800961 -0.19129774984597125
13492500 0.9954066511563862 -0.19209337024740092
13540000 0.9951796796128525 -0.19274888185455838
13587500 0.9952608121565175 -0.19328881993310593
13635000 0.9952678234349355 -0.19407093450271215
13682500 0.9951665661023373 -0.19478429058500613
13730000 0.9950911232267814 -0.1953131937327301
13777500 0.9951100620170715 -0.19616213523521253
13825000 0.9950379927862534 -0.1968167410848777
13872500 0.9949328502760239 -0.19733247826326974
13920000 0.9949882940167114 -0.19803996457624634
13967500 0.9948271649515034 -0.19882389604021544
14015000 0.9947972544239901 -0.19942858905412053
14062500 0.9947368947903336 -0.2002328962895246
14110000 0.9945754696962159 -0.20095195271025773
14157500 0.9944373323332699 -0.20149426131026127
14205000 0.994489596202115 -0.20232744402491024
14252500 0.9942825865268071 -0.20311823382076818
14300000 0.994125404021723 -0.2037804844698341
14347500 0.9941765788653479 -0.2045060814492977
14395000 0.9938776700045364 -0.20534295791189033
14442500 0.9937648202305204 -0.20595877800379073
14490000 0.9937532347841767 -0.20669870141636454
14537500 0.9938007427188899 -0.20750100169743946
14585000 0.9937848109128178 -0.2079829930690024
14632500 0.9939248633011436 -0.20879424472136376
14680000 0.9936657119428663 -0.20947545343876592
14727500 0.993815743951675 -0.21005897524827233
14775000 0.9939012952635612 -0.21074361274042575
14822500 0.9937036308102715 -0.21152892412330415
14870000 0.9936975624405016 -0.2120797900202388
14917500 0.9937389114117219 -0.21287904343147124
14965000 0.9935811368986572 -0.21357501674382406
15012500 0.99347929733134 -0.21413600566529073
15060000 0.9935775752726653 -0.214862520234308
15107500 0.9934368380423159 -0.21568638837004003
15155000 0.9933554490721782 -0.21620022718436555
15202500 0.9933246610056703 -0.21688853500222158
15250000 0.9932138649171911 -0.21773690133289023
15297500 0.9931020961331511 -0.21821306111405112
15345000 0.9931299333129974 -0.2188873817639909
15392500 0.9929621732115962 -0.21966241059941372
15440000 0.9926826594400707 -0.22037314129522081
15487500 0.9927220437474162 -0.22101171616336035
15535000 0.9926870424504214 -0.22174496683298384
15582500 0.9924237213739151 -0.22233791464901717
15630000 0.9924078949260164 -0.2229553873666041
15677500 0.9924189513573974 -0.223770700912452
15725000 0.9923260589564862 -0.2244708892870189
15772500 0.9921589617730998 -0.2251388190328871
15820000 0.9921040401435243 -0.2259621460048352
15867500 0.9919360545819043 -0.22662397669076473
15915000 0.9920213697805546 -0.2272531526872196
15962500 0.9920301347668565 -0.22803722559867248
16010000 0.9917472296021257 -0.22873592163161965
16057500 0.9917453961037799 -0.22945155540031845
16105000 0.9918573663730684 -0.23023684684044504
16152500 0.9917415992213245 -0.23089653094578153
16200000 0.9915818267333711 -0.23147475101271775
16247500 0.9916488258512758 -0.2322734142716974
16295000 0.9916208785422773 -0.23289122642859142
16342500 0.991510728545697 -0.23352702408883483
16390000 0.9914955726701932 -0.23418257931605158
16437500 0.9913987811663881 -0.23486149279893967
16485000 0.9913348455672559 -0.23542940677227936
16532500 0.9912178724728401 -0.23620369046678488
16580000 0.9911061258974365 -0.23689952425031133
16627500 0.9910659243955909 -0.2374835464965892
16675000 0.9910471383858978 -0.23816781248943714
16722500 0.9908580486960208 -0.2388367909059988
16770000 0.9907388958026561 -0.23934918059800733
16817500 0.9907413015387173 -0.2400469766778976
16865000 0.9906764607411699 -0.24092626688898924
16912500 0.9904685057550096 -0.2414467691742059
16960000 0.9903609547122763 -0.24215254175642997
17007500 0.9903897354659824 -0.2429322583450614
17055000 0.990243245171977 -0.24355737967975427
17102500 0.9902755120402833 -0.24420478434197296
17150000 0.9900718396171891 -0.24499914181664947
17197500 0.9901179947061532 -0.2457083120242175
17245000 0.990094630338618 -0.24639056943048668
17292500 0.9899661661802422 -0.24707889474248876
17340000 0.9897958732360899 -0.24773259314869334
17387500 0.9898303946949888 -0.24846767345927406
17435000 0.9898827772988648 -0.24923422501724055
17482500 0.9896777990256476 -0.24989181572735822
17530000 0.9896179232876509 -0.25054023286565325
17577500 0.9897030135777466 -0.25145890335923937
17625000 0.9896672422132453 -0.2520955985083681
17672500 0.9895957809735542 -0.25267613833763125
17720000 0.9896406159843656 -0.2533728988776598
17767500 0.9896098713891726 -0.25416617093108135
17815000 0.9896283872541879 -0.25482150749392785
17862500 0.9896161673122602 -0.2554822479542026
17910000 0.9895120998885136 -0.25614767048247566
17957500 0.989406205312396 -0.2568056497321714
18005000 0.9893449051136437 -0.2574356517862354
18052500 0.9892664188572038 -0.2582533939775186
18100000 0.9891111158150114 -0.25885445985372973
18147500 0.9890556332261591 -0.2595842597414953
18195000 0.9890301390784075 -0.26035292340441724
18242500 0.9888526415631365 -0.26097093779093095
18290000 0.9887410791835 -0.2615623213078426
18337500 0.9887045875185174 -0.2623674735832703
18385000 0.9886141073485349 -0.2631391818048211
18432500 0.988600442851758 -0.26379901633028713
18480000 0.9884805973158911 -0.2646075420259685
18527500 0.9883044654720121 -0.26540876582943784
18575000 0.9883292958718437 -0.26604696882492723
18622500 0.9883063416147805 -0.2668150731897759
18670000 0.9881987419481103 -0.26759928488438045
18717500 0.9881555488281561 -0.2682589234726244
18765000 0.988193891422409 -0.26907730334029706
18812500 0.9879695256415354 -0.26983412663836903
18860000 0.9878904076653261 -0.2704727101584806
18907500 0.9880086622202117 -0.27129960004194026
18955000 0.9879777357440402 -0.27200654482697084
19002500 0.9879223187467375 -0.27272735053364994
19050000 0.9878919606757861 -0.27344752746915185
19097500 0.9878336700047018 -0.2742537123737301
19145000 0.9877813908100475 -0.2749273766703094
19192500 0.9876915335971846 -0.2755562514978433
19240000 0.9876829765199023 -0.2762885423018588
19287500 0.9875879406851164 -0.27704580121568184
19335000 0.9875886450751684 -0.27766739348304237
19382500 0.9875045681093123 -0.2783685303611483
19430000 0.9872989401297143 -0.279112862764318
19477500 0.987263140310039 -0.27975406775425943
19525000 0.9873253891968752 -0.2804020109556968
19572500 0.9872208014149751 -0.2811050919496372
19620000 0.9870718954335351 -0.28173406547583035
19667500 0.987109007679392 -0.28252204842788486
19715000 0.9869712752206632 -0.2833417841962127
19762500 0.986798955531001 -0.2840466831189393
19810000 0.9866820352195356 -0.28463995386423224
19857500 0.9866862903940444 -0.28553065922906595
19905000 0.9865549205342679 -0.28630953696279715
19952500 0.9865736211588708 -0.28695614183332285
20000000 0.9864807602990634 -0.28777178704937045
