# HZ S RI R 50
1000000 1.0010248377225697 -0.0027863929109294408
1047500 1.0012022927402537 -0.0029620354117288437
1095000 1.0009320365069951 -0.0032502814668796598
1142500 1.0007590142141138 -0.0035081828511590854
1190000 1.0004352224220956 -0.0035929808590921303
1237500 1.0008953485562846 -0.0034676778089376757
1285000 1.0011562461960672 -0.0035774553105967885
1332500 1.0011391704874109 -0.003646332634578916
1380000 1.0011214635432417 -0.0035019115302113357
1427500 1.001168133807712 -0.0035654180760641514
1475000 1.0012200807348208 -0.003815524482507898
1522500 1.001127073525883 -0.004094286056346295
1570000 1.0009402575679711 -0.004255214196521761
1617500 1.0010057303484972 -0.0042678351910880085
1665000 1.0012271618808681 -0.004490731843075676
1712500 1.0011036381957967 -0.004811459566940427
1760000 1.000990793235799 -0.004938340502030855
1807500 1.001075279785161 -0.004928283000491772
1855000 1.0012101970652778 -0.005150632854078197
1902500 1.0011833124360587 -0.00542404534187981
1950000 1.0010756976619812 -0.005471642400360598
1997500 1.0012661723624516 -0.005531774206030262
2045000 1.0013790973365417 -0.0056459697696045865
2092500 1.0013971185792192 -0.005968661686024313
2140000 1.001273730167408 -0.0061337565349716345
2187500 1.0012763980350796 -0.006033838176413122
2235000 1.0014483315074465 -0.0060835043241153275
2282500 1.0015687148752368 -0.006309192388859705
2330000 1.0013849098329346 -0.006386353704958006
2377500 1.0013660217155678 -0.006354743191349678
2425000 1.0015741699972953 -0.00643572211379726
2472500 1.001558611998376 -0.006651606887168431
2520000 1.0014076608758848 -0.006796538717290043
2567500 1.0012423631264047 -0.006853223476072293
2615000 1.0013827159607873 -0.006818535070806549
2662500 1.0013793033320535 -0.00701477878339165
2710000 1.0012234535193394 -0.007202460569957907
2757500 1.0011523208283206 -0.0073067413752239034
2805000 1.001284013263221 -0.0073517652801986235
2852500 1.0014140085479497 -0.007648149427439486
2900000 1.001249448043185 -0.00783523153948569
2947500 1.0011767053685183 -0.008002490164208767
2995000 1.0012084120296745 -0.008051385867747077
3042500 1.0013118947349589 -0.008112999780372497
3090000 1.0012721710587151 -0.008496108004881195
3137500 1.001220639948479 -0.008664496657350172
3185000 1.001255419512594 -0.00858549029363756
3232500 1.0014152959882878 -0.008830876397057525
3280000 1.0015536160132248 -0.00904246175544588
3327500 1.0014147819641424 -0.009293619791878538
3375000 1.0013563243653794 -0.00917203015276032
3422500 1.0014533957956135 -0.009223648294396185
3470000 1.0015907546273457 -0.009504119257109775
3517500 1.0015736967862956 -0.009620349910006884
3565000 1.0014870590534737 -0.00963464454944488
3612500 1.0015658568849164 -0.00964469426467775
3660000 1.0016449510777345 -0.009847098126962248
3707500 1.0016137619606242 -0.010058430378950337
3755000 1.0014530578111835 -0.010073907575702833
3802500 1.0015584401631268 -0.01003795060749766
3850000 1.0015300550810635 -0.010220928388566544
3897500 1.0015658041696531 -0.010438897813613748
3945000 1.0014946173271413 -0.010430116188370968
3992500 1.001445706621799 -0.010438914199227814
4040000 1.0014999037168637 -0.01058905865514045
4087500 1.001639451115565 -0.010928716035208185
4135000 1.001449137553431 -0.011148055436766861
4182500 1.0014021247971407 -0.011151263296572978
4230000 1.0014682915569382 -0.011198141953413078
4277500 1.0015717948273686 -0.01152106517717179
4325000 1.0015324575333238 -0.011708393678132324
4372500 1.0013776337521108 -0.011752346189355606
4420000 1.0014927447402324 -0.011788077748690012
4467500 1.001683952365717 -0.012045564128068396
4515000 1.0016669648950307 -0.012311818133132726
4562500 1.0016385298044916 -0.012408208061209468
4610000 1.0015041287471262 -0.012343216625910156
4657500 1.00179919648591 -0.012500729343325506
4705000 1.0017857847314742 -0.012760280925297516
4752500 1.0016449969126768 -0.012939982407031243
4800000 1.0016433135721698 -0.012867807182815416
4847500 1.0017998508959516 -0.012922997877144364
4895000 1.0019785446274574 -0.013166323207277486
4942500 1.0018903110600874 -0.013251887153829429
4990000 1.0016624290034257 -0.013255061258257225
5037500 1.0018309905548017 -0.013312064188933704
5085000 1.0019538812473872 -0.013410751414526424
5132500 1.00182697533714 -0.013740076922346812
5180000 1.0015363859997328 -0.013863688962692688
5227500 1.001691110824475 -0.013808882512322472
5275000 1.0018763634129306 -0.013894786482819286
5322500 1.001890075054077 -0.014238903843833294
5370000 1.001619597932828 -0.014319613651185068
5417500 1.0016370174766909 -0.014430822057513622
5465000 1.0017087401347071 -0.01447436185059437
5512500 1.001810457590516 -0.014720006851931472
5560000 1.0015426742026003 -0.014875101865764724
5607500 1.001584763349791 -0.014986456153452413
5655000 1.0016602056483555 -0.015101946949892767
5702500 1.0018535197425686 -0.015247420531249108
5750000 1.0017315257018138 -0.015659898976560366
5797500 1.0016554063568908 -0.015753022512798205
5845000 1.0016269211099385 -0.015803218916780964
5892500 1.0018210780298447 -0.01580427159212833
5940000 1.0018849375295682 -0.01611751833984626
5987500 1.0018755978889355 -0.016370383963650658
6035000 1.0018180450510994 -0.01625780386661474
6082500 1.0017797891399856 -0.01627490427553412
6130000 1.0019947050752156 -0.016405901482847655
6177500 1.0020689396752085 -0.016720972920337317
6225000 1.0020434907353264 -0.01687231300923876
6272500 1.0019498149294845 -0.01678793622275599
6320000 1.002059708772646 -0.01677715707687581
6367500 1.0022176728465775 -0.017010528867305738
6415000 1.0021254575414154 -0.01727357299964765
6462500 1.0020943652333756 -0.017299525679022435
6510000 1.002072341681474 -0.017231599793903138
6557500 1.0022672686428193 -0.01739873078641711
6605000 1.0022510159118507 -0.01762170124791564
6652500 1.0021330486492703 -0.017814979449392806
6700000 1.0017855557044286 -0.01779483265828989
6747500 1.0020771702186884 -0.01778372825979019
6795000 1.002143100595092 -0.01799474862479426
6842500 1.0020885848363557 -0.018344847113798288
6890000 1.001862274698271 -0.018372067850456315
6937500 1.0019374080209567 -0.018305947051519382
6985000 1.0020855316431059 -0.018473704172009664
7032500 1.0022354225522139 -0.018801232500074327
7080000 1.0020082598510267 -0.019091728126377973
7127500 1.0019506334203208 -0.019095859741033724
7175000 1.0021143827989516 -0.019103076562429315
7222500 1.0022911885319472 -0.019425866677905565
7270000 1.0021309356585946 -0.01966666917546761
7317500 1.0021507564304728 -0.01981748771485596
7365000 1.0021160135836877 -0.01976172471500384
7412500 1.0022938690945948 -0.01989645676923738
7460000 1.0023658088802878 -0.020194519421151406
7507500 1.0022586458969942 -0.020417897703370408
7555000 1.0022307663711651 -0.020401292814555317
7602500 1.0023307920138629 -0.020342549809939974
7650000 1.0024754427797469 -0.020603528015440048
7697500 1.002564335299691 -0.020841158618795912
7745000 1.002358279324734 -0.020868639145543395
7792500 1.0023243983668708 -0.020840793748068312
7840000 1.0024619444660592 -0.02090256799761577
7887500 1.00261289571369 -0.02114834121212223
7935000 1.002505057205894 -0.02127749354477047
7982500 1.002314115708898 -0.021251930208476308
8030000 1.0023107243880962 -0.02128946109779278
8077500 1.002520998524095 -0.021482021754892718
8125000 1.0025250002139414 -0.021799768405089827
8172500 1.0023227640050882 -0.02138189757029092
8220000 1.0023476302674594 -0.021772974359773697
8267500 1.0024367861072052 -0.02192905941591206
8315000 1.0024826798046655 -0.022273707807561043
8362500 1.002317063530556 -0.022547848847273125
8410000 1.0021060799696064 -0.02253738799909721
8457500 1.002283121090383 -0.022558156734464815
8505000 1.0024878876777434 -0.022788166470234166
8552500 1.0025440374447074 -0.02309514182864882
8600000 1.0023399482790065 -0.023228236989749483
8647500 1.002385585219284 -0.023279995435651676
8695000 1.0025516151832066 -0.023388176128969707
8742500 1.0026673950470335 -0.02359263079078761
8790000 1.0025679889822268 -0.0239133454696659
8837500 1.0025768797590218 -0.023896810246420753
8885000 1.0026720917522942 -0.0238113118059453
8932500 1.0028833678944797 -0.024038972880869276
8980000 1.0029382438367682 -0.024301910462902875
9027500 1.0028722643812622 -0.02440258923138447
9075000 1.002747293550734 -0.02430243704146173
9122500 1.0028520387004811 -0.02442301613313703
9170000 1.0029445771701964 -0.024781213839670226
9217500 1.0030051019430504 -0.024890880711388057
9265000 1.0028096815141452 -0.024950373289792136
9312500 1.0028103967225415 -0.02489437267836794
9360000 1.0029679276881585 -0.025068800192512213
9407500 1.002947168091009 -0.025301588190527597
9455000 1.0027549566780252 -0.025615354336379
9502500 1.0028498594056858 -0.0254951818909447
9550000 1.002731506309979 -0.02551531027814912
9597500 1.002882551062615 -0.02577864581679375
9645000 1.0027802688501148 -0.026046401689871983
9692500 1.0026316020946726 -0.02602371299904153
9740000 1.0024763195625677 -0.026105276431775987
9787500 1.002625784342185 -0.026142196576188107
9835000 1.0027776481865514 -0.02649824303014486
9882500 1.0027399196160953 -0.026764930741427
9930000 1.002586537807593 -0.026751551618906095
9977500 1.0026934302956456 -0.026824483072003177
10025000 1.0029269354597592 -0.027017872392431048
10072500 1.002903320247017 -0.027243239975936064
10120000 1.0026903008121746 -0.027504409238628545
10167500 1.0027943481026012 -0.027493096119026783
10215000 1.0029099306899074 -0.02754023899156317
10262500 1.0031052545786636 -0.02778947683751894
10310000 1.0029835030424064 -0.027958498892465725
10357500 1.002963736067027 -0.028062242537627693
10405000 1.002995013160482 -0.028167727595491077
10452500 1.0031470052018585 -0.028201046608877792
10500000 1.003184568636855 -0.028508611576581487
10547500 1.0031262592016654 -0.028661533097470004
10595000 1.0030381123347913 -0.028529610131689427
10642500 1.0031436293743585 -0.028432151995356057
10690000 1.003141762096029 -0.0287118598007883
10737500 1.0031928377739152 -0.02887920705781225
10785000 1.00318328078671 -0.02908156262962614
10832500 1.0031080437613784 -0.028978573460023308
10880000 1.003238851390757 -0.029164602554915518
10927500 1.003374963467566 -0.02943729717145095
10975000 1.0032563100147334 -0.0295597206357002
11022500 1.0031704938802122 -0.0296064049132474
11070000 1.0031970528603282 -0.02954307653780441
11117500 1.0033556335946485 -0.02980374969933723
11165000 1.0033233697231043 -0.03006701481537395
11212500 1.0032065943362865 -0.030340076620304815
11260000 1.0031182780794394 -0.030314274227365434
11307500 1.0032408001524673 -0.030384050749748332
11355000 1.0032888730773009 -0.03062252207449344
11402500 1.0032766584741966 -0.03087189969294269
11450000 1.0031384098187577 -0.03095564112199372
11497500 1.0032570209160612 -0.03107074708329265
11545000 1.0033993312832552 -0.031196094472314646
11592500 1.0034994199217095 -0.03149975052886321
11640000 1.0033040579121015 -0.03174231907718339
11687500 1.00338852904906 -0.031720823280456174
11735000 1.0033721480370705 -0.03180536906390495
11782500 1.003551091049627 -0.03196562132891459
11830000 1.0035735251659643 -0.032254827373779243
11877500 1.003592028317886 -0.03238983334230875
11925000 1.003530014851094 -0.03234190683092299
11972500 1.003604942182409 -0.03248364275200926
12020000 1.0037343160635306 -0.03269150594957031
12067500 1.0036917574669546 -0.03290614236006129
12115000 1.0036003406861744 -0.03295195159521452
12162500 1.003626066802953 -0.03294041492446777
12210000 1.0036509289521507 -0.03305190468406091
12257500 1.0037554106161464 -0.03324482401274394
12305000 1.0035494954441433 -0.03336834426949156
12352500 1.00363136707095 -0.03337119998648549
12400000 1.0037213243808323 -0.03344667470220712
12447500 1.0038095054713163 -0.03364992530139235
12495000 1.0037298961637748 -0.03383068242274735
12542500 1.0036726149829727 -0.03393455799196816
12590000 1.0035615307939025 -0.03399263586627352
12637500 1.0037173671571917 -0.03412199106948521
12685000 1.003717749948522 -0.034270449379164236
12732500 1.003559955465608 -0.03447967679808811
12780000 1.003409445761102 -0.03451291009935885
12827500 1.0038107086071633 -0.03461012345657532
12875000 1.0037775206615291 -0.034872315234081
12922500 1.0038364983466923 -0.03513805400690366
12970000 1.0036152096236481 -0.03533649292324627
13017500 1.0037014601373735 -0.0353380103370326
13065000 1.0039252661041294 -0.03551351200038361
13112500 1.0039600810071043 -0.035785286490414264
13160000 1.0038109466746417 -0.03605984555449343
13207500 1.0038501766025925 -0.036072504483198924
13255000 1.0039260524716542 -0.0361550654366125
13302500 1.0042269438345455 -0.03638688919489207
13350000 1.0040456085725178 -0.03661764184053351
13397500 1.0041007479334783 -0.03678258389538958
13445000 1.0040374832298253 -0.03688688258069961
13492500 1.0041722070112846 -0.03692544058012699
13540000 1.004139289097574 -0.03717195929119828
13587500 1.0041369946109118 -0.03737453205356126
13635000 1.0041373448038986 -0.03746524281797264
13682500 1.0042333374300723 -0.03753771652849745
13730000 1.0043091822319619 -0.037670264856068766
13777500 1.0043627685018048 -0.03794453251956501
13825000 1.0041300103041202 -0.03816000156276316
13872500 1.0040235185050503 -0.038044171523534606
13920000 1.004205277055024 -0.03808031789375098
13967500 1.0041993876787962 -0.03837619228207788
14015000 1.004149744175521 -0.03854727802589411
14062500 1.0040434514483543 -0.03863674838107301
14110000 1.003991414779394 -0.038682341008456675
14157500 1.0042470055111983 -0.03885490295238808
14205000 1.0042198609097537 -0.039092924218023864
14252500 1.004044933279974 -0.03928380426474437
14300000 1.0038975386185909 -0.0393330869832184
14347500 1.004093335692655 -0.039426170571225896
14395000 1.0042987890118305 -0.039668662020162636
14442500 1.0041418907559145 -0.039878174100576994
14490000 1.004018708261519 -0.03998699373934826
14537500 1.0041354921785277 -0.039993668045485306
14585000 1.0043485494263586 -0.04021473031029953
14632500 1.0044674512067144 -0.040421501026220094
14680000 1.0043363794963245 -0.040549011186744144
14727500 1.004452177140012 -0.04057538700583661
14775000 1.0045430224266811 -0.040647083617952544
14822500 1.004614245892117 -0.04086940070157592
14870000 1.0046350715132664 -0.041057047639134585
14917500 1.0046000627571126 -0.04104512994962799
14965000 1.004661923682341 -0.041091591400522
15012500 1.0047268384331527 -0.04116957154814282
15060000 1.0047799679744762 -0.041366942348975484
15107500 1.0047728360287065 -0.04154547211828721
15155000 1.0048502811816304 -0.0416179918505278
15202500 1.0047968589509992 -0.041618368900912174
15250000 1.004879668362881 -0.041794225918672816
15297500 1.0049353145968167 -0.042019776049302626
15345000 1.0047822700170095 -0.04215601598964535
15392500 1.0047102727527917 -0.04228607027643144
15440000 1.004717204430979 -0.04230610544398641
15487500 1.0048721115388253 -0.04256415751126821
15535000 1.0047812475178164 -0.042742729473646886
15582500 1.0046922674889716 -0.042938038598604115
15630000 1.0046723370879451 -0.04308679782984187
15677500 1.0047284565971473 -0.043343805468014286
15725000 1.0047907097961446 -0.04346641837228731
15772500 1.0048529197991076 -0.04366609515628058
15820000 1.0047144250922155 -0.043756781594031145
15867500 1.0048511167230842 -0.04403192204748926
15915000 1.005027693418442 -0.044296642136505956
15962500 1.0049487259380163 -0.044425247855285704
16010000 1.0048208159224095 -0.044603069124826936
16057500 1.0049255316587553 -0.044693866445068384
16105000 1.0052058346524704 -0.04495655396660994
16152500 1.0051766675931846 -0.04512784408295963
16200000 1.00506376278952 -0.04534124355292216
16247500 1.0051323616932308 -0.04534745714103896
16295000 1.005258300738203 -0.04553489218425873
16342500 1.0053396886839028 -0.04566748824352555
16390000 1.005272501827867 -0.04579459915509532
16437500 1.0051779606808189 -0.045930346311197155
16485000 1.005304344352787 -0.046019398262412754
16532500 1.005380508826535 -0.04624406674974613
16580000 1.0052773129683557 -0.04635801396219671
16627500 1.0052010903872213 -0.046463842843438616
16675000 1.0053257053843685 -0.04657267936939112
16722500 1.005322055086609 -0.0466380657016031
16770000 1.0052213553465401 -0.04682067507957064
16817500 1.0053059341775938 -0.04698659457318094
16865000 1.0053830610480532 -0.04719584860860867
16912500 1.0052498121698896 -0.04732771005481794
16960000 1.0052077128082306 -0.047443961539935006
17007500 1.0053237128156398 -0.04771203078271004
17055000 1.0052990655551979 -0.047865219892634786
17102500 1.005254247718971 -0.04794859325636465
17150000 1.0052679855647049 -0.0480057637697613
17197500 1.0053831426668842 -0.048235520368719406
17245000 1.0055226540074924 -0.04843701057492225
17292500 1.0054272131321462 -0.04861729250873781
17340000 1.0054108360179441 -0.04864140565870377
17387500 1.0055739077508488 -0.048803669951328774
17435000 1.0057135921906515 -0.049064612006669776
17482500 1.0056015712812594 -0.049195314107807614
17530000 1.0055664165781515 -0.049288677197533305
17577500 1.005578756345195 -0.04938153871447489
17625000 1.0058556251044912 -0.04956112433125758
17672500 1.005832861553271 -0.04968712702594147
17720000 1.0058292857005715 -0.04965962758523262
17767500 1.0059646704195928 -0.049838775312007096
17815000 1.0060617426268248 -0.0499476335106686
17862500 1.0060287715489675 -0.05012398403101305
17910000 1.0060930463172608 -0.05027539777726247
17957500 1.0060664805709778 -0.050331483301104124
18005000 1.0061318303471936 -0.05042085666321121
18052500 1.0061371681987654 -0.050539054242042254
18100000 1.0060807040766397 -0.050778907146833585
18147500 1.0060860145934234 -0.05082468537052207
18195000 1.0059884789068199 -0.05095013592443104
18242500 1.006050115134239 -0.0511556577033802
18290000 1.0060614006826876 -0.05127235039284615
18337500 1.0060973552026953 -0.05145232409275963
18385000 1.0059522151734994 -0.05166693396095896
18432500 1.0059532102854798 -0.05179002215222939
18480000 1.0059855178919248 -0.05196463384475666
18527500 1.0060661646975029 -0.05220436150182465
18575000 1.0060819330950748 -0.05243035786329599
18622500 1.006179371309023 -0.05262175450160039
18670000 1.0060402432725895 -0.05283222338416266
18717500 1.0061813736142915 -0.0531022937141181
18765000 1.0062247509575724 -0.05329237867928186
18812500 1.00618230004728 -0.053469738810195934
18860000 1.0062007928873626 -0.05356203949652078
18907500 1.0063092209192521 -0.0538183563742523
18955000 1.0064106279155656 -0.05405829590168751
19002500 1.006468589097214 -0.054155211292981224
19050000 1.0064100389541875 -0.05439880601063522
19097500 1.006507432204175 -0.054630053269216695
19145000 1.0065734838877853 -0.054776752635707776
19192500 1.006557459580798 -0.05497851617096069
19240000 1.0065249590001062 -0.055164120212470344
19287500 1.006623693911598 -0.055320222520119235
19335000 1.0067283553899977 -0.05552707928163405
19382500 1.0067125245608273 -0.055679690596655604
19430000 1.0066356854278278 -0.055860784897487505
19477500 1.0066268704173542 -0.056091744226105675
19525000 1.0067253227066648 -0.056319064068048846
19572500 1.006635905032484 -0.05639337735383192
19620000 1.0065104995790584 -0.056535757673465095
19667500 1.006712531220474 -0.05684890069751114
19715000 1.0066311307662847 -0.05693753086830288
19762500 1.0065705278247539 -0.05720354990622029
19810000 1.0065807416116879 -0.057452200962605844
19857500 1.0066525457739661 -0.057670360264447794
19905000 1.0067788068040415 -0.05788983445716573
19952500 1.0066550458407337 -0.058113844598403915
20000000 1.0065673254703102 -0.05834976421055169
