# HZ S RI R 50
1000000 1.000385894667779 -0.02217715854901179
1047500 1.000670455679132 -0.022904958245827913
1095000 1.0002820446584322 -0.024304465223160383
1142500 0.9999884127009433 -0.025398410951989588
1190000 0.9997648192284186 -0.02642867535639341
1237500 0.999984471348507 -0.027165143480454828
1285000 1.0002866773731884 -0.027957137585721176
1332500 1.000417421699205 -0.02896855935245659
1380000 1.000436500555767 -0.029956860722628105
1427500 1.0002740849139804 -0.03103054868992891
1475000 1.0002617981504793 -0.031865645259670054
1522500 1.0001948817997286 -0.03291813975055584
1570000 1.0000896963987944 -0.034067976565904726
1617500 1.0001876226054787 -0.03515565143677508
1665000 1.0000363564793586 -0.03630625015712221
1712500 1.0000031723726426 -0.03710984756063249
1760000 1.0000576861501567 -0.0381177211922998
1807500 1.0001341136181505 -0.039241770655064984
1855000 1.0002435348726204 -0.04039649823639575
1902500 1.0000129348577278 -0.04153651544264274
1950000 0.9999146572979023 -0.04241433968404731
1997500 1.0000830657262034 -0.04336649413791532
2045000 1.000134638163817 -0.0444475833642194
2092500 1.0000899206403533 -0.04558163008970716
2140000 0.9998012032119183 -0.046518365414578454
2187500 0.9999670252317083 -0.04738000410251699
2235000 1.000119171706508 -0.048338231977689085
2282500 1.0001744757677358 -0.049498820860160865
2330000 0.9999896553991939 -0.05054068035079942
2377500 0.9999167769417301 -0.05133681489107851
2425000 0.9999920493581741 -0.05228693913283137
2472500 1.0000322823817978 -0.05335296171488494
2520000 0.9997271284781677 -0.054428589837583995
2567500 0.9997656058884422 -0.055229885338305265
2615000 0.9997762019034071 -0.05610621805348616
2662500 0.999777961234707 -0.05728439120168946
2710000 0.9995838358060949 -0.0584283291137042
2757500 0.9994493069435899 -0.05935176895470558
2805000 0.9993846445260945 -0.06026643228931717
2852500 0.9994752970479925 -0.061285585216227276
2900000 0.9994648757441627 -0.06248158552076614
2947500 0.9993237812248982 -0.06362008675352902
2995000 0.9992014305551755 -0.06443424944035286
3042500 0.9992641991886274 -0.06545915924442612
3090000 0.9992690354052919 -0.06654758593489206
3137500 0.9993377502390497 -0.06772298311973243
3185000 0.999159874959178 -0.0687493338043199
3232500 0.9990626695725966 -0.0696483048766126
3280000 0.9991393202533768 -0.07059688280111022
3327500 0.9992705276775381 -0.07167164813175636
3375000 0.999220646149745 -0.07288930387560794
3422500 0.9990717939423408 -0.07375920048841421
3470000 0.9990819568894062 -0.074627472978714
3517500 0.9992949671925655 -0.07561148329097098
3565000 0.9992205979845946 -0.07678158064485507
3612500 0.9989859379315907 -0.07781785759084871
3660000 0.9988578900592128 -0.078662020339936
3707500 0.9989341399979067 -0.07951848439724364
3755000 0.9989865893916737 -0.08063474237160877
3802500 0.9987869186999243 -0.08179484021675489
3850000 0.998598352935026 -0.08266130183371134
3897500 0.9985179335546914 -0.08352562876005788
3945000 0.9986901139722039 -0.08449780196118299
3992500 0.9986915980577264 -0.08565389572457603
4040000 0.9984728879249657 -0.0867844563924888
4087500 0.9982720854769217 -0.08772266197986556
4135000 0.99837640235348 -0.08859832139275553
4182500 0.9983867949225806 -0.08970626781273479
4230000 0.9982632724464928 -0.09085048550729156
4277500 0.9980514633949603 -0.09184058008786634
4325000 0.9980038366206928 -0.09272222438428473
4372500 0.9982062647625503 -0.09371699653006053
4420000 0.9981049810479181 -0.09493314002581926
4467500 0.9980915256522614 -0.09602258956661484
4515000 0.9979561034126418 -0.09697104657122707
4562500 0.9978600467751132 -0.09782181624914528
4610000 0.9979684662580434 -0.09887780779010741
4657500 0.997988002458052 -0.10004082096727968
4705000 0.997779181741791 -0.10103742812943166
4752500 0.9977430151362666 -0.10190928015582645
4800000 0.9977237927087567 -0.10289764880525669
4847500 0.9978245454057794 -0.10387676643647169
4895000 0.9978555092019449 -0.10499377386007903
4942500 0.9975939451148851 -0.10596065830373473
4990000 0.997506273661091 -0.10675249798817033
5037500 0.9975980273276434 -0.10769701028947153
5085000 0.997586082936306 -0.1088772393757942
5132500 0.997337217353707 -0.10993937249584657
5180000 0.9971335344273233 -0.11085140657626409
5227500 0.9971713814806861 -0.11173748470381514
5275000 0.9972472712579753 -0.11276908007296865
5322500 0.9972149045696054 -0.1139313842392755
5370000 0.9968476628343244 -0.11499394769831846
5417500 0.9968181295136155 -0.11583297089790894
5465000 0.9968528699202452 -0.11675330018320268
5512500 0.9968185710196449 -0.11788941458954834
5560000 0.9965255563436829 -0.1190419847938459
5607500 0.9964296349278099 -0.12007084697850545
5655000 0.9963335988680746 -0.12101187568786517
5702500 0.9964755442196105 -0.12199160474482028
5750000 0.9964114875449899 -0.1231573731792183
5797500 0.996225729453576 -0.12432674621912582
5845000 0.9961216173896128 -0.1251542931562956
5892500 0.9961927935669107 -0.12612601642256202
5940000 0.9961182671748486 -0.1271682823039753
5987500 0.9960987449815946 -0.12834722217934663
6035000 0.9959717318908793 -0.12926583759836255
6082500 0.9958584659734853 -0.13022582416977163
6130000 0.9958641031650731 -0.13109039494954075
6177500 0.9960660276864672 -0.13230187145100222
6225000 0.9958608373787858 -0.13338323392918716
6272500 0.9957255006980786 -0.13428626740837743
6320000 0.9955548672987801 -0.13504476166814547
6367500 0.9956862927434296 -0.1361064593003905
6415000 0.9957676212921076 -0.13722372250227496
6462500 0.9954925588469887 -0.13837743706618602
6510000 0.995290432594806 -0.13911909111952586
6557500 0.9952732413065943 -0.1399979401849402
6605000 0.9954108504288132 -0.14103700755129867
6652500 0.9952228066578706 -0.14226728728315247
6700000 0.9950067725592588 -0.1431163376878118
6747500 0.9949141208357505 -0.1439909786012855
6795000 0.994919013485666 -0.14491381806814957
6842500 0.994924602134046 -0.1460785983749135
6890000 0.994593835487587 -0.1472075839133499
6937500 0.9944396838640622 -0.14816055053514557
6985000 0.9944587605838661 -0.14888267267081054
7032500 0.9945089160839976 -0.15009078240190862
7080000 0.9943061732768457 -0.1512863852456947
7127500 0.99409441006211 -0.15238026244519504
7175000 0.9940232086324329 -0.15328055459009773
7222500 0.9940579453238418 -0.1542062935133115
7270000 0.9939682779127988 -0.1552987866063594
7317500 0.9939339192165703 -0.15647797694325213
7365000 0.993701845955823 -0.15741745305678176
7412500 0.9936242669432473 -0.15813059105863336
7460000 0.9937194217965652 -0.15926961546050408
7507500 0.9936836679109029 -0.16041259688515008
7555000 0.9935374798648541 -0.16150270180610862
7602500 0.9933173285053352 -0.16235558847964274
7650000 0.9932886663387924 -0.16324828689230259
7697500 0.9934346444166775 -0.16436283961729165
7745000 0.9933177963028498 -0.16546950015099843
7792500 0.9930239624107122 -0.16635592410207442
7840000 0.9929290260420627 -0.1671758346351846
7887500 0.9929942392565533 -0.16812094574964853
7935000 0.9930178112293592 -0.16927234050011875
7982500 0.9926858849436927 -0.17034107092139536
8030000 0.9924410998869687 -0.1712207628759988
8077500 0.992417806088903 -0.17201690472806855
8125000 0.9923596404464229 -0.17313626783554226
8172500 0.9919442915586806 -0.17400826278134573
8220000 0.9919472133156663 -0.1750501479980165
8267500 0.991792165878118 -0.17608136814611558
8315000 0.991868019627335 -0.17704432972711323
8362500 0.9919382111232186 -0.1782007600572777
8410000 0.991454934365866 -0.17925603542530533
8457500 0.9913517124880921 -0.1802111110287137
8505000 0.9913412619467888 -0.1810989241087562
8552500 0.991479293550838 -0.18218278698254176
8600000 0.991365498761747 -0.18332242883818614
8647500 0.9910702384495699 -0.18446833268502136
8695000 0.9910535847046137 -0.18537343029560382
8742500 0.9909445455106961 -0.18632742196313165
8790000 0.9909343048231564 -0.1873738647243612
8837500 0.9909614576348421 -0.1885245690723959
8885000 0.9908042529569712 -0.1894607121923074
8932500 0.9907271624049208 -0.19026873841172195
8980000 0.9907112500590629 -0.19121115498044472
9027500 0.9907785487012164 -0.19229104631783045
9075000 0.9905491710570917 -0.19337544665005485
9122500 0.9904989947235706 -0.19436838671743073
9170000 0.9902705526734581 -0.1952933402739037
9217500 0.9903425580033476 -0.19634811621117174
9265000 0.9902121753459494 -0.19746948216843155
9312500 0.9898898186092752 -0.19823879580793552
9360000 0.9897296845837784 -0.19905292428405075
9407500 0.9897888628314916 -0.2000387070541226
9455000 0.9897786631146109 -0.2012179948908079
9502500 0.9895188618789742 -0.20231852299244726
9550000 0.9892281711521344 -0.20317117557277314
9597500 0.9891406633792277 -0.20405217062655862
9645000 0.9890789414885582 -0.20528737875878253
9692500 0.9887889588377019 -0.20621813306638526
9740000 0.9883464034755385 -0.20697357100260227
9787500 0.9884602469476282 -0.20805640633283298
9835000 0.9884489739149219 -0.2091784709112032
9882500 0.9884331610808705 -0.210241101885487
9930000 0.9880296889373523 -0.21134463666075953
9977500 0.9879396040218458 -0.2122974118419629
10025000 0.9879991152036744 -0.21320298066150828
10072500 0.9878400914213085 -0.21434347848099586
10120000 0.9876563905211648 -0.21548674824689537
10167500 0.9873970849904156 -0.21637098417139114
10215000 0.9873531970005265 -0.21710769272962832
10262500 0.9873875183330779 -0.21817990758045996
10310000 0.9872425460154255 -0.21927177995358318
10357500 0.987059922963608 -0.22036936810530977
10405000 0.9869690803156218 -0.22128661370627042
10452500 0.9868718301910993 -0.2221262541047683
10500000 0.9868951200105351 -0.22322670112358853
10547500 0.986731875476746 -0.22426412468860774
10595000 0.9865098830033745 -0.22520950090787653
10642500 0.986341369195723 -0.22595737191186044
10690000 0.9862329086025519 -0.22687693422599187
10737500 0.9863932739425071 -0.227970170959036
10785000 0.9860354833396454 -0.22912821167920186
10832500 0.9857403932045321 -0.22993853047315602
10880000 0.9856124948578354 -0.23094919726026403
10927500 0.985692653675544 -0.23199415054371314
10975000 0.9855564748177414 -0.23306239966782646
11022500 0.9851012239449908 -0.23397316979845634
11070000 0.984844743923507 -0.234794275153204
11117500 0.9849208710487629 -0.23582513485625584
11165000 0.984926535415077 -0.23687656004973778
11212500 0.9846166224427857 -0.23801848965791197
11260000 0.9842454592318342 -0.23892487840404947
11307500 0.9842153854328309 -0.23987280531533006
11355000 0.9840680639836963 -0.24096640560249377
11402500 0.9839452935307494 -0.24200066287966512
11450000 0.9835911399818325 -0.2429909529133974
11497500 0.983439756302529 -0.24385502825055136
11545000 0.9836525221443088 -0.24491224012087853
11592500 0.9834713878714008 -0.24599401569072635
11640000 0.9831571762652144 -0.2470768558291015
11687500 0.9829467411577794 -0.2479545923105872
11735000 0.9829366130254037 -0.24890031896383893
11782500 0.9829558452863096 -0.2499631501764837
11830000 0.9826412535141124 -0.2509846114676077
11877500 0.9824533582570081 -0.2520037468953525
11925000 0.9823525503711659 -0.2528583150880289
11972500 0.9822016667850512 -0.25379572487813756
12020000 0.9821781809887403 -0.25477164543721686
12067500 0.9819575243266566 -0.2559116616943287
12115000 0.9816854412793302 -0.2568329585970301
12162500 0.9815871772096935 -0.2577298707931344
12210000 0.9813623070880045 -0.2585978790961657
12257500 0.9812830355889282 -0.25978488383655607
12305000 0.9809833529341556 -0.26071921806639836
12352500 0.9808738650062261 -0.26153241034185054
12400000 0.9807068766666353 -0.2624596578441093
12447500 0.9805970451384731 -0.2635452682432937
12495000 0.980409435910497 -0.2646557092095734
12542500 0.9801868591929515 -0.26559112352093234
12590000 0.9800040100191061 -0.2665309205626763
12637500 0.9799534576167123 -0.26749308933892435
12685000 0.9797913256027174 -0.26863041224040385
12732500 0.9794076119730396 -0.26961593310531096
12780000 0.9791469034075472 -0.2703728714836491
12827500 0.9791516748026219 -0.2714825521171676
12875000 0.979055789895463 -0.27249994331817
12922500 0.9788357793024124 -0.2736836984245507
12970000 0.9785639836713411 -0.2746285231564762
13017500 0.978399457880139 -0.27555692696729206
13065000 0.9784090085016297 -0.276614314019959
13112500 0.978247567380825 -0.2776686847280136
13160000 0.9779295195157262 -0.278682014780189
13207500 0.977828509539713 -0.2796807486462448
13255000 0.9776925351481894 -0.2805452518434785
13302500 0.9777047156859651 -0.2816947978437591
13350000 0.9775351056181054 -0.2826563824234044
13397500 0.9773293533440369 -0.28368584724951385
13445000 0.9772055943104396 -0.28465925243456813
13492500 0.9770088378336128 -0.28559190206153406
13540000 0.976921341013705 -0.28664558338564633
13587500 0.976712101137253 -0.2876355237739243
13635000 0.9765433368846971 -0.2885813543594441
13682500 0.9762859822789817 -0.28947744405189285
13730000 0.9762881495717175 -0.29044262826859346
13777500 0.9761295348835533 -0.2914030710752044
13825000 0.9758943823513252 -0.292416823751129
13872500 0.9756449143246075 -0.293268496738744
13920000 0.975396909104627 -0.294100264546789
13967500 0.9753253893112822 -0.2951891781881006
14015000 0.9750757544331606 -0.29619149005037826
14062500 0.9748223186850975 -0.2973005863116203
14110000 0.974543853731275 -0.29809810920715835
14157500 0.9744991615065639 -0.2990188662172557
14205000 0.9743321979493944 -0.3000744976302201
14252500 0.9741062885722939 -0.30109672975658097
14300000 0.9736336405075406 -0.3020546213609248
14347500 0.973528888639519 -0.3029797164866966
14395000 0.9734615965402276 -0.3040733548301496
14442500 0.9732322968436379 -0.3050812046868779
14490000 0.9729329672519323 -0.3060627309198211
14537500 0.9728296183947277 -0.3070142062448991
14585000 0.9727886757317927 -0.30801115970740006
14632500 0.9725328892293477 -0.3091039631512828
14680000 0.9724143880931495 -0.3101083200277687
14727500 0.9722138073558663 -0.3110119169697139
14775000 0.9720725056302497 -0.31204703117444615
14822500 0.9719332177281544 -0.31293547268555283
14870000 0.9717551527374265 -0.3139349012113731
14917500 0.9715691750436226 -0.31488476802336524
14965000 0.9713500025495113 -0.31582284550128537
15012500 0.9711959309296581 -0.31669108491193554
15060000 0.9710911286129782 -0.31770134226540125
15107500 0.9708746171720355 -0.318681796693145
15155000 0.9707293205264711 -0.31962099381217496
15202500 0.9705336750894523 -0.3205181330217263
15250000 0.9703269165514311 -0.3214128114513686
15297500 0.9701462221449055 -0.32248708282796773
15345000 0.9699018804311546 -0.32338538758094315
15392500 0.9695991688680962 -0.32430270024794894
15440000 0.9693757123737716 -0.3251755461457836
15487500 0.9692520646809873 -0.3261651317949143
15535000 0.9690949474096118 -0.32714137982086133
15582500 0.9688094552633122 -0.3281031432317467
15630000 0.9685840931003308 -0.3289861118186039
15677500 0.9684136099434241 -0.3299690903004185
15725000 0.9682333237674677 -0.33096991405699755
15772500 0.9679550075494727 -0.33198209267890805
15820000 0.9676749761659417 -0.33278364761938867
15867500 0.9675623899295873 -0.33382230103355465
15915000 0.9674967020856302 -0.33478786477964595
15962500 0.96730254462048 -0.3357464351756097
16010000 0.9670959599209176 -0.3367575299844288
16057500 0.9668592475394078 -0.3377052853497901
16105000 0.9667103917089559 -0.33868815323868173
16152500 0.9665977505473748 -0.33970630195456103
16200000 0.9662932018209612 -0.3406130276837383
16247500 0.9662048226458428 -0.3416268615590443
16295000 0.9659943940987452 -0.3425080159996219
16342500 0.9658654166728263 -0.34332969430997323
16390000 0.9656785740373435 -0.3441851665726103
16437500 0.9655346968792968 -0.3451859785331309
16485000 0.9652742314193019 -0.3461253450666601
16532500 0.9650297130717188 -0.34707564848734485
16580000 0.964808452253595 -0.34797076250144293
16627500 0.9646562334925062 -0.34885176714548066
16675000 0.9644594418410511 -0.3497386639748363
16722500 0.9642207224116087 -0.35058650677560066
16770000 0.9639293244453588 -0.35146765711852723
16817500 0.963886531314629 -0.3524059649581392
16865000 0.9636198838516525 -0.3534487689679117
16912500 0.9634286270742616 -0.354278247180637
16960000 0.9630385264491571 -0.3552240211759562
17007500 0.9629367758470323 -0.3562346486611614
17055000 0.9627240298598878 -0.35719734261632946
17102500 0.9625026326135732 -0.358129413226694
17150000 0.9621966088108204 -0.3590294531664717
17197500 0.9620876115529342 -0.35998191024710935
17245000 0.9619373955414906 -0.36100215409813297
17292500 0.9617286428626154 -0.3619394454702977
17340000 0.9615384340541625 -0.3628314825795674
17387500 0.9613504023583148 -0.36383754636275556
17435000 0.9612197166166576 -0.3648054820382513
17482500 0.9609738859280763 -0.36576461913784897
17530000 0.9607680340704556 -0.36665616438176324
17577500 0.960650423844454 -0.36768457699979573
17625000 0.960515804800748 -0.36856056714824037
17672500 0.9603210985990857 -0.3695298697677211
17720000 0.9601520995874135 -0.37042916917843605
17767500 0.9600913917780741 -0.371384562403712
17815000 0.9599309548880044 -0.37230720063472433
17862500 0.9597170038173716 -0.37331010115041674
17910000 0.9596147829256204 -0.3741872378601546
17957500 0.9593556721980698 -0.37502627651085696
18005000 0.9591568298452348 -0.37597138667186275
18052500 0.9589211575424482 -0.37692148225776423
18100000 0.9585996900755044 -0.3778183410053722
18147500 0.9584073132470516 -0.37869797976314923
18195000 0.9582559302884462 -0.37957491727642506
18242500 0.9580636927670487 -0.3805014947531105
18290000 0.9577187905407891 -0.38146573787751725
18337500 0.957554143156991 -0.3824074354491286
18385000 0.9573592697900141 -0.3833749415016898
18432500 0.9570536683741078 -0.3843260971187711
18480000 0.9568227147659212 -0.38524529001560476
18527500 0.9566396359254671 -0.38629617733698185
18575000 0.9564907221873232 -0.3872483027436229
18622500 0.9562869301181721 -0.38819792287822713
18670000 0.9560614624285534 -0.38913363220029284
18717500 0.9558737664920018 -0.39014081117265076
18765000 0.9556491925590145 -0.3911310265267468
18812500 0.9553908832353895 -0.39209595970804895
18860000 0.955211087261845 -0.3930154330063568
18907500 0.9551212781519771 -0.393966772276261
18955000 0.954937924350818 -0.39497111204021734
19002500 0.9547899226052904 -0.39586604761764305
19050000 0.9545571161690629 -0.3967234710238905
19097500 0.9544167761255095 -0.3977458176015561
19145000 0.9543073757285155 -0.3986934851334931
19192500 0.9541154824654879 -0.39961762640659665
19240000 0.9537490106120747 -0.40051413751396314
19287500 0.953614728185584 -0.40145515283713024
19335000 0.9534203992569866 -0.40231072006688173
19382500 0.9531703614163294 -0.4032193248452975
19430000 0.9529023109202184 -0.40407100602971996
19477500 0.9527418583437264 -0.4049686970712377
19525000 0.952638361381605 -0.4058442820774603
19572500 0.952452961022914 -0.4067798162807716
19620000 0.9521412762549096 -0.4076745954011612
19667500 0.951916650095462 -0.4086294019364156
19715000 0.9516924768011793 -0.40951934942121837
19762500 0.9514625454434851 -0.410433426155074
19810000 0.9511125222390053 -0.4113737933071514
19857500 0.9509703625502235 -0.4124103920452184
19905000 0.9507346213403297 -0.4133759504984053
19952500 0.9505855217472426 -0.41419087554423806
20000000 0.9503574870867834 -0.41515222824603293
