# HZ S RI R 50
1000000 1.0001751662959786 -0.006859876125014322
1047500 1.0005349890569921 -0.007467052172223354
1095000 1.0000868950688708 -0.007777809280225331
1142500 0.9998103930949667 -0.008019749157738175
1190000 0.9996796763953023 -0.008302781884058674
1237500 1.000058772846275 -0.008489949167783752
1285000 1.0002211474211131 -0.00876162273623458
1332500 1.000237894835984 -0.009043163926834843
1380000 1.0002925345198592 -0.009018586036087723
1427500 1.0003984424209857 -0.009308510470011279
1475000 1.0003657506248511 -0.009673529229422825
1522500 1.0003136458988544 -0.010199651329871797
1570000 1.00005756624078 -0.010554990757661134
1617500 1.0001296341872936 -0.010748687194226987
1665000 1.0002867792031347 -0.011101099266219978
1712500 1.000336103424359 -0.011512777189825013
1760000 1.0002519095416111 -0.011908833746859408
1807500 1.0001885257122671 -0.012200685672940845
1855000 1.0002172876178044 -0.012449104917746796
1902500 1.0002936788739938 -0.012764267171816746
1950000 1.0003288939636956 -0.013247338404078797
1997500 1.0002766953189934 -0.013594216874507792
2045000 1.0002840009234368 -0.013763806081325032
2092500 1.0003956716157103 -0.013940985051319427
2140000 1.00049821547704 -0.014312399455577988
2187500 1.0005069842910117 -0.014720188484935967
2235000 1.0004382140580848 -0.01496636130408706
2282500 1.0004202740328003 -0.015105099725395836
2330000 1.0004993856737694 -0.015307375060181538
2377500 1.0006472724078066 -0.01566601393718141
2425000 1.0006424692279552 -0.016034946021523323
2472500 1.0004490727729944 -0.016246516122882464
2520000 1.0004001731074847 -0.016406084530464358
2567500 1.0005905504189143 -0.016641140102600926
2615000 1.000582323827596 -0.017192194643248938
2662500 1.0003753306701184 -0.017445011411935496
2710000 1.000217834343289 -0.017696661540857826
2757500 1.0003107059841858 -0.017919006250680585
2805000 1.0004865234817641 -0.018337873178101344
2852500 1.0003567453439248 -0.01882651208144111
2900000 1.000153688284001 -0.019020173926037512
2947500 1.0002637398611838 -0.019279347919482336
2995000 1.000422236999121 -0.01961211117923881
3042500 1.0004552960718125 -0.02011349071531518
3090000 1.0002349990972113 -0.02051783361087358
3137500 1.0002813737103518 -0.020742304209244975
3185000 1.0003283403985648 -0.020878483371005088
3232500 1.0005259518281702 -0.021337863669330607
3280000 1.000352957425761 -0.02177290101159081
3327500 1.00032354870076 -0.02195229165295696
3375000 1.000485972255007 -0.022104233688437554
3422500 1.0006594239651674 -0.022531393684638502
3470000 1.0006347962813131 -0.022987695708979457
3517500 1.00061682109877 -0.023302942109031274
3565000 1.0004811349806266 -0.02345412217714211
3612500 1.0005958533289716 -0.02358014461941981
3660000 1.0006608463850246 -0.023944344915434856
3707500 1.0006847023931906 -0.024293708278271674
3755000 1.000521755588303 -0.024606439412221588
3802500 1.000532160845796 -0.024730104903099716
3850000 1.0005972402260228 -0.025026055593313466
3897500 1.000773371971475 -0.025454306303409644
3945000 1.0005953695584118 -0.02582874941041219
3992500 1.0003754028390912 -0.026013202422731908
4040000 1.0003640741919562 -0.02615628758464634
4087500 1.0005515968285896 -0.026603757017567477
4135000 1.0005517660343128 -0.027059336799755345
4182500 1.00042059825645 -0.027361265402130776
4230000 1.0003706303427518 -0.027512200689621607
4277500 1.000537777370189 -0.02791364647007791
4325000 1.0007472330586697 -0.02829218495784508
4372500 1.0005628908569535 -0.028793368665441594
4420000 1.0003940630066626 -0.0290053292500047
4467500 1.0004478792462488 -0.02919949744564864
4515000 1.0006395490186435 -0.029460280117795536
4562500 1.0007476399276545 -0.03004537433059638
4610000 1.0005587641451301 -0.030330054878270944
4657500 1.0004511606354696 -0.030484612740741088
4705000 1.0007265267041507 -0.030689306213407836
4752500 1.0009046472759755 -0.031052359141062524
4800000 1.0007215652630574 -0.03157040443652248
4847500 1.000651755499549 -0.031764891887777015
4895000 1.0007190026069321 -0.031854605271658856
4942500 1.0008510051653867 -0.03208213080556681
4990000 1.0008317273196208 -0.03242557761240678
5037500 1.0007349836187993 -0.03283813607857887
5085000 1.0006609230611354 -0.03305773875353762
5132500 1.0006165407942043 -0.03323442859035984
5180000 1.0007709212851534 -0.033600622783564286
5227500 1.0008705013346197 -0.03411765429671754
5275000 1.0006615185817835 -0.03442825040992242
5322500 1.0005693256319543 -0.03462274913411143
5370000 1.0006186472351466 -0.034756359937722546
5417500 1.0007637537257006 -0.035182355344291504
5465000 1.0007321311854545 -0.035578718823967286
5512500 1.0005068588811912 -0.03590032938570063
5560000 1.000400156780773 -0.03604707935079205
5607500 1.0006479720666877 -0.03639087134010109
5655000 1.0007645388130952 -0.03694262747006537
5702500 1.0006063789102027 -0.037362277414122055
5750000 1.0004172070214612 -0.03758821701932053
5797500 1.000622273046252 -0.037739169092677265
5845000 1.000793198222247 -0.03825198827341625
5892500 1.0007579298563978 -0.038688625472746166
5940000 1.0006408216680132 -0.03910007646114853
5987500 1.0006085503138653 -0.03916292132678601
6035000 1.0008306047444506 -0.03929813101355168
6082500 1.0009468443569756 -0.03979613789643923
6130000 1.0008128805049923 -0.04027264059343579
6177500 1.0008016739560546 -0.040427759941436915
6225000 1.000808839895285 -0.040576726324947764
6272500 1.0009251252454578 -0.04085473050405042
6320000 1.0010253293022482 -0.04128519365396619
6367500 1.0009018383252852 -0.041622715308799275
6415000 1.0008437973469562 -0.04181115645781288
6462500 1.0009429511139611 -0.0420324483513847
6510000 1.0010557570429066 -0.042302969050401845
6557500 1.001069424901613 -0.042741361538620154
6605000 1.0009203234877335 -0.04312728519857765
6652500 1.0007550083789007 -0.04321697759403055
6700000 1.0007944807871854 -0.043333255247943334
6747500 1.0010256893660237 -0.043783351616953084
6795000 1.000958133049111 -0.04427885820023111
6842500 1.0007648948105845 -0.04443913349705379
6890000 1.000641455078476 -0.04458778345292102
6937500 1.0008703233006941 -0.04492746395915494
6985000 1.0009617657881473 -0.04551118549126433
7032500 1.0008453215122972 -0.04589314916198059
7080000 1.0006294649896956 -0.046110387601516215
7127500 1.0007087026020616 -0.04635295331519044
7175000 1.001025919433321 -0.04680705600091943
7222500 1.0008512934966738 -0.04719270934675832
7270000 1.0007004028866449 -0.04747833626581388
7317500 1.0008499690563055 -0.0475758331813748
7365000 1.001105222341584 -0.047978899396180004
7412500 1.0010582523429525 -0.048465510299248095
7460000 1.0008507994954325 -0.04882919286591534
7507500 1.0009185177391733 -0.04898638059460058
7555000 1.0011154304213257 -0.04928195739693957
7602500 1.0012617636168655 -0.049609627012445534
7650000 1.0010812359354446 -0.05000400321215901
7697500 1.0010582701552488 -0.05031175676542321
7745000 1.0011225594005262 -0.05039688226939408
7792500 1.001225062037769 -0.05062793404627386
7840000 1.0012505038402535 -0.05110800621395691
7887500 1.0011431648587772 -0.051514203233916145
7935000 1.0010682320783422 -0.05160835858603806
7982500 1.0011018994515593 -0.05180516030894294
8030000 1.001235327297952 -0.05216465181719716
8077500 1.001157512760161 -0.052681418660315046
8125000 1.0010557341845716 -0.05298344682191609
8172500 1.001409642605712 -0.052925434357765436
8220000 1.0011587779591067 -0.05334117950270299
8267500 1.001031813248939 -0.05395077356831161
8315000 1.0009588911011742 -0.05413601166957986
8362500 1.000865513007157 -0.05433966176101504
8410000 1.000999746361246 -0.05465031097479238
8457500 1.0011925161070885 -0.05517907764352003
8505000 1.0011129927043072 -0.055525500280244215
8552500 1.0009996109247339 -0.05580811538749167
8600000 1.0009303624905384 -0.05596938105144015
8647500 1.0012533935028802 -0.05644206280238587
8695000 1.001234103828635 -0.056930103428553
8742500 1.0010788751263877 -0.05726109242363347
8790000 1.001024132182565 -0.057386580648506186
8837500 1.0012400638490395 -0.05768218883129035
8885000 1.001550423404603 -0.058058288598362935
8932500 1.0014151849214223 -0.05836914726097522
8980000 1.0012930305098886 -0.05870025997361055
9027500 1.0013766149131662 -0.058835142613058736
9075000 1.0014929753847843 -0.059065266152564765
9122500 1.0014997685763096 -0.059526272174349484
9170000 1.0015116378379567 -0.06000216692759269
9217500 1.0014003920116106 -0.06019940338758549
9265000 1.001533056798058 -0.06030453918418484
9312500 1.0015950669412015 -0.060606685683487045
9360000 1.0015015317908658 -0.061037788974401236
9407500 1.001403989847914 -0.061381015957223936
9455000 1.0013501719548745 -0.06165674812456124
9502500 1.0014637287496335 -0.061850037123437805
9550000 1.001485823403667 -0.06241879833454265
9597500 1.001361511202473 -0.06267594109147229
9645000 1.0012885827725837 -0.06281086628085857
9692500 1.001229677243573 -0.06307032929849236
9740000 1.0013210529459917 -0.06364149889079786
9787500 1.0012686636134935 -0.06409352802549538
9835000 1.0012295741733552 -0.06431496224242539
9882500 1.0012472475461387 -0.06453108753856159
9930000 1.00121837264258 -0.06488531304980166
9977500 1.0014961361566725 -0.06545599758307062
10025000 1.0013522480858312 -0.06575751390565585
10072500 1.001347737844615 -0.06603917948210937
10120000 1.0014061848230975 -0.06621446630363452
10167500 1.0015972378015658 -0.06653651290262934
10215000 1.001596803977686 -0.06710868349772549
10262500 1.0014072627819637 -0.06747207667297835
10310000 1.0013254946270431 -0.06772545148880359
10357500 1.0013781589718582 -0.06789223537876275
10405000 1.0015341469917651 -0.06824292783015176
10452500 1.0015923045782438 -0.06865968284753093
10500000 1.0014896032440055 -0.06888612806149448
10547500 1.0014649878328152 -0.06906684660323695
10595000 1.0017019852752231 -0.06930502631393873
10642500 1.0016353950091637 -0.06972724191780635
10690000 1.0015238973849387 -0.07005574871616103
10737500 1.001226687154613 -0.07022401494670238
10785000 1.0015802288885087 -0.0705180508475873
10832500 1.0015817645819536 -0.07088891920301495
10880000 1.0014614967228213 -0.07123900148174687
10927500 1.0013867791238993 -0.07153965189456424
10975000 1.0015551312324735 -0.07158617050069899
11022500 1.0016362078448062 -0.07197046286769544
11070000 1.0015640011959737 -0.07242513794447926
11117500 1.001489908971101 -0.0728161472525651
11165000 1.0014110080148717 -0.07301547621363175
11212500 1.0014689678800488 -0.07325985897026362
11260000 1.0015255680579618 -0.0736486557932586
11307500 1.0014890735931667 -0.07411484979456408
11355000 1.0014051294683377 -0.07438398767089636
11402500 1.0013137989561705 -0.07461075269039814
11450000 1.0015807513961683 -0.07499458585677032
11497500 1.0015793820941552 -0.07530710847141041
11545000 1.0015353156108653 -0.07582723266119397
11592500 1.0014502757117332 -0.07608595646952278
11640000 1.0015013133063873 -0.07627597472824962
11687500 1.0018574191543843 -0.07665198241800701
11735000 1.0017425814219219 -0.07713071151055842
11782500 1.0016626568645142 -0.07744668888887946
11830000 1.0016028291261763 -0.07763849810102401
11877500 1.0018221648203989 -0.07786550285657137
11925000 1.0019188544516824 -0.07833028808471572
11972500 1.0018720517429123 -0.07870751846016391
12020000 1.0016454485878734 -0.07898867286134073
12067500 1.001762049055161 -0.0791494476088613
12115000 1.0019448146622525 -0.07942921885413604
12162500 1.0018498190758902 -0.07986489822645546
12210000 1.0016266440834605 -0.08018774624380856
12257500 1.0016534915760735 -0.08042375434516925
12305000 1.0016998956065692 -0.08066805018227029
12352500 1.0018021419381766 -0.08107443555611027
12400000 1.00169887157307 -0.08153948534340041
12447500 1.0015515130787902 -0.08172779391443832
12495000 1.0016523581939856 -0.08200896719970953
12542500 1.0017731907625849 -0.08231188211105961
12590000 1.0016272702247235 -0.08275993680636581
12637500 1.0016775255922894 -0.08308593217887136
12685000 1.0014722071330275 -0.08332632469837285
12732500 1.0014035803923185 -0.08352819886192872
12780000 1.0014877359768792 -0.0839512437296748
12827500 1.0016417999778588 -0.08444622276363394
12875000 1.001627194164477 -0.08487372639400641
12922500 1.0015558445558537 -0.08503792765380096
12970000 1.0014995147083237 -0.08546925569021493
13017500 1.0016088864662438 -0.08589337457101177
13065000 1.0015734079297025 -0.08628106003885466
13112500 1.0015296857799865 -0.08653790254567569
13160000 1.0013802420044973 -0.08674519754266721
13207500 1.001744414611094 -0.08709264378702691
13255000 1.0018376461030685 -0.08749250899585038
13302500 1.0017714574058385 -0.08790385127002548
13350000 1.0016798204119588 -0.088184145375
13397500 1.0017805975134766 -0.08838659183296023
13445000 1.0020159933928188 -0.08874411305371264
13492500 1.0019554042101506 -0.08913229744320421
13540000 1.0018128910886424 -0.08946273782511414
13587500 1.0018362015251723 -0.08965708722480994
13635000 1.0019603438715052 -0.08994710763439094
13682500 1.0020439142377287 -0.09030896543629324
13730000 1.0020146111177382 -0.09068630060371442
13777500 1.001999804866734 -0.09100110137699434
13825000 1.001897259953668 -0.091233387000918
13872500 1.0020091988521167 -0.09148525039869722
13920000 1.0019504091183675 -0.09194397305073113
13967500 1.0019750565493943 -0.09223503489283127
14015000 1.0019386529850347 -0.09250180895244965
14062500 1.0018722444982935 -0.0927061667237029
14110000 1.002006121195279 -0.09308971168851779
14157500 1.001963534745325 -0.09356909579552351
14205000 1.0018697271237125 -0.09401710733237881
14252500 1.0018644865324167 -0.09423587023152241
14300000 1.001862335538389 -0.09453847520709305
14347500 1.0018825220664493 -0.09493461371860296
14395000 1.0019186059621155 -0.09550851084120807
14442500 1.0017270560461866 -0.09581821979181106
14490000 1.001828500059727 -0.09604349235605368
14537500 1.0019147887893365 -0.09641958949055317
14585000 1.0020785580614169 -0.09684512337360483
14632500 1.0019759449075007 -0.0972186814178347
14680000 1.0020594140031684 -0.09753921268760418
14727500 1.0022087580370704 -0.09779287731986201
14775000 1.0023121104100476 -0.09820394737574134
14822500 1.0023063779097436 -0.09851420197030333
14870000 1.0021805787620641 -0.09890863996108672
14917500 1.0022754093414203 -0.09913686115046692
14965000 1.002469327096847 -0.0995251893285414
15012500 1.0024390805992505 -0.09990701308662463
15060000 1.0024253494476512 -0.10025242153093757
15107500 1.0024027512484668 -0.10052732841769012
15155000 1.0024618828204226 -0.10085594784833044
15202500 1.0026178165026156 -0.1011604061296152
15250000 1.002470512069355 -0.1014955861455138
15297500 1.0024736111264687 -0.10182299331126625
15345000 1.002448896061228 -0.1020972136404879
15392500 1.0024612736417828 -0.10245583695544268
15440000 1.002375043441827 -0.10284680458184767
15487500 1.002457839956028 -0.10324702841299489
15535000 1.0023681235249904 -0.10353080414519987
15582500 1.002409263984567 -0.10383884126206992
15630000 1.0024288670302497 -0.1041924724475808
15677500 1.0025714217474893 -0.10466503649806709
15725000 1.0025001210137179 -0.10499303218284518
15772500 1.0024505338159377 -0.10525634335928306
15820000 1.002448508185744 -0.10565588648066035
15867500 1.0026087619090485 -0.10600226453690165
15915000 1.0025883481362605 -0.1064111825044153
15962500 1.0026008241990374 -0.10676290708201194
16010000 1.0025809322933255 -0.10708952265167818
16057500 1.0027217846865217 -0.10741837859096402
16105000 1.0027270583723282 -0.10788309689506918
16152500 1.0027190260989 -0.10822949747485629
16200000 1.0026916066646274 -0.10860109306982156
16247500 1.002804521452682 -0.10890568065331159
16295000 1.0029284194340857 -0.10913601001709045
16342500 1.0029074995840028 -0.10952848940321927
16390000 1.0028076108213053 -0.1098431460045221
16437500 1.0028170002320436 -0.11019677301431667
16485000 1.0029179755793824 -0.11048151703221132
16532500 1.00287448257997 -0.11073958929254833
16580000 1.0025402847033846 -0.1111156277997715
16627500 1.0027371381839794 -0.11151947650560033
16675000 1.0027321428019063 -0.11171738344479595
16722500 1.0027142541992458 -0.11208709148322214
16770000 1.0026370637208426 -0.11241525833122895
16817500 1.0026056420215521 -0.11288828346410291
16865000 1.0027159967775312 -0.11311825891442115
16912500 1.00260514420214 -0.1135393238454669
16960000 1.0024608733249867 -0.11384421131401609
17007500 1.0024954968173416 -0.1142522765671501
17055000 1.0024582644487061 -0.11459038086425306
17102500 1.0025020146562125 -0.11493429064003338
17150000 1.0023583009974686 -0.11534032426405896
17197500 1.0024929228392139 -0.11577163231615478
17245000 1.0024376200650882 -0.11612222453519297
17292500 1.0023990031861296 -0.11655053417243236
17340000 1.0023687525288187 -0.1168581383364286
17387500 1.0024533415778043 -0.11728968309045072
17435000 1.0024856148446764 -0.11762729335855279
17482500 1.00236817759209 -0.11808537118917628
17530000 1.0023816850364364 -0.11840934075606525
17577500 1.0025575612718636 -0.11877086271912558
17625000 1.0025652568610683 -0.1191857004707766
17672500 1.0025351588989482 -0.11950523621339831
17720000 1.0024522702223122 -0.11989210385387315
17767500 1.0026142342915356 -0.12022901835158308
17815000 1.0026352920697568 -0.12059254267929996
17862500 1.0026811821097086 -0.12096390792715069
17910000 1.0025188134698015 -0.12126526346536536
17957500 1.0026020286427757 -0.12163745195703816
18005000 1.0026219932914753 -0.12196659917210656
18052500 1.0025202628643146 -0.12235447237632413
18100000 1.0025008581464088 -0.12278355074187254
18147500 1.0024345276553643 -0.12310061115212328
18195000 1.002383511981766 -0.1234768640862648
18242500 1.0023545432561538 -0.12378247764878973
18290000 1.00222039397393 -0.12420126704376752
18337500 1.0022042474801633 -0.12454159692539218
18385000 1.0023307318241848 -0.12496308121554126
18432500 1.0022777654935562 -0.1253187155368811
18480000 1.0021485158561632 -0.12575057516403734
18527500 1.002182329945983 -0.12618797799559348
18575000 1.0022773292677207 -0.1265792734899077
18622500 1.002248039961157 -0.12699752869467248
18670000 1.0021407548184447 -0.12743067838019234
18717500 1.0021825738148136 -0.12784736476293707
18765000 1.0022575271074152 -0.12821018356710806
18812500 1.002218201431485 -0.1286253116529507
18860000 1.0022332464014483 -0.12897455299021998
18907500 1.0022900074222718 -0.12933829790917942
18955000 1.0024376777942463 -0.12978572819382997
19002500 1.0023586259457786 -0.13010486004725996
19050000 1.002482305676962 -0.13063410665116734
19097500 1.0024168921503365 -0.13094571759598234
19145000 1.0024392544452605 -0.13130338592433224
19192500 1.0024487433833447 -0.13162496271222585
19240000 1.002461243639741 -0.13196775638981295
19287500 1.002483318472014 -0.1323328234107026
19335000 1.0024830152067663 -0.13276318668280135
19382500 1.0024692380894566 -0.13307207708097496
19430000 1.0024333997543386 -0.13344437318493055
19477500 1.002431111153844 -0.13384178426585086
19525000 1.0023885726829853 -0.1340961476671565
19572500 1.002372583821673 -0.13450230546473885
19620000 1.0022747004054082 -0.13482564191496949
19667500 1.0022926345352985 -0.1351834911673341
19715000 1.0022745437996 -0.13562378614354492
19762500 1.0023240807253535 -0.13599634608439493
19810000 1.0021981433928 -0.13639761447907686
19857500 1.0022017274350583 -0.13686827698366685
19905000 1.002256615200955 -0.1372897265881424
19952500 1.0021502880265951 -0.13764121549112934
20000000 1.0021108843109978 -0.13799670727476104
